
SetupTitle, I/V Sweep - Unit (transfer)
PrimitiveTest, I/V Sweep
TestParameter, Context.MainFrame, B1500A
TestParameter, Channel.UnitType, SMU, SMU, SMU
TestParameter, Channel.Unit, SMU3:HR, SMU4:HR, SMU1:HR
TestParameter, Channel.IName, IG, ID, IS
TestParameter, Channel.VName, VG, VD, VS
TestParameter, Channel.Mode, V, V, COMMON
TestParameter, Channel.Func, VAR1, VAR2, CONST
TestParameter, Channel.Index, 
TestParameter, Channel.Time, 
TestParameter, Measurement.Port.Unit, SMU3:HR, SMU4:HR, SMU1:HR
TestParameter, Measurement.Port.SeriesResistor, NONE, NONE, NONE
TestParameter, Measurement.Port.Filter, ON, ON, ON
TestParameter, Measurement.Port.OutputVoltageComparison, 0, 0, 0
TestParameter, Measurement.Primary.Locus, Single
TestParameter, Measurement.Primary.Scale, LINEAR
TestParameter, Measurement.Primary.Start, -3
TestParameter, Measurement.Primary.Stop, 3
TestParameter, Measurement.Primary.Step, 0.06
TestParameter, Measurement.Primary.Compliance, 0.1
TestParameter, Measurement.Primary.PowerCompliance, 0
TestParameter, Measurement.Aborting.Condition, CONTINUE AT ANY
TestParameter, Measurement.PostOutput.Value, START
TestParameter, Measurement.PostOutput.Retention, OFF
TestParameter, Measurement.Secondary.Start, 0.1
TestParameter, Measurement.Secondary.Count, 3
TestParameter, Measurement.Secondary.Step, 1.4000000000000001
TestParameter, Measurement.Secondary.Compliance, 0.1
TestParameter, Measurement.Secondary.PowerCompliance, 0
TestParameter, Measurement.Bias.Source, -3, 0.1, 0
TestParameter, Measurement.Bias.Compliance, 0.1, 0.1, 0.1
TestParameter, Measurement.Monitor.Unit, SMU3:HR, SMU4:HR, SMU1:HR
TestParameter, Measurement.Monitor.Adc, HR ADC, HR ADC, HR ADC
TestParameter, Measurement.Monitor.Measurement, Compliance Side, Compliance Side, Compliance Side
TestParameter, Measurement.Monitor.RangingMode, LIMITED, LIMITED, LIMITED
TestParameter, Measurement.Monitor.RangeBoundary, 1nA, 1nA, 1nA
TestParameter, Measurement.Monitor.RangeRating, BY FULL RANGE, BY FULL RANGE, BY FULL RANGE
TestParameter, Measurement.Monitor.RangeRatingCoeff, 50, 50, 50
TestParameter, Measurement.Timing.Hold, 0
TestParameter, Measurement.Timing.Delay, 0
TestParameter, Measurement.Adc.HighSpeed.Mode, PLC
TestParameter, Measurement.Adc.HighSpeed.Coeff, 5
TestParameter, Measurement.Adc.HighResolution.AutoZero, OFF
TestParameter, Measurement.Adc.HighResolution.Mode, PLC
TestParameter, Measurement.Adc.HighResolution.Coeff, 5
TestParameter, Measurement.WaitTime.Source.Coeff, 1
TestParameter, Measurement.WaitTime.Source.Offset, 0
TestParameter, Measurement.WaitTime.Monitor.Coeff, 1
TestParameter, Measurement.WaitTime.Monitor.Offset, 0
TestParameter, Function.User.Name, SS
TestParameter, Function.User.Unit, mV/dec
TestParameter, Function.User.Definition, diff(VG,log(ID))*1000
TestParameter, Output.Graph.Enabled, true
TestParameter, Output.Graph.AutoScaling, false
TestParameter, Output.Graph.XAxis.Data, VG
TestParameter, Output.Graph.XAxis.Scale, Linear
TestParameter, Output.Graph.XAxis.Left, -3
TestParameter, Output.Graph.XAxis.Right, 3
TestParameter, Output.Graph.XAxis.RunTimeAutoScale, true
TestParameter, Output.Graph.YAxis.Data, ID, IG
TestParameter, Output.Graph.YAxis.Scale, Log, Log
TestParameter, Output.Graph.YAxis.Bottom, 0, 1E-15
TestParameter, Output.Graph.YAxis.Top, 0.0001, 1E-12
TestParameter, Output.Graph.YAxis.Group, , 
TestParameter, Output.Graph.YAxis.RunTimeAutoScale, true, true
TestParameter, Output.List.Data, VG, VD, VS, IG, ID, IS, SS
TestParameter, Output.Scalar.Data, SS
TestParameter, AutoAnalysis.Interpolation, false
TestParameter, AutoAnalysis.Var2StepCount, 1
TestParameter, AutoAnalysis.Var2StepScript, 
TestParameter, AutoAnalysis.Line1.Enabled, false
TestParameter, AutoAnalysis.Line1.Type, 1
TestParameter, AutoAnalysis.Line1.Fix, True
TestParameter, AutoAnalysis.Line1.YAxis, 0
TestParameter, AutoAnalysis.Line1.Point1.Type, 0
TestParameter, AutoAnalysis.Line1.Point1.XY.X, 
TestParameter, AutoAnalysis.Line1.Point1.XY.Y, 
TestParameter, AutoAnalysis.Line1.Point1.Data.Var, 
TestParameter, AutoAnalysis.Line1.Point1.Data.Condition, 
TestParameter, AutoAnalysis.Line1.Point1.Data.Start, false
TestParameter, AutoAnalysis.Line1.Point1.Data.StartVar, 
TestParameter, AutoAnalysis.Line1.Point1.Data.StartCondition, 
TestParameter, AutoAnalysis.Line1.Point2.Type, 0
TestParameter, AutoAnalysis.Line1.Point2.XY.X, 
TestParameter, AutoAnalysis.Line1.Point2.XY.Y, 
TestParameter, AutoAnalysis.Line1.Point2.Data.Var, 
TestParameter, AutoAnalysis.Line1.Point2.Data.Condition, 
TestParameter, AutoAnalysis.Line1.Point2.Data.Start, false
TestParameter, AutoAnalysis.Line1.Point2.Data.StartVar, 
TestParameter, AutoAnalysis.Line1.Point2.Data.StartCondition, 
TestParameter, AutoAnalysis.Line1.GradientExpr, 0
TestParameter, AutoAnalysis.Line2.Enabled, false
TestParameter, AutoAnalysis.Line2.Type, 1
TestParameter, AutoAnalysis.Line2.Fix, True
TestParameter, AutoAnalysis.Line2.YAxis, 0
TestParameter, AutoAnalysis.Line2.Point1.Type, 0
TestParameter, AutoAnalysis.Line2.Point1.XY.X, 
TestParameter, AutoAnalysis.Line2.Point1.XY.Y, 
TestParameter, AutoAnalysis.Line2.Point1.Data.Var, 
TestParameter, AutoAnalysis.Line2.Point1.Data.Condition, 
TestParameter, AutoAnalysis.Line2.Point1.Data.Start, false
TestParameter, AutoAnalysis.Line2.Point1.Data.StartVar, 
TestParameter, AutoAnalysis.Line2.Point1.Data.StartCondition, 
TestParameter, AutoAnalysis.Line2.Point2.Type, 0
TestParameter, AutoAnalysis.Line2.Point2.XY.X, 
TestParameter, AutoAnalysis.Line2.Point2.XY.Y, 
TestParameter, AutoAnalysis.Line2.Point2.Data.Var, 
TestParameter, AutoAnalysis.Line2.Point2.Data.Condition, 
TestParameter, AutoAnalysis.Line2.Point2.Data.Start, false
TestParameter, AutoAnalysis.Line2.Point2.Data.StartVar, 
TestParameter, AutoAnalysis.Line2.Point2.Data.StartCondition, 
TestParameter, AutoAnalysis.Line2.GradientExpr, 0
TestParameter, AutoAnalysis.Marker.Enabled, false
TestParameter, AutoAnalysis.Marker.Data.Var, 
TestParameter, AutoAnalysis.Marker.Data.Condition, 
TestParameter, AutoAnalysis.Marker.Data.Start, false
TestParameter, AutoAnalysis.Marker.Data.StartVar, 
TestParameter, AutoAnalysis.Marker.Data.StartCondition, 
MetaData, TestRecord.EntryPoint, true
MetaData, TestRecord.RecordTime, 02/06/2026 13:50:08
MetaData, TestRecord.TestTarget, 260206_ALD_IGZO_#6_WL_1010_R02_upper_TR_2nd
MetaData, TestRecord.IterationIndex, 1
MetaData, TestRecord.Preservation, true
MetaData, TestRecord.Flag, 
MetaData, TestRecord.Remarks, 
MetaData, TestRecord.LinkKey, 289beeb2-2793-4cc3-bafd-cb5f18c121f8
MetaData, TestRecord.Parameters, 
Dimension1, 101, 101, 101, 101, 101, 101, 101
Dimension2, 3, 3, 3, 3, 3, 3, 3
DataName, VG, VD, VS, IG, ID, IS, SS
DataValue, -3, 0.1, 0, -4.2000000000000004E-14, -2.4000000000000002E-14, -6.4E-14, 34.021540093466591
DataValue, -2.94, 0.1, 0, -1.0400000000000001E-13, -1.4E-13, -4.6000000000000006E-14, 116.88629075846434
DataValue, -2.88, 0.1, 0, -3.8E-14, 6.7E-14, -6.2E-14, -497.59071382906529
DataValue, -2.82, 0.1, 0, -2.8E-14, 1.1000000000000001E-13, -4.8000000000000004E-14, -103.43310136407797
DataValue, -2.7600000000000002, 0.1, 0, -6.2E-14, 2.1000000000000002E-14, -3.9000000000000004E-14, -173.12340490667467
DataValue, -2.7, 0.1, 0, 7E-15, -5.5000000000000005E-14, -3.4E-14, 103.43310136407837
DataValue, -2.64, 0.1, 0, 5.0000000000000008E-15, -6.7E-14, -5E-14, 6659.81981591893
DataValue, -2.58, 0.1, 0, -2.9E-14, 5.6E-14, -5.6E-14, 459.39081079908215
DataValue, -2.52, 0.1, 0, -1.9E-14, 8.7000000000000008E-14, -7.7E-14, 188.06201057242433
DataValue, -2.46, 0.1, 0, -4.6000000000000006E-14, -1.06E-13, -2.1000000000000002E-14, -487.01216976846769
DataValue, -2.4, 0.1, 0, -2.4000000000000002E-14, -6.8E-14, -4.2000000000000004E-14, -90.141888926235637
DataValue, -2.34, 0.1, 0, -3.8E-14, 2.8E-14, -3.8E-14, -1299.0763981396196
DataValue, -2.2800000000000002, 0.1, 0, -1.4E-14, 6.2E-14, -7.2000000000000009E-14, 314.6570754265046
DataValue, -2.22, 0.1, 0, -3.4E-14, 4.1E-14, -6.5E-14, 470.7871666351565
DataValue, -2.16, 0.1, 0, 6.0000000000000005E-15, -8.0000000000000013E-14, -4.5000000000000004E-14, -32.313900967726973
DataValue, -2.1, 0.1, 0, -3.7E-14, 1E-15, -6.4E-14, -1539.2204635489431
DataValue, -2.04, 0.1, 0, -3.2E-14, 7.4E-14, -5.2000000000000006E-14, 42.354734863771391
DataValue, -1.98, 0.1, 0, -4.0000000000000006E-14, 1.7E-14, -2.1000000000000002E-14, 946.732822212541
DataValue, -1.92, 0.1, 0, -1.2000000000000001E-14, -8.4000000000000008E-14, -4.1E-14, 97.78120858436553
DataValue, -1.86, 0.1, 0, -5.9E-14, -5.8E-14, -4.8000000000000004E-14, -713.70403783955408
DataValue, -1.8, 0.1, 0, -5.0000000000000008E-15, 7.1E-14, -5.4000000000000003E-14, 928.70824208844726
DataValue, -1.74, 0.1, 0, -4.2000000000000004E-14, 6.6000000000000009E-14, -5E-14, -342.21488216657485
DataValue, -1.68, 0.1, 0, -1.2000000000000001E-14, -5E-14, -4.0000000000000006E-14, 434.38383075954874
DataValue, -1.62, 0.1, 0, -3.7E-14, -8.7000000000000008E-14, -7E-15, 519.229399096605
DataValue, -1.56, 0.1, 0, -1.2000000000000001E-14, 6.3000000000000009E-14, 2E-15, 607.4996578236894
DataValue, -1.5, 0.1, 0, -1.2000000000000001E-14, 1.06E-13, -4.7E-14, -154.671286211654
DataValue, -1.44, 0.1, 0, -4.6000000000000006E-14, -2.9E-14, -5.8E-14, -261.58239160956032
DataValue, -1.3800000000000001, 0.1, 0, -1.5000000000000002E-14, -6.7E-14, -5.6E-14, -808.51634457479179
DataValue, -1.32, 0.1, 0, -1.8000000000000002E-14, 2.5E-14, -3.7E-14, 1399.1424369134024
DataValue, -1.26, 0.1, 0, -4.6000000000000006E-14, 7.3E-14, -4.5000000000000004E-14, -268.88520706347435
DataValue, -1.2, 0.1, 0, -8E-15, 1.6E-14, -5.4000000000000003E-14, -140.10962044433751
DataValue, -1.1400000000000001, 0.1, 0, -3.3000000000000005E-14, -3.1E-14, -2.8E-14, 130.96280015247521
DataValue, -1.08, 0.1, 0, 7E-15, 4.0000000000000006E-14, -3.5E-14, 140.10962044433776
DataValue, -1.02, 0.1, 0, -1.0000000000000002E-14, 7.3E-14, -3.7E-14, 264.16864552464233
DataValue, -0.96, 0.1, 0, -6.0000000000000005E-15, 6.3000000000000009E-14, -2.8E-14, -1691.2905421634407
DataValue, -0.9, 0.1, 0, 1.5000000000000002E-14, -6.8E-14, -3.4E-14, 400.64566707026893
DataValue, -0.84, 0.1, 0, -8E-15, -8.5E-14, -4.1E-14, 211.27354301328921
DataValue, -0.78, 0.1, 0, -2E-15, 1.2000000000000002E-13, -6.6000000000000009E-14, -226.14702432407952
DataValue, -0.72, 0.1, 0, -3.4E-14, 5E-14, -2.3000000000000003E-14, -386.90341196978824
DataValue, -0.66, 0.1, 0, -2.6000000000000003E-14, -8.8E-14, -8.3000000000000012E-14, 153.97942959626917
DataValue, -0.6, 0.1, 0, -1E-15, -1.09E-13, -5.9E-14, 295.95641548517227
DataValue, -0.54, 0.1, 0, -1.2000000000000001E-14, 1.3200000000000002E-13, -1.6200000000000002E-13, 55.000056210476551
DataValue, -0.48, 0.1, 0, -2.2E-14, 9.6600000000000012E-13, -9.6600000000000012E-13, 29.315956490431152
DataValue, -0.42, 0.1, 0, -9.0000000000000011E-15, 7.912000000000001E-12, -7.9800000000000011E-12, 28.632016881756975
DataValue, -0.36, 0.1, 0, -2.4000000000000002E-14, 6.3849000000000009E-11, -6.3662000000000007E-11, 30.492508238299873
DataValue, -0.3, 0.1, 0, 1.0000000000000002E-14, 4.04954E-10, -4.0388300000000003E-10, 35.8735771466827
DataValue, -0.24, 0.1, 0, -1.9E-14, 1.81094E-09, -1.80667E-09, 45.397497478302796
DataValue, -0.18, 0.1, 0, -3.9000000000000004E-14, 5.69356E-09, -5.68651E-09, 60.081237783102516
DataValue, -0.12, 0.1, 0, -3.7E-14, 1.3344999999999998E-08, -1.33304E-08, 80.603269504446644
DataValue, -0.06, 0.1, 0, -3.0000000000000005E-14, 2.52319E-08, -2.5226899999999996E-08, 106.55013667164768
DataValue, 0, 0.1, 0, -9.0000000000000011E-15, 4.1156099999999994E-08, -4.1138099999999993E-08, 137.19695948227991
DataValue, 0.06, 0.1, 0, -4.0000000000000006E-14, 6.050729999999999E-08, -6.0492399999999992E-08, 171.08204479166236
DataValue, 0.12, 0.1, 0, -1.3000000000000001E-14, 8.2995799999999987E-08, -8.29891E-08, 206.8947796487785
DataValue, 0.18, 0.1, 0, -3.8E-14, 1.080689E-07, -1.0804599999999999E-07, 244.47972563882331
DataValue, 0.24, 0.1, 0, -2.1000000000000002E-14, 1.3558899999999998E-07, -1.356E-07, 282.55871568710052
DataValue, 0.3, 0.1, 0, 9.0000000000000011E-15, 1.6525E-07, -1.65239E-07, 322.52720115588193
DataValue, 0.36, 0.1, 0, 3.0000000000000002E-15, 1.9670199999999998E-07, -1.9669E-07, 363.12178189001492
DataValue, 0.42, 0.1, 0, -6.2E-14, 2.29965E-07, -2.2998999999999998E-07, 403.64802638435833
DataValue, 0.48, 0.1, 0, -7E-15, 2.64801E-07, -2.64804E-07, 444.7067681273046
DataValue, 0.54, 0.1, 0, 4E-15, 3.0119799999999997E-07, -3.01233E-07, 486.81690364113518
DataValue, 0.6, 0.1, 0, -2.1000000000000002E-14, 3.38823E-07, -3.38804E-07, 529.74757036018161
DataValue, 0.66, 0.1, 0, -4.5000000000000004E-14, 3.77772E-07, -3.77798E-07, 572.27297616334067
DataValue, 0.72, 0.1, 0, -2.2E-14, 4.17869E-07, -4.17877E-07, 615.3121888987165
DataValue, 0.78, 0.1, 0, 3.0000000000000002E-15, 4.5912099999999997E-07, -4.59164E-07, 658.875481653253
DataValue, 0.84, 0.1, 0, 1E-15, 5.01346E-07, -5.01405E-07, 703.49038084587437
DataValue, 0.9, 0.1, 0, -5.0000000000000008E-15, 5.44513E-07, -5.44553E-07, 748.39415685082122
DataValue, 0.96, 0.1, 0, -8E-15, 5.88537E-07, -5.88571E-07, 793.58007233964611
DataValue, 1.02, 0.1, 0, -8E-15, 6.33402E-07, -6.33433E-07, 838.61395629775245
DataValue, 1.08, 0.1, 0, -3.8E-14, 6.79076E-07, -6.79098E-07, 886.16300006585
DataValue, 1.1400000000000001, 0.1, 0, -7E-15, 7.2525299999999994E-07, -7.25311E-07, 932.82625039760183
DataValue, 1.2, 0.1, 0, -1.5000000000000002E-14, 7.72301E-07, -7.72351E-07, 976.75542356900883
DataValue, 1.26, 0.1, 0, -5.700000000000001E-14, 8.20059E-07, -8.20143E-07, 1022.9781982128415
DataValue, 1.32, 0.1, 0, -1.5000000000000002E-14, 8.68423E-07, -8.6846199999999993E-07, 1070.3298575140802
DataValue, 1.3800000000000001, 0.1, 0, -1.4E-14, 9.1735199999999994E-07, -9.1741699999999994E-07, 1118.431941695404
DataValue, 1.44, 0.1, 0, -1.8000000000000002E-14, 9.66781E-07, -9.66914E-07, 1166.1264621385708
DataValue, 1.5, 0.1, 0, -2E-15, 1.01678E-06, -1.0168209999999999E-06, 1214.0321786067248
DataValue, 1.56, 0.1, 0, -9.0000000000000011E-15, 1.067224E-06, -1.067244E-06, 1264.6239256696006
DataValue, 1.62, 0.1, 0, -3.1E-14, 1.117988E-06, -1.118078E-06, 1311.1318934771502
DataValue, 1.68, 0.1, 0, 1.1E-14, 1.16951E-06, -1.1691400000000002E-06, 1358.3221881300015
DataValue, 1.74, 0.1, 0, -2.9E-14, 1.2212500000000002E-06, -1.2208800000000001E-06, 1411.7059652077628
DataValue, 1.8, 0.1, 0, -9.0000000000000011E-15, 1.2732700000000002E-06, -1.27289E-06, 1461.1686912637247
DataValue, 1.86, 0.1, 0, -4.2000000000000004E-14, 1.3257800000000002E-06, -1.32543E-06, 1512.8497284915716
DataValue, 1.92, 0.1, 0, -4.8000000000000004E-14, 1.37838E-06, -1.3780000000000002E-06, 1564.3758532723232
DataValue, 1.98, 0.1, 0, -5E-14, 1.43148E-06, -1.43115E-06, 1614.6979335229144
DataValue, 2.04, 0.1, 0, 1.8000000000000002E-14, 1.48472E-06, -1.4844000000000001E-06, 1666.9320251728175
DataValue, 2.1, 0.1, 0, -1.9E-14, 1.5383300000000001E-06, -1.5380300000000001E-06, 1716.9714160735755
DataValue, 2.16, 0.1, 0, 2.5E-14, 1.5922000000000002E-06, -1.59185E-06, 1768.1022525149392
DataValue, 2.22, 0.1, 0, -1.0000000000000002E-14, 1.6463600000000002E-06, -1.6460000000000002E-06, 1820.9490167299946
DataValue, 2.2800000000000002, 0.1, 0, -2.5E-14, 1.7006600000000003E-06, -1.70024E-06, 1875.5323157525572
DataValue, 2.34, 0.1, 0, -2.2E-14, 1.7551400000000002E-06, -1.7547200000000002E-06, 1932.1806685250715
DataValue, 2.4, 0.1, 0, -2.5E-14, 1.8096300000000002E-06, -1.80935E-06, 1984.4186325660005
DataValue, 2.46, 0.1, 0, -2.8E-14, 1.8645500000000002E-06, -1.8642E-06, 2036.2482206828597
DataValue, 2.52, 0.1, 0, -1.9E-14, 1.9194800000000003E-06, -1.9191400000000002E-06, 2092.556965612815
DataValue, 2.58, 0.1, 0, 7E-15, 1.9746E-06, -1.9741900000000002E-06, 2146.021160969367
DataValue, 2.64, 0.1, 0, -1.4E-14, 2.0298700000000003E-06, -2.0294E-06, 2207.7067029550094
DataValue, 2.7, 0.1, 0, 5.0000000000000008E-15, 2.0849E-06, -2.0845E-06, 2269.65550384371
DataValue, 2.7600000000000002, 0.1, 0, -1.4E-14, 2.1400800000000004E-06, -2.1396800000000003E-06, 2322.6041213775852
DataValue, 2.82, 0.1, 0, -4E-15, 2.1954500000000003E-06, -2.19503E-06, 2375.1810006248252
DataValue, 2.88, 0.1, 0, -2.0000000000000003E-14, 2.2509800000000004E-06, -2.25051E-06, 2435.5354536651766
DataValue, 2.94, 0.1, 0, -9.0000000000000011E-15, 2.3063300000000002E-06, -2.30579E-06, 2500.047674854764
DataValue, 3, 0.1, 0, -4.3000000000000006E-14, 2.3616600000000004E-06, -2.36116E-06, 2530.8718859946894
DataValue, -3, 1.5, 0, -6.8E-14, 1.42E-13, -3.7E-14, -23.456450385608566
DataValue, -2.94, 1.5, 0, -4.9000000000000006E-14, 1.1E-14, -5.2000000000000006E-14, -397.52644806770064
DataValue, -2.88, 1.5, 0, -3.3000000000000005E-14, 1.0500000000000001E-13, -5.2000000000000006E-14, 123.78783889714163
DataValue, -2.82, 1.5, 0, -3.2E-14, 2.9E-14, -5.700000000000001E-14, -441.28400844513391
DataValue, -2.7600000000000002, 1.5, 0, -4.4E-14, -8.0000000000000013E-14, -2.9E-14, 323.997010025471
DataValue, -2.7, 1.5, 0, -5.4000000000000003E-14, -4.2000000000000004E-14, -5.1000000000000004E-14, 426.42035196156661
DataValue, -2.64, 1.5, 0, -5.700000000000001E-14, 1.06E-13, -6.1E-14, 688.25734885410657
DataValue, -2.58, 1.5, 0, -4.9000000000000006E-14, 5E-14, -3.3000000000000005E-14, -143.74740172582153
DataValue, -2.52, 1.5, 0, -6.1E-14, -4.6000000000000006E-14, -4.9000000000000006E-14, -84.085645522696808
DataValue, -2.46, 1.5, 0, -1.6E-14, -1.2000000000000001E-14, -7.2000000000000009E-14, 517.68405706754015
DataValue, -2.4, 1.5, 0, -5.0000000000000008E-15, 5.8E-14, -5.9E-14, 53.94171068528653
DataValue, -2.34, 1.5, 0, 6.0000000000000005E-15, 1.1100000000000001E-13, -8.0000000000000013E-14, 1053.1465181780002
DataValue, -2.2800000000000002, 1.5, 0, -3.7E-14, -6.5E-14, -7.1E-14, -396.28685288890165
DataValue, -2.22, 1.5, 0, -3.6000000000000004E-14, -8.2E-14, -7.4E-14, 169.39231782432833
DataValue, -2.16, 1.5, 0, -1.7E-14, 1.3200000000000002E-13, -2.9E-14, 143.70779586985472
DataValue, -2.1, 1.5, 0, -2.1000000000000002E-14, 1.89E-13, -7.8000000000000008E-14, 127.62644958022065
DataValue, -2.04, 1.5, 0, -4.7E-14, -3.38E-13, -6.8E-14, -646.8960509030511
DataValue, -1.98, 1.5, 0, -2.1000000000000002E-14, 1.57E-13, -6.6000000000000009E-14, -192.13868902060636
DataValue, -1.92, 1.5, 0, -6.0000000000000005E-15, -1.81E-13, -4.9000000000000006E-14, 370.76912089651688
DataValue, -1.86, 1.5, 0, -1.6E-14, 2.17E-13, -3.5E-14, -94.736488199049347
DataValue, -1.8, 1.5, 0, -1.4E-14, 5.1000000000000004E-14, -3.4E-14, -419.36464806161467
DataValue, -1.74, 1.5, 0, -2.0000000000000003E-14, -1.63E-13, -2.7000000000000002E-14, 224.68439456685451
DataValue, -1.68, 1.5, 0, -4E-15, 8.7000000000000008E-14, -4.1E-14, -68.12199117978993
DataValue, -1.62, 1.5, 0, -3.4E-14, -2.8E-14, -4.4E-14, -58.0267188574048
DataValue, -1.56, 1.5, 0, -4E-15, -1.1E-14, -2.9E-14, -214.43283514697407
DataValue, -1.5, 1.5, 0, -2.3000000000000003E-14, 1.6E-14, -5.4000000000000003E-14, 44.512780993245926
DataValue, -1.44, 1.5, 0, -5.9E-14, -1.63E-13, -6.6000000000000009E-14, 72.8928550076722
DataValue, -1.3800000000000001, 1.5, 0, -2.1000000000000002E-14, 8.3000000000000012E-14, -5E-14, -391.82591323017766
DataValue, -1.32, 1.5, 0, -1.8000000000000002E-14, 1.2000000000000002E-13, -1.0500000000000001E-13, 532.03212145963994
DataValue, -1.26, 1.5, 0, -7E-15, -1.0400000000000001E-13, -8.9000000000000012E-14, -70.735978227066965
DataValue, -1.2, 1.5, 0, -1.6E-14, -2.2E-14, -4.1E-14, -303.11017019343063
DataValue, -1.1400000000000001, 1.5, 0, -2.1000000000000002E-14, 7E-14, -6.2E-14, 219.56158053201685
DataValue, -1.08, 1.5, 0, -4.0000000000000006E-14, 3.8E-14, -5.9E-14, -584.1008501642882
DataValue, -1.02, 1.5, 0, -2.2E-14, 5.700000000000001E-14, -4.1E-14, 88.259558095447346
DataValue, -0.96, 1.5, 0, 3.0000000000000002E-15, -1.48E-13, -9.0000000000000008E-14, -132.22309247453057
DataValue, -0.9, 1.5, 0, -2.6000000000000003E-14, 2.3000000000000003E-14, -5.1000000000000004E-14, -298.43884875225575
