VIN,VSS,VDD,IDD,ISS,VREF,IIN,VOUT,@TIME
2.0,0.0,3.3,9.705e-10,-8.9327e-10,0.5,9.91e+307,1.317558,0.0
2.0,0.0,3.3,8.6546e-10,-8.7999e-10,0.5,9.91e+307,1.526416,1.0
2.0,0.0,3.3,8.6336e-10,-8.7772e-10,0.5,9.91e+307,1.52635,2.0
2.0,0.0,3.3,8.5905e-10,-8.7316e-10,0.5,9.91e+307,1.526536,3.0
2.0,0.0,3.3,8.5639e-10,-8.7293e-10,0.5,9.91e+307,1.52652,4.0
2.0,0.0,3.3,8.5863e-10,-8.7303e-10,0.5,9.91e+307,1.526454,5.0
2.0,0.0,3.3,8.535e-10,-8.7001e-10,0.5,9.91e+307,1.526468,6.0
2.0,0.0,3.3,8.5845e-10,-8.6951e-10,0.5,9.91e+307,1.52636,7.0
2.0,0.0,3.3,8.575e-10,-8.6934e-10,0.5,9.91e+307,1.526328,8.0
2.0,0.0,3.3,8.5325e-10,-8.701e-10,0.5,9.91e+307,1.526412,9.0
2.0,0.0,3.3,8.5235e-10,-8.6949e-10,0.5,9.91e+307,1.526524,10.0
2.0,0.0,3.3,8.5392e-10,-8.67e-10,0.5,9.91e+307,1.526388,11.0
2.0,0.0,3.3,8.5376e-10,-8.6799e-10,0.5,9.91e+307,1.526418,12.0
2.0,0.0,3.3,8.4941e-10,-8.6818e-10,0.5,9.91e+307,1.526454,13.0
2.0,0.0,3.3,8.5164e-10,-8.6802e-10,0.5,9.91e+307,1.526406,14.0
2.0,0.0,3.3,8.5177e-10,-8.6806e-10,0.5,9.91e+307,1.526376,15.0
2.0,0.0,3.3,8.5108e-10,-8.67e-10,0.5,9.91e+307,1.526632,16.0
2.0,0.0,3.3,8.5061e-10,-8.6996e-10,0.5,9.91e+307,1.52648,17.0
2.0,0.0,3.3,8.5313e-10,-8.7005e-10,0.5,9.91e+307,1.526382,18.0
2.0,0.0,3.3,8.5144e-10,-8.6745e-10,0.5,9.91e+307,1.526394,19.0
2.0,0.0,3.3,8.5396e-10,-8.6859e-10,0.5,9.91e+307,1.526392,20.0
2.0,0.0,3.3,8.5246e-10,-8.6813e-10,0.5,9.91e+307,1.52631,21.0
2.0,0.0,3.3,8.5379e-10,-8.6769e-10,0.5,9.91e+307,1.526266,22.0
2.0,0.0,3.3,8.5376e-10,-8.6667e-10,0.5,9.91e+307,1.526284,23.0
2.0,0.0,3.3,8.5209e-10,-8.6587e-10,0.5,9.91e+307,1.526316,24.0
2.0,0.0,3.3,8.521e-10,-8.6755e-10,0.5,9.91e+307,1.526284,25.0
2.0,0.0,3.3,8.51e-10,-8.6678e-10,0.5,9.91e+307,1.526364,26.0
2.0,0.0,3.3,8.5393e-10,-8.692e-10,0.5,9.91e+307,1.526268,27.0
2.0,0.0,3.3,8.5358e-10,-8.6734e-10,0.5,9.91e+307,1.526192,28.0
2.0,0.0,3.3,8.5329e-10,-8.7533e-10,0.5,9.91e+307,1.526272,29.0
2.0,0.0,3.3,8.5127e-10,-8.67e-10,0.5,9.91e+307,1.526302,30.0
2.0,0.0,3.3,8.4941e-10,-8.6724e-10,0.5,9.91e+307,1.526336,31.0
2.0,0.0,3.3,8.5149e-10,-8.6825e-10,0.5,9.91e+307,1.526126,32.0
2.0,0.0,3.3,8.5348e-10,-8.6624e-10,0.5,9.91e+307,1.526134,33.0
2.0,0.0,3.3,8.5249e-10,-8.6698e-10,0.5,9.91e+307,1.52622,34.0
2.0,0.0,3.3,8.5117e-10,-8.6744e-10,0.5,9.91e+307,1.526214,35.0
2.0,0.0,3.3,8.5087e-10,-8.6459e-10,0.5,9.91e+307,1.52624,36.0
2.0,0.0,3.3,8.5169e-10,-8.6496e-10,0.5,9.91e+307,1.526184,37.0
2.0,0.0,3.3,8.4894e-10,-8.6512e-10,0.5,9.91e+307,1.526396,38.0
2.0,0.0,3.3,8.4409e-10,-8.6493e-10,0.5,9.91e+307,1.526502,39.0
2.0,0.0,3.3,8.4731e-10,-8.6468e-10,0.5,9.91e+307,1.526314,40.0
2.0,0.0,3.3,8.4951e-10,-8.6461e-10,0.5,9.91e+307,1.526346,41.0
2.0,0.0,3.3,8.4991e-10,-8.6563e-10,0.5,9.91e+307,1.526294,42.0
2.0,0.0,3.3,8.5072e-10,-8.6634e-10,0.5,9.91e+307,1.526226,43.0
2.0,0.0,3.3,8.4859e-10,-8.7354e-10,0.5,9.91e+307,1.526348,44.0
2.0,0.0,3.3,8.512e-10,-8.6505e-10,0.5,9.91e+307,1.526166,45.0
2.0,0.0,3.3,8.5062e-10,-8.6583e-10,0.5,9.91e+307,1.526248,46.0
2.0,0.0,3.3,8.469e-10,-8.6318e-10,0.5,9.91e+307,1.52633,47.0
2.0,0.0,3.3,8.4784e-10,-8.6503e-10,0.5,9.91e+307,1.52631,48.0
2.0,0.0,3.3,8.4816e-10,-8.6536e-10,0.5,9.91e+307,1.526218,49.0
2.0,0.0,3.3,8.5178e-10,-8.6555e-10,0.5,9.91e+307,1.526144,50.0
2.0,0.0,3.3,8.4874e-10,-8.6556e-10,0.5,9.91e+307,1.526264,51.0
2.0,0.0,3.3,8.5187e-10,-8.6607e-10,0.5,9.91e+307,1.526156,52.0
2.0,0.0,3.3,8.4893e-10,-8.6523e-10,0.5,9.91e+307,1.52617,53.0
2.0,0.0,3.3,8.5153e-10,-8.6851e-10,0.5,9.91e+307,1.52615,54.0
2.0,0.0,3.3,8.5155e-10,-8.6542e-10,0.5,9.91e+307,1.526148,55.0
2.0,0.0,3.3,8.4696e-10,-8.6476e-10,0.5,9.91e+307,1.52643,56.0
2.0,0.0,3.3,8.4773e-10,-8.6241e-10,0.5,9.91e+307,1.52629,57.0
2.0,0.0,3.3,8.5059e-10,-8.6514e-10,0.5,9.91e+307,1.526096,58.0
2.0,0.0,3.3,8.4913e-10,-8.6382e-10,0.5,9.91e+307,1.52631,59.0
2.0,0.0,3.3,8.4893e-10,-8.6361e-10,0.5,9.91e+307,1.52627,60.0
2.0,0.0,3.3,8.4674e-10,-8.6437e-10,0.5,9.91e+307,1.526408,61.0
2.0,0.0,3.3,8.4889e-10,-8.6456e-10,0.5,9.91e+307,1.526232,62.0
2.0,0.0,3.3,8.5118e-10,-8.6345e-10,0.5,9.91e+307,1.526226,63.0
2.0,0.0,3.3,8.5179e-10,-8.6476e-10,0.5,9.91e+307,1.52619,64.0
2.0,0.0,3.3,8.4914e-10,-8.6453e-10,0.5,9.91e+307,1.52628,65.0
2.0,0.0,3.3,8.5017e-10,-8.6437e-10,0.5,9.91e+307,1.526196,66.0
2.0,0.0,3.3,8.5184e-10,-8.6246e-10,0.5,9.91e+307,1.52625,67.0
2.0,0.0,3.3,8.5126e-10,-8.6566e-10,0.5,9.91e+307,1.526238,68.0
2.0,0.0,3.3,8.4771e-10,-8.6466e-10,0.5,9.91e+307,1.52634,69.0
2.0,0.0,3.3,8.4969e-10,-8.6524e-10,0.5,9.91e+307,1.526258,70.0
2.0,0.0,3.3,8.4879e-10,-8.6165e-10,0.5,9.91e+307,1.526324,71.0
2.0,0.0,3.3,8.5049e-10,-8.6737e-10,0.5,9.91e+307,1.526198,72.0
2.0,0.0,3.3,8.5077e-10,-8.6646e-10,0.5,9.91e+307,1.526238,73.0
2.0,0.0,3.3,8.504e-10,-8.6616e-10,0.5,9.91e+307,1.526182,74.0
2.0,0.0,3.3,8.492e-10,-8.6426e-10,0.5,9.91e+307,1.526238,75.0
2.0,0.0,3.3,8.4786e-10,-8.6313e-10,0.5,9.91e+307,1.526316,76.0
2.0,0.0,3.3,8.488e-10,-8.6331e-10,0.5,9.91e+307,1.526336,77.0
2.0,0.0,3.3,8.504e-10,-8.6436e-10,0.5,9.91e+307,1.526146,78.0
2.0,0.0,3.3,8.4686e-10,-8.6155e-10,0.5,9.91e+307,1.526342,79.0
2.0,0.0,3.3,8.489e-10,-8.6315e-10,0.5,9.91e+307,1.526314,80.0
2.0,0.0,3.3,8.4785e-10,-8.6346e-10,0.5,9.91e+307,1.52627,81.0
2.0,0.0,3.3,8.4674e-10,-8.6381e-10,0.5,9.91e+307,1.526268,82.0
2.0,0.0,3.3,8.4678e-10,-8.629e-10,0.5,9.91e+307,1.52642,83.0
2.0,0.0,3.3,8.4738e-10,-8.649e-10,0.5,9.91e+307,1.52631,84.0
2.0,0.0,3.3,8.4816e-10,-8.6408e-10,0.5,9.91e+307,1.526316,85.0
2.0,0.0,3.3,8.4818e-10,-8.6493e-10,0.5,9.91e+307,1.526346,86.0
2.0,0.0,3.3,8.4971e-10,-8.6444e-10,0.5,9.91e+307,1.526256,87.0
2.0,0.0,3.3,8.5059e-10,-8.6281e-10,0.5,9.91e+307,1.526272,88.0
2.0,0.0,3.3,8.5387e-10,-8.6501e-10,0.5,9.91e+307,1.52618,89.0
2.0,0.0,3.3,8.5044e-10,-8.6281e-10,0.5,9.91e+307,1.526162,90.0
2.0,0.0,3.3,8.511e-10,-8.6505e-10,0.5,9.91e+307,1.52604,91.0
2.0,0.0,3.3,8.5277e-10,-8.6545e-10,0.5,9.91e+307,1.52612,92.0
2.0,0.0,3.3,8.5086e-10,-8.6612e-10,0.5,9.91e+307,1.526178,93.0
2.0,0.0,3.3,8.4854e-10,-8.6367e-10,0.5,9.91e+307,1.526254,94.0
2.0,0.0,3.3,8.4635e-10,-8.6325e-10,0.5,9.91e+307,1.526416,95.0
2.0,0.0,3.3,8.4991e-10,-8.6266e-10,0.5,9.91e+307,1.52616,96.0
2.0,0.0,3.3,8.4835e-10,-8.6331e-10,0.5,9.91e+307,1.52632,97.0
2.0,0.0,3.3,8.4852e-10,-8.624e-10,0.5,9.91e+307,1.526284,98.0
2.0,0.0,3.3,8.4983e-10,-8.651e-10,0.5,9.91e+307,1.526202,99.0
2.0,0.0,3.3,8.4976e-10,-8.6466e-10,0.5,9.91e+307,1.526172,100.0
2.0,0.0,3.3,8.4972e-10,-8.6586e-10,0.5,9.91e+307,1.526188,101.0
2.0,0.0,3.3,8.5005e-10,-8.6531e-10,0.5,9.91e+307,1.526314,102.0
2.0,0.0,3.3,8.5251e-10,-8.6689e-10,0.5,9.91e+307,1.52615,103.0
2.0,0.0,3.3,8.4898e-10,-8.6378e-10,0.5,9.91e+307,1.526112,104.0
2.0,0.0,3.3,8.5107e-10,-8.6556e-10,0.5,9.91e+307,1.526158,105.0
2.0,0.0,3.3,8.5434e-10,-8.6421e-10,0.5,9.91e+307,1.52608,106.0
2.0,0.0,3.3,8.4807e-10,-8.6434e-10,0.5,9.91e+307,1.526176,107.0
2.0,0.0,3.3,8.5135e-10,-8.6521e-10,0.5,9.91e+307,1.526074,108.0
2.0,0.0,3.3,8.4852e-10,-8.6258e-10,0.5,9.91e+307,1.526168,109.0
2.0,0.0,3.3,8.5058e-10,-8.6478e-10,0.5,9.91e+307,1.52621,110.0
2.0,0.0,3.3,8.4599e-10,-8.6478e-10,0.5,9.91e+307,1.526386,111.0
2.0,0.0,3.3,8.4748e-10,-8.6467e-10,0.5,9.91e+307,1.52639,112.0
2.0,0.0,3.3,8.4445e-10,-8.6294e-10,0.5,9.91e+307,1.52638,113.0
2.0,0.0,3.3,8.4815e-10,-8.6297e-10,0.5,9.91e+307,1.52625,114.0
2.0,0.0,3.3,8.4971e-10,-8.668e-10,0.5,9.91e+307,1.526216,115.0
2.0,0.0,3.3,8.4838e-10,-8.6606e-10,0.5,9.91e+307,1.526298,116.0
2.0,0.0,3.3,8.505e-10,-8.6643e-10,0.5,9.91e+307,1.526284,117.0
2.0,0.0,3.3,8.4994e-10,-8.6283e-10,0.5,9.91e+307,1.526234,118.0
2.0,0.0,3.3,8.4969e-10,-8.6516e-10,0.5,9.91e+307,1.526392,119.0
2.0,0.0,3.3,8.4907e-10,-8.6649e-10,0.5,9.91e+307,1.526332,120.0
2.0,0.0,3.3,8.4896e-10,-8.6605e-10,0.5,9.91e+307,1.526266,121.0
2.0,0.0,3.3,8.503e-10,-8.6597e-10,0.5,9.91e+307,1.52624,122.0
2.0,0.0,3.3,8.5002e-10,-8.6587e-10,0.5,9.91e+307,1.526334,123.0
2.0,0.0,3.3,8.5048e-10,-8.6544e-10,0.5,9.91e+307,1.526186,124.0
2.0,0.0,3.3,8.5185e-10,-8.6579e-10,0.5,9.91e+307,1.525992,125.0
2.0,0.0,3.3,8.4983e-10,-8.6548e-10,0.5,9.91e+307,1.526046,126.0
2.0,0.0,3.3,8.5113e-10,-8.6544e-10,0.5,9.91e+307,1.526264,127.0
2.0,0.0,3.3,8.4921e-10,-8.6564e-10,0.5,9.91e+307,1.526122,128.0
2.0,0.0,3.3,8.5277e-10,-8.6646e-10,0.5,9.91e+307,1.526084,129.0
2.0,0.0,3.3,8.5107e-10,-8.6637e-10,0.5,9.91e+307,1.526042,130.0
2.0,0.0,3.3,8.543e-10,-8.6579e-10,0.5,9.91e+307,1.525968,131.0
2.0,0.0,3.3,8.5275e-10,-8.6661e-10,0.5,9.91e+307,1.526136,132.0
2.0,0.0,3.3,8.4952e-10,-8.6538e-10,0.5,9.91e+307,1.526216,133.0
2.0,0.0,3.3,8.5065e-10,-8.6558e-10,0.5,9.91e+307,1.526144,134.0
2.0,0.0,3.3,8.5286e-10,-8.6516e-10,0.5,9.91e+307,1.526048,135.0
2.0,0.0,3.3,8.5276e-10,-8.6341e-10,0.5,9.91e+307,1.526058,136.0
2.0,0.0,3.3,8.5188e-10,-8.6769e-10,0.5,9.91e+307,1.526132,137.0
2.0,0.0,3.3,8.4825e-10,-8.6597e-10,0.5,9.91e+307,1.52624,138.0
2.0,0.0,3.3,8.5229e-10,-8.6534e-10,0.5,9.91e+307,1.526162,139.0
2.0,0.0,3.3,8.5195e-10,-8.6652e-10,0.5,9.91e+307,1.526042,140.0
2.0,0.0,3.3,8.5277e-10,-8.6477e-10,0.5,9.91e+307,1.52601,141.0
2.0,0.0,3.3,8.4983e-10,-8.6621e-10,0.5,9.91e+307,1.526116,142.0
2.0,0.0,3.3,8.517e-10,-8.666e-10,0.5,9.91e+307,1.526066,143.0
2.0,0.0,3.3,8.5148e-10,-8.6476e-10,0.5,9.91e+307,1.52612,144.0
2.0,0.0,3.3,8.5149e-10,-8.6461e-10,0.5,9.91e+307,1.526084,145.0
2.0,0.0,3.3,8.5046e-10,-8.6718e-10,0.5,9.91e+307,1.526114,146.0
2.0,0.0,3.3,8.5264e-10,-8.6545e-10,0.5,9.91e+307,1.526048,147.0
2.0,0.0,3.3,8.5133e-10,-8.6506e-10,0.5,9.91e+307,1.526122,148.0
2.0,0.0,3.3,8.513e-10,-8.6582e-10,0.5,9.91e+307,1.526136,149.0
2.0,0.0,3.3,8.512e-10,-8.6753e-10,0.5,9.91e+307,1.526082,150.0
2.0,0.0,3.3,8.4961e-10,-8.6622e-10,0.5,9.91e+307,1.526078,151.0
2.0,0.0,3.3,8.5336e-10,-8.6683e-10,0.5,9.91e+307,1.52612,152.0
2.0,0.0,3.3,8.5368e-10,-8.6597e-10,0.5,9.91e+307,1.526118,153.0
2.0,0.0,3.3,8.5027e-10,-8.6586e-10,0.5,9.91e+307,1.526198,154.0
2.0,0.0,3.3,8.5181e-10,-8.6778e-10,0.5,9.91e+307,1.526054,155.0
2.0,0.0,3.3,8.5347e-10,-8.6682e-10,0.5,9.91e+307,1.525966,156.0
2.0,0.0,3.3,8.5217e-10,-8.6625e-10,0.5,9.91e+307,1.526,157.0
2.0,0.0,3.3,8.5016e-10,-8.6557e-10,0.5,9.91e+307,1.526128,158.0
2.0,0.0,3.3,8.5219e-10,-8.6847e-10,0.5,9.91e+307,1.526012,159.0
2.0,0.0,3.3,8.5151e-10,-8.6695e-10,0.5,9.91e+307,1.52595,160.0
2.0,0.0,3.3,8.5229e-10,-8.6631e-10,0.5,9.91e+307,1.526114,161.0
2.0,0.0,3.3,8.5057e-10,-8.6571e-10,0.5,9.91e+307,1.52609,162.0
2.0,0.0,3.3,8.4863e-10,-8.729e-10,0.5,9.91e+307,1.526094,163.0
2.0,0.0,3.3,8.4754e-10,-8.6616e-10,0.5,9.91e+307,1.526214,164.0
2.0,0.0,3.3,8.509e-10,-8.6595e-10,0.5,9.91e+307,1.526112,165.0
2.0,0.0,3.3,8.5101e-10,-8.6644e-10,0.5,9.91e+307,1.52603,166.0
2.0,0.0,3.3,8.4801e-10,-8.6285e-10,0.5,9.91e+307,1.526146,167.0
2.0,0.0,3.3,8.5234e-10,-8.6631e-10,0.5,9.91e+307,1.526066,168.0
2.0,0.0,3.3,8.5085e-10,-8.6659e-10,0.5,9.91e+307,1.526078,169.0
2.0,0.0,3.3,8.5067e-10,-8.6605e-10,0.5,9.91e+307,1.52615,170.0
2.0,0.0,3.3,8.471e-10,-8.6616e-10,0.5,9.91e+307,1.52623,171.0
2.0,0.0,3.3,8.4969e-10,-8.6565e-10,0.5,9.91e+307,1.526038,172.0
2.0,0.0,3.3,8.4943e-10,-8.6656e-10,0.5,9.91e+307,1.526,173.0
2.0,0.0,3.3,8.4985e-10,-8.6569e-10,0.5,9.91e+307,1.526034,174.0
2.0,0.0,3.3,8.5374e-10,-8.669e-10,0.5,9.91e+307,1.52611,175.0
2.0,0.0,3.3,8.5061e-10,-8.6588e-10,0.5,9.91e+307,1.525988,176.0
2.0,0.0,3.3,8.5128e-10,-8.6564e-10,0.5,9.91e+307,1.526008,177.0
2.0,0.0,3.3,8.4827e-10,-8.6565e-10,0.5,9.91e+307,1.52618,178.0
2.0,0.0,3.3,8.4785e-10,-8.6505e-10,0.5,9.91e+307,1.526114,179.0
2.0,0.0,3.3,8.5114e-10,-8.6585e-10,0.5,9.91e+307,1.526082,180.0
2.0,0.0,3.3,8.5205e-10,-8.6561e-10,0.5,9.91e+307,1.526026,181.0
2.0,0.0,3.3,8.4976e-10,-8.6698e-10,0.5,9.91e+307,1.526106,182.0
2.0,0.0,3.3,8.5158e-10,-8.6615e-10,0.5,9.91e+307,1.526156,183.0
2.0,0.0,3.3,8.5027e-10,-8.6437e-10,0.5,9.91e+307,1.526034,184.0
2.0,0.0,3.3,8.4843e-10,-8.645e-10,0.5,9.91e+307,1.526076,185.0
2.0,0.0,3.3,8.5208e-10,-8.6472e-10,0.5,9.91e+307,1.526002,186.0
2.0,0.0,3.3,8.5026e-10,-8.63e-10,0.5,9.91e+307,1.526174,187.0
2.0,0.0,3.3,8.5188e-10,-8.6315e-10,0.5,9.91e+307,1.5261,188.0
2.0,0.0,3.3,8.4978e-10,-8.6404e-10,0.5,9.91e+307,1.526136,189.0
2.0,0.0,3.3,8.4881e-10,-8.6319e-10,0.5,9.91e+307,1.526058,190.0
2.0,0.0,3.3,8.4893e-10,-8.6529e-10,0.5,9.91e+307,1.526138,191.0
2.0,0.0,3.3,8.5317e-10,-8.6556e-10,0.5,9.91e+307,1.526006,192.0
2.0,0.0,3.3,8.5069e-10,-8.6541e-10,0.5,9.91e+307,1.526118,193.0
2.0,0.0,3.3,8.5103e-10,-8.6682e-10,0.5,9.91e+307,1.52588,194.0
2.0,0.0,3.3,8.5077e-10,-8.6501e-10,0.5,9.91e+307,1.525986,195.0
2.0,0.0,3.3,8.4832e-10,-8.6502e-10,0.5,9.91e+307,1.526148,196.0
2.0,0.0,3.3,8.5109e-10,-8.6753e-10,0.5,9.91e+307,1.5261,197.0
2.0,0.0,3.3,8.4971e-10,-8.6759e-10,0.5,9.91e+307,1.526176,198.0
2.0,0.0,3.3,8.5191e-10,-8.6519e-10,0.5,9.91e+307,1.525954,199.0
2.0,0.0,3.3,8.5406e-10,-8.6683e-10,0.5,9.91e+307,1.525922,200.0
2.0,0.0,3.3,8.53e-10,-8.6617e-10,0.5,9.91e+307,1.5259,201.0
2.0,0.0,3.3,8.5227e-10,-8.6586e-10,0.5,9.91e+307,1.525904,202.0
2.0,0.0,3.3,8.4956e-10,-8.6827e-10,0.5,9.91e+307,1.526036,203.0
2.0,0.0,3.3,8.4982e-10,-8.6641e-10,0.5,9.91e+307,1.526144,204.0
2.0,0.0,3.3,8.512e-10,-8.6757e-10,0.5,9.91e+307,1.52613,205.0
2.0,0.0,3.3,8.5164e-10,-8.6946e-10,0.5,9.91e+307,1.525976,206.0
2.0,0.0,3.3,8.503e-10,-8.6652e-10,0.5,9.91e+307,1.526238,207.0
2.0,0.0,3.3,8.5327e-10,-8.6701e-10,0.5,9.91e+307,1.526008,208.0
2.0,0.0,3.3,8.5172e-10,-8.661e-10,0.5,9.91e+307,1.526062,209.0
2.0,0.0,3.3,8.5133e-10,-8.6752e-10,0.5,9.91e+307,1.526042,210.0
2.0,0.0,3.3,8.5052e-10,-8.6564e-10,0.5,9.91e+307,1.525984,211.0
2.0,0.0,3.3,8.5227e-10,-8.6455e-10,0.5,9.91e+307,1.526064,212.0
2.0,0.0,3.3,8.5579e-10,-8.6605e-10,0.5,9.91e+307,1.525822,213.0
2.0,0.0,3.3,8.5463e-10,-8.6771e-10,0.5,9.91e+307,1.525814,214.0
2.0,0.0,3.3,8.509e-10,-8.6693e-10,0.5,9.91e+307,1.52597,215.0
2.0,0.0,3.3,8.5125e-10,-8.6716e-10,0.5,9.91e+307,1.526012,216.0
2.0,0.0,3.3,8.5266e-10,-8.6719e-10,0.5,9.91e+307,1.525962,217.0
2.0,0.0,3.3,8.5235e-10,-8.6842e-10,0.5,9.91e+307,1.525898,218.0
2.0,0.0,3.3,8.5271e-10,-8.6839e-10,0.5,9.91e+307,1.525948,219.0
2.0,0.0,3.3,8.5482e-10,-8.6736e-10,0.5,9.91e+307,1.525918,220.0
2.0,0.0,3.3,8.573e-10,-8.6697e-10,0.5,9.91e+307,1.525774,221.0
2.0,0.0,3.3,8.5972e-10,-8.6513e-10,0.5,9.91e+307,1.525824,222.0
2.0,0.0,3.3,8.547e-10,-8.6582e-10,0.5,9.91e+307,1.52581,223.0
2.0,0.0,3.3,8.5393e-10,-8.67e-10,0.5,9.91e+307,1.525838,224.0
2.0,0.0,3.3,8.5701e-10,-8.6643e-10,0.5,9.91e+307,1.525768,225.0
2.0,0.0,3.3,8.5457e-10,-8.6701e-10,0.5,9.91e+307,1.525902,226.0
2.0,0.0,3.3,8.5469e-10,-8.6739e-10,0.5,9.91e+307,1.52588,227.0
2.0,0.0,3.3,8.4952e-10,-8.6655e-10,0.5,9.91e+307,1.52602,228.0
2.0,0.0,3.3,8.5729e-10,-8.6744e-10,0.5,9.91e+307,1.525756,229.0
2.0,0.0,3.3,8.5502e-10,-8.6775e-10,0.5,9.91e+307,1.525746,230.0
2.0,0.0,3.3,8.5743e-10,-8.6768e-10,0.5,9.91e+307,1.525576,231.0
2.0,0.0,3.3,8.5407e-10,-8.674e-10,0.5,9.91e+307,1.525872,232.0
2.0,0.0,3.3,8.5404e-10,-8.6825e-10,0.5,9.91e+307,1.525788,233.0
2.0,0.0,3.3,8.5648e-10,-8.6614e-10,0.5,9.91e+307,1.525824,234.0
2.0,0.0,3.3,8.5431e-10,-8.6837e-10,0.5,9.91e+307,1.525802,235.0
2.0,0.0,3.3,8.5444e-10,-8.6843e-10,0.5,9.91e+307,1.525664,236.0
2.0,0.0,3.3,8.5753e-10,-8.7315e-10,0.5,9.91e+307,1.525772,237.0
2.0,0.0,3.3,8.5259e-10,-8.6864e-10,0.5,9.91e+307,1.525798,238.0
2.0,0.0,3.3,8.5388e-10,-8.684e-10,0.5,9.91e+307,1.525748,239.0
2.0,0.0,3.3,8.54e-10,-8.6977e-10,0.5,9.91e+307,1.525728,240.0
2.0,0.0,3.3,8.5717e-10,-8.7158e-10,0.5,9.91e+307,1.525624,241.0
2.0,0.0,3.3,8.5631e-10,-8.6841e-10,0.5,9.91e+307,1.525802,242.0
2.0,0.0,3.3,8.6518e-10,-8.6798e-10,0.5,9.91e+307,1.525698,243.0
2.0,0.0,3.3,8.5355e-10,-8.751e-10,0.5,9.91e+307,1.525748,244.0
2.0,0.0,3.3,8.5384e-10,-8.6784e-10,0.5,9.91e+307,1.525776,245.0
2.0,0.0,3.3,8.522e-10,-8.6668e-10,0.5,9.91e+307,1.525948,246.0
2.0,0.0,3.3,8.5363e-10,-8.6449e-10,0.5,9.91e+307,1.525902,247.0
2.0,0.0,3.3,8.5316e-10,-8.649e-10,0.5,9.91e+307,1.525874,248.0
2.0,0.0,3.3,8.5324e-10,-8.6549e-10,0.5,9.91e+307,1.525854,249.0
2.0,0.0,3.3,8.5455e-10,-8.6575e-10,0.5,9.91e+307,1.52582,250.0
2.0,0.0,3.3,8.5125e-10,-8.6535e-10,0.5,9.91e+307,1.52591,251.0
2.0,0.0,3.3,8.4992e-10,-8.6464e-10,0.5,9.91e+307,1.525982,252.0
2.0,0.0,3.3,8.5297e-10,-8.6801e-10,0.5,9.91e+307,1.525934,253.0
2.0,0.0,3.3,8.5012e-10,-8.7267e-10,0.5,9.91e+307,1.526066,254.0
2.0,0.0,3.3,8.5281e-10,-8.6608e-10,0.5,9.91e+307,1.52593,255.0
2.0,0.0,3.3,8.5099e-10,-8.6689e-10,0.5,9.91e+307,1.525968,256.0
2.0,0.0,3.3,8.5361e-10,-8.6694e-10,0.5,9.91e+307,1.525838,257.0
2.0,0.0,3.3,8.5378e-10,-8.6751e-10,0.5,9.91e+307,1.525856,258.0
2.0,0.0,3.3,8.5655e-10,-8.6651e-10,0.5,9.91e+307,1.525794,259.0
2.0,0.0,3.3,8.5236e-10,-8.6828e-10,0.5,9.91e+307,1.525818,260.0
2.0,0.0,3.3,8.5413e-10,-8.6882e-10,0.5,9.91e+307,1.525794,261.0
2.0,0.0,3.3,8.5016e-10,-8.667e-10,0.5,9.91e+307,1.525946,262.0
2.0,0.0,3.3,8.654e-10,-8.6731e-10,0.5,9.91e+307,1.525978,263.0
2.0,0.0,3.3,8.516e-10,-8.6752e-10,0.5,9.91e+307,1.52589,264.0
2.0,0.0,3.3,8.4927e-10,-8.6749e-10,0.5,9.91e+307,1.526022,265.0
2.0,0.0,3.3,8.5299e-10,-8.6808e-10,0.5,9.91e+307,1.525862,266.0
2.0,0.0,3.3,8.5265e-10,-8.6784e-10,0.5,9.91e+307,1.525932,267.0
2.0,0.0,3.3,8.5303e-10,-8.67e-10,0.5,9.91e+307,1.525842,268.0
2.0,0.0,3.3,8.5333e-10,-8.666e-10,0.5,9.91e+307,1.525844,269.0
2.0,0.0,3.3,8.5188e-10,-8.6797e-10,0.5,9.91e+307,1.525904,270.0
2.0,0.0,3.3,8.5158e-10,-8.6704e-10,0.5,9.91e+307,1.525886,271.0
2.0,0.0,3.3,8.5248e-10,-8.651e-10,0.5,9.91e+307,1.525962,272.0
2.0,0.0,3.3,8.5151e-10,-8.674e-10,0.5,9.91e+307,1.525994,273.0
2.0,0.0,3.3,8.5084e-10,-8.6774e-10,0.5,9.91e+307,1.526008,274.0
2.0,0.0,3.3,8.5041e-10,-8.6557e-10,0.5,9.91e+307,1.52599,275.0
2.0,0.0,3.3,8.5468e-10,-8.6687e-10,0.5,9.91e+307,1.525696,276.0
2.0,0.0,3.3,8.5045e-10,-8.7482e-10,0.5,9.91e+307,1.52605,277.0
2.0,0.0,3.3,8.5273e-10,-8.6567e-10,0.5,9.91e+307,1.525822,278.0
2.0,0.0,3.3,8.5078e-10,-8.657e-10,0.5,9.91e+307,1.525924,279.0
2.0,0.0,3.3,8.4971e-10,-8.6654e-10,0.5,9.91e+307,1.525966,280.0
2.0,0.0,3.3,8.5225e-10,-8.6701e-10,0.5,9.91e+307,1.525912,281.0
2.0,0.0,3.3,8.5326e-10,-8.6713e-10,0.5,9.91e+307,1.525842,282.0
2.0,0.0,3.3,8.5094e-10,-8.6758e-10,0.5,9.91e+307,1.526004,283.0
2.0,0.0,3.3,8.5344e-10,-8.6708e-10,0.5,9.91e+307,1.525886,284.0
2.0,0.0,3.3,8.54e-10,-8.6718e-10,0.5,9.91e+307,1.525844,285.0
2.0,0.0,3.3,8.515e-10,-8.6667e-10,0.5,9.91e+307,1.525922,286.0
2.0,0.0,3.3,8.5513e-10,-8.6783e-10,0.5,9.91e+307,1.525686,287.0
2.0,0.0,3.3,8.5252e-10,-8.6815e-10,0.5,9.91e+307,1.525898,288.0
2.0,0.0,3.3,8.5449e-10,-8.6725e-10,0.5,9.91e+307,1.525738,289.0
2.0,0.0,3.3,8.542e-10,-8.6856e-10,0.5,9.91e+307,1.525728,290.0
2.0,0.0,3.3,8.544e-10,-8.6962e-10,0.5,9.91e+307,1.525688,291.0
2.0,0.0,3.3,8.5325e-10,-8.6793e-10,0.5,9.91e+307,1.525808,292.0
2.0,0.0,3.3,8.5635e-10,-8.6767e-10,0.5,9.91e+307,1.525716,293.0
2.0,0.0,3.3,8.5325e-10,-8.682e-10,0.5,9.91e+307,1.525742,294.0
2.0,0.0,3.3,8.5557e-10,-8.6701e-10,0.5,9.91e+307,1.525818,295.0
2.0,0.0,3.3,8.5335e-10,-8.6821e-10,0.5,9.91e+307,1.525738,296.0
2.0,0.0,3.3,8.5689e-10,-8.7e-10,0.5,9.91e+307,1.52567,297.0
2.0,0.0,3.3,8.582e-10,-8.6994e-10,0.5,9.91e+307,1.525498,298.0
2.0,0.0,3.3,8.5528e-10,-8.7989e-10,0.5,9.91e+307,1.525664,299.0
2.0,0.0,3.3,8.6825e-10,-8.7102e-10,0.5,9.91e+307,1.52575,300.0
2.0,0.0,3.3,8.5381e-10,-8.6844e-10,0.5,9.91e+307,1.525796,301.0
2.0,0.0,3.3,8.5556e-10,-8.6872e-10,0.5,9.91e+307,1.525678,302.0
2.0,0.0,3.3,8.5547e-10,-8.6919e-10,0.5,9.91e+307,1.5256,303.0
2.0,0.0,3.3,8.5576e-10,-8.6948e-10,0.5,9.91e+307,1.525688,304.0
2.0,0.0,3.3,8.5802e-10,-8.7783e-10,0.5,9.91e+307,1.525518,305.0
2.0,0.0,3.3,8.547e-10,-8.6666e-10,0.5,9.91e+307,1.525768,306.0
2.0,0.0,3.3,8.5612e-10,-8.6865e-10,0.5,9.91e+307,1.52559,307.0
2.0,0.0,3.3,8.5825e-10,-8.7681e-10,0.5,9.91e+307,1.52555,308.0
2.0,0.0,3.3,8.5781e-10,-8.6879e-10,0.5,9.91e+307,1.52555,309.0
2.0,0.0,3.3,8.5673e-10,-8.7765e-10,0.5,9.91e+307,1.52553,310.0
2.0,0.0,3.3,8.5786e-10,-8.7269e-10,0.5,9.91e+307,1.52566,311.0
2.0,0.0,3.3,8.5582e-10,-8.7031e-10,0.5,9.91e+307,1.52566,312.0
2.0,0.0,3.3,8.5273e-10,-8.6738e-10,0.5,9.91e+307,1.525792,313.0
2.0,0.0,3.3,8.5467e-10,-8.6706e-10,0.5,9.91e+307,1.525666,314.0
2.0,0.0,3.3,8.5279e-10,-8.6754e-10,0.5,9.91e+307,1.525806,315.0
