VIN,VSS,VDD,IDD,ISS,VREF,IIN,VOUT,@TIME
2,0,3.3,3.24E-09,-3.21E-09,0.5,9.91E+307,0.000272,0
2,0,3.3,3.14E-09,-3.15E-09,0.5,9.91E+307,2.113954,1
2,0,3.3,3.10E-09,-3.12E-09,0.5,9.91E+307,2.114538,2
2,0,3.3,3.08E-09,-3.09E-09,0.5,9.91E+307,2.11484,3
2,0,3.3,3.06E-09,-3.07E-09,0.5,9.91E+307,2.11516,4
2,0,3.3,3.05E-09,-3.07E-09,0.5,9.91E+307,2.11545,5
2,0,3.3,3.04E-09,-3.06E-09,0.5,9.91E+307,2.115676,6
2,0,3.3,3.03E-09,-3.05E-09,0.5,9.91E+307,2.115856,7
2,0,3.3,3.02E-09,-3.03E-09,0.5,9.91E+307,2.116064,8
2,0,3.3,3.01E-09,-3.03E-09,0.5,9.91E+307,2.116204,9
2,0,3.3,3.00E-09,-3.01E-09,0.5,9.91E+307,2.116404,10
2,0,3.3,2.99E-09,-3.01E-09,0.5,9.91E+307,2.11663,11
2,0,3.3,2.99E-09,-3.00E-09,0.5,9.91E+307,2.116684,12
2,0,3.3,2.98E-09,-2.99E-09,0.5,9.91E+307,2.116854,13
2,0,3.3,2.97E-09,-2.99E-09,0.5,9.91E+307,2.11701,14
2,0,3.3,2.96E-09,-2.98E-09,0.5,9.91E+307,2.117154,15
2,0,3.3,2.96E-09,-2.97E-09,0.5,9.91E+307,2.117284,16
2,0,3.3,2.95E-09,-2.96E-09,0.5,9.91E+307,2.117482,17
2,0,3.3,2.94E-09,-2.96E-09,0.5,9.91E+307,2.117558,18
2,0,3.3,2.94E-09,-2.95E-09,0.5,9.91E+307,2.11759,19
2,0,3.3,2.93E-09,-2.95E-09,0.5,9.91E+307,2.117686,20
2,0,3.3,2.93E-09,-2.94E-09,0.5,9.91E+307,2.117784,21
2,0,3.3,2.93E-09,-2.94E-09,0.5,9.91E+307,2.11776,22
2,0,3.3,2.92E-09,-2.94E-09,0.5,9.91E+307,2.117922,23
2,0,3.3,2.92E-09,-2.93E-09,0.5,9.91E+307,2.11797,24
2,0,3.3,2.91E-09,-2.93E-09,0.5,9.91E+307,2.118102,25
2,0,3.3,2.91E-09,-2.93E-09,0.5,9.91E+307,2.118152,26
2,0,3.3,2.91E-09,-2.92E-09,0.5,9.91E+307,2.11818,27
2,0,3.3,2.90E-09,-2.92E-09,0.5,9.91E+307,2.11831,28
2,0,3.3,2.90E-09,-2.92E-09,0.5,9.91E+307,2.118318,29
2,0,3.3,2.90E-09,-2.91E-09,0.5,9.91E+307,2.118414,30
2,0,3.3,2.90E-09,-2.91E-09,0.5,9.91E+307,2.11846,31
2,0,3.3,2.89E-09,-2.90E-09,0.5,9.91E+307,2.118532,32
2,0,3.3,2.89E-09,-2.90E-09,0.5,9.91E+307,2.118654,33
2,0,3.3,2.89E-09,-2.90E-09,0.5,9.91E+307,2.118664,34
2,0,3.3,2.88E-09,-2.89E-09,0.5,9.91E+307,2.118762,35
2,0,3.3,2.88E-09,-2.89E-09,0.5,9.91E+307,2.118844,36
2,0,3.3,2.87E-09,-2.89E-09,0.5,9.91E+307,2.118896,37
2,0,3.3,2.87E-09,-2.88E-09,0.5,9.91E+307,2.118962,38
2,0,3.3,2.86E-09,-2.88E-09,0.5,9.91E+307,2.119038,39
2,0,3.3,2.87E-09,-2.88E-09,0.5,9.91E+307,2.119036,40
2,0,3.3,2.86E-09,-2.88E-09,0.5,9.91E+307,2.119158,41
2,0,3.3,2.85E-09,-2.87E-09,0.5,9.91E+307,2.11922,42
2,0,3.3,2.85E-09,-2.87E-09,0.5,9.91E+307,2.119298,43
2,0,3.3,2.85E-09,-2.87E-09,0.5,9.91E+307,2.119354,44
2,0,3.3,2.84E-09,-2.86E-09,0.5,9.91E+307,2.119462,45
2,0,3.3,2.85E-09,-2.86E-09,0.5,9.91E+307,2.11937,46
2,0,3.3,2.84E-09,-2.86E-09,0.5,9.91E+307,2.119508,47
2,0,3.3,2.85E-09,-2.86E-09,0.5,9.91E+307,2.119498,48
2,0,3.3,2.84E-09,-2.86E-09,0.5,9.91E+307,2.119562,49
2,0,3.3,2.83E-09,-2.85E-09,0.5,9.91E+307,2.119696,50
2,0,3.3,2.83E-09,-2.84E-09,0.5,9.91E+307,2.119664,51
2,0,3.3,2.83E-09,-2.84E-09,0.5,9.91E+307,2.119736,52
2,0,3.3,2.83E-09,-2.84E-09,0.5,9.91E+307,2.119742,53
2,0,3.3,2.82E-09,-2.84E-09,0.5,9.91E+307,2.119852,54
2,0,3.3,2.82E-09,-2.84E-09,0.5,9.91E+307,2.119922,55
2,0,3.3,2.82E-09,-2.83E-09,0.5,9.91E+307,2.119946,56
2,0,3.3,2.82E-09,-2.83E-09,0.5,9.91E+307,2.119958,57
2,0,3.3,2.82E-09,-2.83E-09,0.5,9.91E+307,2.11994,58
2,0,3.3,2.82E-09,-2.83E-09,0.5,9.91E+307,2.120002,59
2,0,3.3,2.81E-09,-2.83E-09,0.5,9.91E+307,2.120064,60
2,0,3.3,2.81E-09,-2.82E-09,0.5,9.91E+307,2.120172,61
2,0,3.3,2.80E-09,-2.82E-09,0.5,9.91E+307,2.120278,62
2,0,3.3,2.81E-09,-2.82E-09,0.5,9.91E+307,2.120254,63
2,0,3.3,2.81E-09,-2.82E-09,0.5,9.91E+307,2.120228,64
2,0,3.3,2.80E-09,-2.82E-09,0.5,9.91E+307,2.120332,65
2,0,3.3,2.80E-09,-2.81E-09,0.5,9.91E+307,2.120366,66
2,0,3.3,2.79E-09,-2.81E-09,0.5,9.91E+307,2.12048,67
2,0,3.3,2.79E-09,-2.81E-09,0.5,9.91E+307,2.12049,68
2,0,3.3,2.79E-09,-2.80E-09,0.5,9.91E+307,2.120526,69
2,0,3.3,2.79E-09,-2.80E-09,0.5,9.91E+307,2.120552,70
2,0,3.3,2.79E-09,-2.80E-09,0.5,9.91E+307,2.120512,71
2,0,3.3,2.78E-09,-2.80E-09,0.5,9.91E+307,2.12063,72
2,0,3.3,2.78E-09,-2.80E-09,0.5,9.91E+307,2.12067,73
2,0,3.3,2.78E-09,-2.80E-09,0.5,9.91E+307,2.120662,74
2,0,3.3,2.78E-09,-2.80E-09,0.5,9.91E+307,2.120668,75
2,0,3.3,2.78E-09,-2.79E-09,0.5,9.91E+307,2.120686,76
2,0,3.3,2.78E-09,-2.79E-09,0.5,9.91E+307,2.120796,77
2,0,3.3,2.77E-09,-2.79E-09,0.5,9.91E+307,2.120842,78
2,0,3.3,2.77E-09,-2.78E-09,0.5,9.91E+307,2.120812,79
2,0,3.3,2.76E-09,-2.78E-09,0.5,9.91E+307,2.120896,80
2,0,3.3,2.77E-09,-2.78E-09,0.5,9.91E+307,2.120902,81
2,0,3.3,2.77E-09,-2.78E-09,0.5,9.91E+307,2.12099,82
2,0,3.3,2.76E-09,-2.77E-09,0.5,9.91E+307,2.121096,83
2,0,3.3,2.75E-09,-2.77E-09,0.5,9.91E+307,2.121178,84
2,0,3.3,2.76E-09,-2.77E-09,0.5,9.91E+307,2.121156,85
2,0,3.3,2.76E-09,-2.77E-09,0.5,9.91E+307,2.121118,86
2,0,3.3,2.75E-09,-2.77E-09,0.5,9.91E+307,2.121164,87
2,0,3.3,2.75E-09,-2.77E-09,0.5,9.91E+307,2.121258,88
2,0,3.3,2.75E-09,-2.76E-09,0.5,9.91E+307,2.12125,89
2,0,3.3,2.75E-09,-2.77E-09,0.5,9.91E+307,2.12117,90
2,0,3.3,2.75E-09,-2.77E-09,0.5,9.91E+307,2.12123,91
2,0,3.3,2.75E-09,-2.76E-09,0.5,9.91E+307,2.121256,92
2,0,3.3,2.74E-09,-2.76E-09,0.5,9.91E+307,2.121394,93
2,0,3.3,2.74E-09,-2.76E-09,0.5,9.91E+307,2.121394,94
2,0,3.3,2.73E-09,-2.75E-09,0.5,9.91E+307,2.12151,95
2,0,3.3,2.73E-09,-2.75E-09,0.5,9.91E+307,2.121472,96
2,0,3.3,2.73E-09,-2.75E-09,0.5,9.91E+307,2.121576,97
2,0,3.3,2.73E-09,-2.75E-09,0.5,9.91E+307,2.121578,98
2,0,3.3,2.73E-09,-2.74E-09,0.5,9.91E+307,2.12163,99
2,0,3.3,2.73E-09,-2.74E-09,0.5,9.91E+307,2.121694,100
2,0,3.3,2.72E-09,-2.74E-09,0.5,9.91E+307,2.121662,101
2,0,3.3,2.72E-09,-2.74E-09,0.5,9.91E+307,2.121732,102
2,0,3.3,2.73E-09,-2.74E-09,0.5,9.91E+307,2.121704,103
2,0,3.3,2.72E-09,-2.74E-09,0.5,9.91E+307,2.121704,104
2,0,3.3,2.73E-09,-2.74E-09,0.5,9.91E+307,2.12173,105
2,0,3.3,2.72E-09,-2.73E-09,0.5,9.91E+307,2.121836,106
2,0,3.3,2.71E-09,-2.73E-09,0.5,9.91E+307,2.12193,107
2,0,3.3,2.71E-09,-2.73E-09,0.5,9.91E+307,2.12198,108
2,0,3.3,2.71E-09,-2.73E-09,0.5,9.91E+307,2.121964,109
2,0,3.3,2.71E-09,-2.73E-09,0.5,9.91E+307,2.122024,110
2,0,3.3,2.71E-09,-2.73E-09,0.5,9.91E+307,2.121956,111
2,0,3.3,2.71E-09,-2.72E-09,0.5,9.91E+307,2.122068,112
2,0,3.3,2.70E-09,-2.72E-09,0.5,9.91E+307,2.122082,113
2,0,3.3,2.70E-09,-2.72E-09,0.5,9.91E+307,2.1221,114
2,0,3.3,2.71E-09,-2.72E-09,0.5,9.91E+307,2.122092,115
2,0,3.3,2.71E-09,-2.72E-09,0.5,9.91E+307,2.12211,116
2,0,3.3,2.70E-09,-2.72E-09,0.5,9.91E+307,2.122132,117
2,0,3.3,2.70E-09,-2.71E-09,0.5,9.91E+307,2.122142,118
2,0,3.3,2.70E-09,-2.71E-09,0.5,9.91E+307,2.122158,119
2,0,3.3,2.70E-09,-2.71E-09,0.5,9.91E+307,2.122194,120
2,0,3.3,2.70E-09,-2.71E-09,0.5,9.91E+307,2.122208,121
2,0,3.3,2.69E-09,-2.71E-09,0.5,9.91E+307,2.122304,122
2,0,3.3,2.69E-09,-2.70E-09,0.5,9.91E+307,2.122296,123
2,0,3.3,2.69E-09,-2.71E-09,0.5,9.91E+307,2.122282,124
2,0,3.3,2.69E-09,-2.70E-09,0.5,9.91E+307,2.12236,125
2,0,3.3,2.68E-09,-2.70E-09,0.5,9.91E+307,2.12238,126
2,0,3.3,2.69E-09,-2.70E-09,0.5,9.91E+307,2.12244,127
2,0,3.3,2.69E-09,-2.70E-09,0.5,9.91E+307,2.122382,128
2,0,3.3,2.69E-09,-2.70E-09,0.5,9.91E+307,2.122412,129
2,0,3.3,2.68E-09,-2.70E-09,0.5,9.91E+307,2.12246,130
2,0,3.3,2.68E-09,-2.70E-09,0.5,9.91E+307,2.122508,131
2,0,3.3,2.68E-09,-2.70E-09,0.5,9.91E+307,2.122548,132
2,0,3.3,2.68E-09,-2.69E-09,0.5,9.91E+307,2.122552,133
2,0,3.3,2.67E-09,-2.69E-09,0.5,9.91E+307,2.122628,134
2,0,3.3,2.67E-09,-2.69E-09,0.5,9.91E+307,2.12264,135
2,0,3.3,2.67E-09,-2.69E-09,0.5,9.91E+307,2.122598,136
2,0,3.3,2.67E-09,-2.69E-09,0.5,9.91E+307,2.12266,137
2,0,3.3,2.67E-09,-2.69E-09,0.5,9.91E+307,2.122616,138
2,0,3.3,2.67E-09,-2.69E-09,0.5,9.91E+307,2.122666,139
2,0,3.3,2.67E-09,-2.68E-09,0.5,9.91E+307,2.122668,140
2,0,3.3,2.67E-09,-2.68E-09,0.5,9.91E+307,2.122692,141
2,0,3.3,2.66E-09,-2.68E-09,0.5,9.91E+307,2.122826,142
2,0,3.3,2.66E-09,-2.68E-09,0.5,9.91E+307,2.122808,143
2,0,3.3,2.66E-09,-2.68E-09,0.5,9.91E+307,2.122826,144
2,0,3.3,2.67E-09,-2.68E-09,0.5,9.91E+307,2.122692,145
2,0,3.3,2.67E-09,-2.68E-09,0.5,9.91E+307,2.122774,146
2,0,3.3,2.66E-09,-2.67E-09,0.5,9.91E+307,2.122808,147
2,0,3.3,2.66E-09,-2.67E-09,0.5,9.91E+307,2.122914,148
2,0,3.3,2.65E-09,-2.67E-09,0.5,9.91E+307,2.122994,149
2,0,3.3,2.65E-09,-2.67E-09,0.5,9.91E+307,2.122996,150
2,0,3.3,2.65E-09,-2.67E-09,0.5,9.91E+307,2.122966,151
2,0,3.3,2.66E-09,-2.67E-09,0.5,9.91E+307,2.12301,152
2,0,3.3,2.65E-09,-2.66E-09,0.5,9.91E+307,2.123002,153
2,0,3.3,2.65E-09,-2.66E-09,0.5,9.91E+307,2.123114,154
2,0,3.3,2.65E-09,-2.66E-09,0.5,9.91E+307,2.123114,155
2,0,3.3,2.65E-09,-2.67E-09,0.5,9.91E+307,2.12298,156
2,0,3.3,2.65E-09,-2.66E-09,0.5,9.91E+307,2.123072,157
2,0,3.3,2.65E-09,-2.66E-09,0.5,9.91E+307,2.1231,158
2,0,3.3,2.65E-09,-2.66E-09,0.5,9.91E+307,2.12311,159
2,0,3.3,2.64E-09,-2.66E-09,0.5,9.91E+307,2.123148,160
2,0,3.3,2.64E-09,-2.66E-09,0.5,9.91E+307,2.123126,161
2,0,3.3,2.64E-09,-2.66E-09,0.5,9.91E+307,2.123194,162
2,0,3.3,2.64E-09,-2.65E-09,0.5,9.91E+307,2.123196,163
2,0,3.3,2.64E-09,-2.66E-09,0.5,9.91E+307,2.123212,164
2,0,3.3,2.64E-09,-2.65E-09,0.5,9.91E+307,2.123222,165
2,0,3.3,2.63E-09,-2.65E-09,0.5,9.91E+307,2.12334,166
2,0,3.3,2.63E-09,-2.65E-09,0.5,9.91E+307,2.12332,167
2,0,3.3,2.64E-09,-2.65E-09,0.5,9.91E+307,2.12324,168
2,0,3.3,2.63E-09,-2.65E-09,0.5,9.91E+307,2.123294,169
2,0,3.3,2.63E-09,-2.65E-09,0.5,9.91E+307,2.123318,170
2,0,3.3,2.64E-09,-2.65E-09,0.5,9.91E+307,2.123328,171
2,0,3.3,2.63E-09,-2.64E-09,0.5,9.91E+307,2.123354,172
2,0,3.3,2.63E-09,-2.64E-09,0.5,9.91E+307,2.123386,173
2,0,3.3,2.63E-09,-2.64E-09,0.5,9.91E+307,2.123348,174
2,0,3.3,2.63E-09,-2.64E-09,0.5,9.91E+307,2.123408,175
2,0,3.3,2.63E-09,-2.64E-09,0.5,9.91E+307,2.123416,176
2,0,3.3,2.63E-09,-2.64E-09,0.5,9.91E+307,2.123434,177
2,0,3.3,2.62E-09,-2.64E-09,0.5,9.91E+307,2.123446,178
2,0,3.3,2.62E-09,-2.63E-09,0.5,9.91E+307,2.123474,179
2,0,3.3,2.62E-09,-2.64E-09,0.5,9.91E+307,2.123488,180
2,0,3.3,2.62E-09,-2.63E-09,0.5,9.91E+307,2.123496,181
2,0,3.3,2.62E-09,-2.63E-09,0.5,9.91E+307,2.123582,182
2,0,3.3,2.62E-09,-2.63E-09,0.5,9.91E+307,2.12358,183
2,0,3.3,2.62E-09,-2.63E-09,0.5,9.91E+307,2.12359,184
2,0,3.3,2.61E-09,-2.63E-09,0.5,9.91E+307,2.123618,185
2,0,3.3,2.61E-09,-2.62E-09,0.5,9.91E+307,2.123658,186
2,0,3.3,2.61E-09,-2.63E-09,0.5,9.91E+307,2.123588,187
2,0,3.3,2.61E-09,-2.62E-09,0.5,9.91E+307,2.123674,188
2,0,3.3,2.61E-09,-2.62E-09,0.5,9.91E+307,2.123754,189
2,0,3.3,2.61E-09,-2.63E-09,0.5,9.91E+307,2.12367,190
2,0,3.3,2.61E-09,-2.62E-09,0.5,9.91E+307,2.123746,191
2,0,3.3,2.60E-09,-2.61E-09,0.5,9.91E+307,2.123788,192
2,0,3.3,2.60E-09,-2.62E-09,0.5,9.91E+307,2.123784,193
2,0,3.3,2.60E-09,-2.62E-09,0.5,9.91E+307,2.123812,194
2,0,3.3,2.60E-09,-2.62E-09,0.5,9.91E+307,2.123866,195
2,0,3.3,2.60E-09,-2.62E-09,0.5,9.91E+307,2.123886,196
2,0,3.3,2.60E-09,-2.61E-09,0.5,9.91E+307,2.123834,197
2,0,3.3,2.60E-09,-2.61E-09,0.5,9.91E+307,2.12386,198
2,0,3.3,2.60E-09,-2.61E-09,0.5,9.91E+307,2.123904,199
2,0,3.3,2.60E-09,-2.61E-09,0.5,9.91E+307,2.123908,200
2,0,3.3,2.60E-09,-2.61E-09,0.5,9.91E+307,2.123928,201
2,0,3.3,2.60E-09,-2.61E-09,0.5,9.91E+307,2.123934,202
2,0,3.3,2.60E-09,-2.61E-09,0.5,9.91E+307,2.12397,203
2,0,3.3,2.60E-09,-2.61E-09,0.5,9.91E+307,2.123846,204
2,0,3.3,2.60E-09,-2.61E-09,0.5,9.91E+307,2.123826,205
2,0,3.3,2.60E-09,-2.61E-09,0.5,9.91E+307,2.123956,206
2,0,3.3,2.60E-09,-2.61E-09,0.5,9.91E+307,2.123994,207
2,0,3.3,2.60E-09,-2.61E-09,0.5,9.91E+307,2.124032,208
2,0,3.3,2.59E-09,-2.60E-09,0.5,9.91E+307,2.12407,209
2,0,3.3,2.59E-09,-2.60E-09,0.5,9.91E+307,2.12407,210
2,0,3.3,2.59E-09,-2.60E-09,0.5,9.91E+307,2.124092,211
2,0,3.3,2.58E-09,-2.60E-09,0.5,9.91E+307,2.124168,212
2,0,3.3,2.58E-09,-2.60E-09,0.5,9.91E+307,2.124188,213
2,0,3.3,2.58E-09,-2.60E-09,0.5,9.91E+307,2.124102,214
2,0,3.3,2.58E-09,-2.60E-09,0.5,9.91E+307,2.124118,215
2,0,3.3,2.58E-09,-2.60E-09,0.5,9.91E+307,2.12415,216
2,0,3.3,2.58E-09,-2.59E-09,0.5,9.91E+307,2.12416,217
2,0,3.3,2.58E-09,-2.60E-09,0.5,9.91E+307,2.12415,218
2,0,3.3,2.58E-09,-2.59E-09,0.5,9.91E+307,2.124222,219
2,0,3.3,2.58E-09,-2.59E-09,0.5,9.91E+307,2.124152,220
2,0,3.3,2.58E-09,-2.59E-09,0.5,9.91E+307,2.12428,221
2,0,3.3,2.58E-09,-2.59E-09,0.5,9.91E+307,2.124228,222
2,0,3.3,2.57E-09,-2.59E-09,0.5,9.91E+307,2.124316,223
2,0,3.3,2.58E-09,-2.59E-09,0.5,9.91E+307,2.124264,224
2,0,3.3,2.58E-09,-2.59E-09,0.5,9.91E+307,2.124282,225
2,0,3.3,2.57E-09,-2.59E-09,0.5,9.91E+307,2.12437,226
2,0,3.3,2.56E-09,-2.58E-09,0.5,9.91E+307,2.124444,227
2,0,3.3,2.56E-09,-2.58E-09,0.5,9.91E+307,2.12441,228
2,0,3.3,2.57E-09,-2.58E-09,0.5,9.91E+307,2.124396,229
2,0,3.3,2.57E-09,-2.58E-09,0.5,9.91E+307,2.12439,230
2,0,3.3,2.56E-09,-2.58E-09,0.5,9.91E+307,2.124494,231
2,0,3.3,2.57E-09,-2.58E-09,0.5,9.91E+307,2.124412,232
2,0,3.3,2.56E-09,-2.57E-09,0.5,9.91E+307,2.124444,233
2,0,3.3,2.56E-09,-2.58E-09,0.5,9.91E+307,2.124538,234
2,0,3.3,2.56E-09,-2.58E-09,0.5,9.91E+307,2.124458,235
2,0,3.3,2.56E-09,-2.57E-09,0.5,9.91E+307,2.124516,236
2,0,3.3,2.56E-09,-2.57E-09,0.5,9.91E+307,2.124528,237
2,0,3.3,2.56E-09,-2.57E-09,0.5,9.91E+307,2.124536,238
2,0,3.3,2.56E-09,-2.57E-09,0.5,9.91E+307,2.124574,239
2,0,3.3,2.56E-09,-2.57E-09,0.5,9.91E+307,2.12453,240
2,0,3.3,2.56E-09,-2.57E-09,0.5,9.91E+307,2.124562,241
2,0,3.3,2.55E-09,-2.57E-09,0.5,9.91E+307,2.124662,242
2,0,3.3,2.56E-09,-2.57E-09,0.5,9.91E+307,2.124574,243
2,0,3.3,2.55E-09,-2.56E-09,0.5,9.91E+307,2.12473,244
2,0,3.3,2.55E-09,-2.56E-09,0.5,9.91E+307,2.124806,245
2,0,3.3,2.55E-09,-2.56E-09,0.5,9.91E+307,2.124834,246
2,0,3.3,2.55E-09,-2.56E-09,0.5,9.91E+307,2.124778,247
2,0,3.3,2.55E-09,-2.56E-09,0.5,9.91E+307,2.124784,248
2,0,3.3,2.55E-09,-2.56E-09,0.5,9.91E+307,2.1248,249
2,0,3.3,2.55E-09,-2.56E-09,0.5,9.91E+307,2.12474,250
2,0,3.3,2.55E-09,-2.56E-09,0.5,9.91E+307,2.124768,251
2,0,3.3,2.54E-09,-2.56E-09,0.5,9.91E+307,2.12479,252
2,0,3.3,2.55E-09,-2.56E-09,0.5,9.91E+307,2.124832,253
2,0,3.3,2.55E-09,-2.56E-09,0.5,9.91E+307,2.124824,254
2,0,3.3,2.55E-09,-2.56E-09,0.5,9.91E+307,2.124804,255
2,0,3.3,2.55E-09,-2.56E-09,0.5,9.91E+307,2.124852,256
2,0,3.3,2.55E-09,-2.55E-09,0.5,9.91E+307,2.124828,257
2,0,3.3,2.54E-09,-2.56E-09,0.5,9.91E+307,2.124946,258
2,0,3.3,2.54E-09,-2.55E-09,0.5,9.91E+307,2.124872,259
2,0,3.3,2.54E-09,-2.55E-09,0.5,9.91E+307,2.124912,260
2,0,3.3,2.54E-09,-2.55E-09,0.5,9.91E+307,2.124926,261
2,0,3.3,2.54E-09,-2.56E-09,0.5,9.91E+307,2.124906,262
2,0,3.3,2.54E-09,-2.55E-09,0.5,9.91E+307,2.124926,263
2,0,3.3,2.54E-09,-2.55E-09,0.5,9.91E+307,2.12489,264
2,0,3.3,2.53E-09,-2.55E-09,0.5,9.91E+307,2.124936,265
2,0,3.3,2.54E-09,-2.55E-09,0.5,9.91E+307,2.124904,266
2,0,3.3,2.54E-09,-2.55E-09,0.5,9.91E+307,2.124936,267
2,0,3.3,2.54E-09,-2.55E-09,0.5,9.91E+307,2.124896,268
2,0,3.3,2.54E-09,-2.55E-09,0.5,9.91E+307,2.124858,269
2,0,3.3,2.54E-09,-2.55E-09,0.5,9.91E+307,2.124938,270
2,0,3.3,2.54E-09,-2.55E-09,0.5,9.91E+307,2.124972,271
2,0,3.3,2.54E-09,-2.55E-09,0.5,9.91E+307,2.124956,272
2,0,3.3,2.53E-09,-2.55E-09,0.5,9.91E+307,2.124998,273
2,0,3.3,2.54E-09,-2.55E-09,0.5,9.91E+307,2.125018,274
2,0,3.3,2.53E-09,-2.55E-09,0.5,9.91E+307,2.125106,275
2,0,3.3,2.53E-09,-2.55E-09,0.5,9.91E+307,2.125098,276
2,0,3.3,2.53E-09,-2.54E-09,0.5,9.91E+307,2.125104,277
2,0,3.3,2.53E-09,-2.55E-09,0.5,9.91E+307,2.125116,278
2,0,3.3,2.53E-09,-2.54E-09,0.5,9.91E+307,2.12518,279
2,0,3.3,2.53E-09,-2.54E-09,0.5,9.91E+307,2.12513,280
2,0,3.3,2.52E-09,-2.54E-09,0.5,9.91E+307,2.125208,281
2,0,3.3,2.52E-09,-2.54E-09,0.5,9.91E+307,2.12517,282
2,0,3.3,2.52E-09,-2.54E-09,0.5,9.91E+307,2.125212,283
2,0,3.3,2.52E-09,-2.54E-09,0.5,9.91E+307,2.125274,284
2,0,3.3,2.52E-09,-2.53E-09,0.5,9.91E+307,2.12532,285
2,0,3.3,2.52E-09,-2.53E-09,0.5,9.91E+307,2.125226,286
2,0,3.3,2.52E-09,-2.53E-09,0.5,9.91E+307,2.12538,287
2,0,3.3,2.52E-09,-2.53E-09,0.5,9.91E+307,2.125272,288
2,0,3.3,2.52E-09,-2.53E-09,0.5,9.91E+307,2.125256,289
2,0,3.3,2.52E-09,-2.53E-09,0.5,9.91E+307,2.125268,290
2,0,3.3,2.52E-09,-2.53E-09,0.5,9.91E+307,2.125258,291
2,0,3.3,2.52E-09,-2.53E-09,0.5,9.91E+307,2.125292,292
2,0,3.3,2.52E-09,-2.53E-09,0.5,9.91E+307,2.125238,293
2,0,3.3,2.51E-09,-2.53E-09,0.5,9.91E+307,2.12535,294
2,0,3.3,2.51E-09,-2.53E-09,0.5,9.91E+307,2.125316,295
2,0,3.3,2.51E-09,-2.53E-09,0.5,9.91E+307,2.125396,296
2,0,3.3,2.51E-09,-2.52E-09,0.5,9.91E+307,2.125436,297
2,0,3.3,2.51E-09,-2.52E-09,0.5,9.91E+307,2.125478,298
2,0,3.3,2.51E-09,-2.52E-09,0.5,9.91E+307,2.125566,299
2,0,3.3,2.51E-09,-2.52E-09,0.5,9.91E+307,2.125462,300
2,0,3.3,2.50E-09,-2.52E-09,0.5,9.91E+307,2.125462,301
2,0,3.3,2.51E-09,-2.52E-09,0.5,9.91E+307,2.125436,302
2,0,3.3,2.50E-09,-2.52E-09,0.5,9.91E+307,2.125492,303
2,0,3.3,2.50E-09,-2.52E-09,0.5,9.91E+307,2.125464,304
2,0,3.3,2.50E-09,-2.52E-09,0.5,9.91E+307,2.125462,305
2,0,3.3,2.50E-09,-2.51E-09,0.5,9.91E+307,2.12554,306
2,0,3.3,2.50E-09,-2.51E-09,0.5,9.91E+307,2.1255,307
2,0,3.3,2.50E-09,-2.51E-09,0.5,9.91E+307,2.125494,308
2,0,3.3,2.50E-09,-2.52E-09,0.5,9.91E+307,2.12551,309
2,0,3.3,2.50E-09,-2.52E-09,0.5,9.91E+307,2.125528,310
2,0,3.3,2.50E-09,-2.52E-09,0.5,9.91E+307,2.12546,311
2,0,3.3,2.50E-09,-2.52E-09,0.5,9.91E+307,2.125546,312
2,0,3.3,2.50E-09,-2.52E-09,0.5,9.91E+307,2.12548,313
2,0,3.3,2.50E-09,-2.51E-09,0.5,9.91E+307,2.12546,314
2,0,3.3,2.50E-09,-2.51E-09,0.5,9.91E+307,2.125546,315
2,0,3.3,2.50E-09,-2.51E-09,0.5,9.91E+307,2.125554,316
2,0,3.3,2.50E-09,-2.51E-09,0.5,9.91E+307,2.125584,317
2,0,3.3,2.49E-09,-2.51E-09,0.5,9.91E+307,2.125678,318
2,0,3.3,2.49E-09,-2.51E-09,0.5,9.91E+307,2.12558,319
2,0,3.3,2.49E-09,-2.51E-09,0.5,9.91E+307,2.125638,320
2,0,3.3,2.49E-09,-2.50E-09,0.5,9.91E+307,2.125706,321
2,0,3.3,2.49E-09,-2.50E-09,0.5,9.91E+307,2.125726,322
2,0,3.3,2.49E-09,-2.50E-09,0.5,9.91E+307,2.125674,323
2,0,3.3,2.49E-09,-2.50E-09,0.5,9.91E+307,2.125674,324
2,0,3.3,2.49E-09,-2.51E-09,0.5,9.91E+307,2.125712,325
2,0,3.3,2.49E-09,-2.51E-09,0.5,9.91E+307,2.125638,326
2,0,3.3,2.49E-09,-2.51E-09,0.5,9.91E+307,2.125676,327
2,0,3.3,2.49E-09,-2.50E-09,0.5,9.91E+307,2.12572,328
2,0,3.3,2.49E-09,-2.50E-09,0.5,9.91E+307,2.125694,329
2,0,3.3,2.49E-09,-2.50E-09,0.5,9.91E+307,2.125756,330
2,0,3.3,2.49E-09,-2.50E-09,0.5,9.91E+307,2.125714,331
2,0,3.3,2.49E-09,-2.50E-09,0.5,9.91E+307,2.12575,332
2,0,3.3,2.48E-09,-2.50E-09,0.5,9.91E+307,2.12572,333
2,0,3.3,2.49E-09,-2.50E-09,0.5,9.91E+307,2.125756,334
2,0,3.3,2.49E-09,-2.50E-09,0.5,9.91E+307,2.125702,335
2,0,3.3,2.48E-09,-2.50E-09,0.5,9.91E+307,2.125794,336
2,0,3.3,2.48E-09,-2.49E-09,0.5,9.91E+307,2.125842,337
2,0,3.3,2.48E-09,-2.49E-09,0.5,9.91E+307,2.125878,338
2,0,3.3,2.48E-09,-2.49E-09,0.5,9.91E+307,2.125864,339
2,0,3.3,2.48E-09,-2.49E-09,0.5,9.91E+307,2.125814,340
2,0,3.3,2.48E-09,-2.49E-09,0.5,9.91E+307,2.125848,341
2,0,3.3,2.48E-09,-2.49E-09,0.5,9.91E+307,2.125918,342
2,0,3.3,2.47E-09,-2.49E-09,0.5,9.91E+307,2.12593,343
2,0,3.3,2.47E-09,-2.49E-09,0.5,9.91E+307,2.12589,344
2,0,3.3,2.48E-09,-2.49E-09,0.5,9.91E+307,2.125828,345
2,0,3.3,2.48E-09,-2.49E-09,0.5,9.91E+307,2.125896,346
2,0,3.3,2.48E-09,-2.49E-09,0.5,9.91E+307,2.125866,347
2,0,3.3,2.47E-09,-2.49E-09,0.5,9.91E+307,2.125946,348
2,0,3.3,2.48E-09,-2.49E-09,0.5,9.91E+307,2.125862,349
2,0,3.3,2.48E-09,-2.49E-09,0.5,9.91E+307,2.125838,350
2,0,3.3,2.47E-09,-2.49E-09,0.5,9.91E+307,2.125828,351
2,0,3.3,2.48E-09,-2.49E-09,0.5,9.91E+307,2.125918,352
2,0,3.3,2.48E-09,-2.49E-09,0.5,9.91E+307,2.125878,353
2,0,3.3,2.48E-09,-2.49E-09,0.5,9.91E+307,2.125946,354
2,0,3.3,2.47E-09,-2.49E-09,0.5,9.91E+307,2.125946,355
2,0,3.3,2.48E-09,-2.49E-09,0.5,9.91E+307,2.125922,356
2,0,3.3,2.47E-09,-2.48E-09,0.5,9.91E+307,2.126038,357
2,0,3.3,2.47E-09,-2.48E-09,0.5,9.91E+307,2.12613,358
2,0,3.3,2.47E-09,-2.48E-09,0.5,9.91E+307,2.126056,359
2,0,3.3,2.47E-09,-2.48E-09,0.5,9.91E+307,2.126078,360
2,0,3.3,2.47E-09,-2.48E-09,0.5,9.91E+307,2.126052,361
2,0,3.3,2.47E-09,-2.48E-09,0.5,9.91E+307,2.12609,362
2,0,3.3,2.47E-09,-2.48E-09,0.5,9.91E+307,2.126108,363
2,0,3.3,2.47E-09,-2.48E-09,0.5,9.91E+307,2.126108,364
2,0,3.3,2.47E-09,-2.48E-09,0.5,9.91E+307,2.126108,365
2,0,3.3,2.47E-09,-2.48E-09,0.5,9.91E+307,2.12613,366
2,0,3.3,2.46E-09,-2.48E-09,0.5,9.91E+307,2.12608,367
2,0,3.3,2.46E-09,-2.48E-09,0.5,9.91E+307,2.126114,368
2,0,3.3,2.47E-09,-2.48E-09,0.5,9.91E+307,2.126124,369
2,0,3.3,2.47E-09,-2.48E-09,0.5,9.91E+307,2.126044,370
2,0,3.3,2.46E-09,-2.48E-09,0.5,9.91E+307,2.126182,371
2,0,3.3,2.46E-09,-2.48E-09,0.5,9.91E+307,2.126172,372
