VIN,VSS,VDD,IDD,ISS,VREF,IIN,VOUT,@TIME
0.0,0.0,3.3,7.572e-11,-6e-14,0.0,-2e-14,0.175864,0.0
0.05,0.0,3.3,1.0389e-10,8e-14,0.0,-9e-14,0.252892,0.0
0.1,0.0,3.3,1.2389e-10,1e-14,0.0,-3e-14,0.292894,0.0
0.15,0.0,3.3,1.2273e-10,-6e-14,0.0,-1.5e-13,0.341162,0.0
0.2,0.0,3.3,1.2424e-10,5e-14,0.0,-1.1e-13,0.39102,0.0
0.25,0.0,3.3,1.2383e-10,3e-14,0.0,4e-14,0.441318,0.0
0.3,0.0,3.3,1.2301e-10,0.0,0.0,-4e-14,0.491606,0.0
0.35,0.0,3.3,1.2599e-10,1.3e-13,0.0,3e-14,0.540728,0.0
0.4,0.0,3.3,1.2716e-10,5e-14,0.0,-1e-14,0.5902,0.0
0.45,0.0,3.3,1.2298e-10,3e-14,0.0,-8e-14,0.641198,0.0
0.5,0.0,3.3,1.251e-10,6e-14,0.0,-6e-14,0.690722,0.0
0.55,0.0,3.3,1.2615e-10,1e-14,0.0,-1.4e-13,0.740724,0.0
0.6,0.0,3.3,1.2521e-10,1e-14,0.0,-7e-14,0.791316,0.0
0.65,0.0,3.3,1.2654e-10,4e-14,0.0,-1.2e-13,0.840192,0.0
0.7,0.0,3.3,1.2643e-10,2e-14,0.0,-6e-14,0.890708,0.0
0.75,0.0,3.3,1.2497e-10,3e-14,0.0,-1e-13,0.941314,0.0
0.8,0.0,3.3,1.2726e-10,1e-14,0.0,-3e-14,0.990384,0.0
0.85,0.0,3.3,1.2135e-10,4e-14,0.0,2e-14,1.04123,0.0
0.9,0.0,3.3,1.207e-10,3e-14,0.0,-4e-14,1.091746,0.0
0.95,0.0,3.3,1.2077e-10,4e-14,0.0,-8e-14,1.142214,0.0
1.0,0.0,3.3,1.2462e-10,3e-14,0.0,-6e-14,1.191254,0.0
1.05,0.0,3.3,1.2573e-10,7e-14,0.0,-2e-14,1.240598,0.0
1.1,0.0,3.3,1.2104e-10,5e-14,0.0,-6e-14,1.291528,0.0
1.15,0.0,3.3,1.2363e-10,-1e-14,0.0,-4e-14,1.341152,0.0
1.2,0.0,3.3,1.1912e-10,4e-14,0.0,-6e-14,1.391558,0.0
1.25,0.0,3.3,1.2277e-10,1e-14,0.0,1e-14,1.441848,0.0
1.3,0.0,3.3,1.2365e-10,3e-14,0.0,1e-14,1.491934,0.0
1.35,0.0,3.3,1.2412e-10,1e-14,0.0,4e-14,1.541148,0.0
1.4,0.0,3.3,1.2443e-10,6e-14,0.0,0.0,1.591408,0.0
1.45,0.0,3.3,1.2742e-10,9e-14,0.0,-6e-14,1.64031,0.0
1.5,0.0,3.3,1.2623e-10,6e-14,0.0,-3e-14,1.690314,0.0
1.55,0.0,3.3,1.2702e-10,1.2e-13,0.0,-6e-14,1.740062,0.0
1.6,0.0,3.3,1.2726e-10,-1e-14,0.0,8e-14,1.790242,0.0
1.65,0.0,3.3,1.2246e-10,5e-14,0.0,-1e-13,1.841012,0.0
1.7,0.0,3.3,1.268e-10,3e-14,0.0,0.0,1.89038,0.0
1.75,0.0,3.3,1.2329e-10,2e-14,0.0,-2e-14,1.940894,0.0
1.8,0.0,3.3,1.2584e-10,0.0,0.0,-5e-14,1.991212,0.0
1.85,0.0,3.3,1.2503e-10,-1e-14,0.0,-4e-14,2.04132,0.0
1.9,0.0,3.3,1.279e-10,6e-14,0.0,-6e-14,2.089904,0.0
1.95,0.0,3.3,1.2348e-10,1e-14,0.0,0.0,2.140988,0.0
2.0,0.0,3.3,1.2608e-10,5e-14,0.0,-1e-14,2.190452,0.0
2.05,0.0,3.3,1.2587e-10,0.0,0.0,-3e-14,2.24052,0.0
2.1,0.0,3.3,1.2777e-10,1.1e-13,0.0,-6e-14,2.28994,0.0
2.15,0.0,3.3,1.25e-10,1e-14,0.0,-2e-14,2.34078,0.0
2.2,0.0,3.3,1.2741e-10,-3e-14,0.0,-1e-13,2.38966,0.0
2.25,0.0,3.3,1.2605e-10,8e-14,0.0,3e-14,2.4406,0.0
2.3,0.0,3.3,1.2532e-10,2e-14,0.0,-2e-14,2.49118,0.0
2.35,0.0,3.3,1.264e-10,4e-14,0.0,3e-14,2.53996,0.0
2.4,0.0,3.3,1.2286e-10,1e-14,0.0,-5e-14,2.59082,0.0
2.45,0.0,3.3,1.2135e-10,2e-14,0.0,-2e-14,2.64148,0.0
2.5,0.0,3.3,1.2447e-10,9e-14,0.0,-2e-14,2.69068,0.0
2.55,0.0,3.3,1.2482e-10,1e-14,0.0,-6e-14,2.74072,0.0
2.6,0.0,3.3,1.2358e-10,4e-14,0.0,3e-14,2.79132,0.0
2.65,0.0,3.3,1.2523e-10,-1e-14,0.0,-6e-14,2.84012,0.0
2.7,0.0,3.3,1.2133e-10,7e-14,0.0,2e-14,2.89078,0.0
2.75,0.0,3.3,1.2061e-10,3e-14,0.0,-5e-14,2.94144,0.0
2.8,0.0,3.3,1.252e-10,5e-14,0.0,0.0,2.99072,0.0
2.85,0.0,3.3,1.241e-10,6e-14,0.0,-1e-14,3.0408,0.0
2.9,0.0,3.3,1.2437e-10,1.6e-13,0.0,-4e-14,3.09098,0.0
2.95,0.0,3.3,1.2611e-10,1e-14,0.0,0.0,3.13988,0.0
3.0,0.0,3.3,1.1787e-10,4e-14,0.0,-1e-13,3.19068,0.0
0.0,0.0,3.3,-3.7e-13,-1.85e-12,0.25,0.0,3.22846,0.0
0.05,0.0,3.3,1e-14,-1.88e-12,0.25,-3e-14,3.23372,0.0
0.1,0.0,3.3,2.6e-13,-1.76e-12,0.25,-1e-14,3.2378,0.0
0.15,0.0,3.3,4e-14,-1.91e-12,0.25,1e-13,3.24196,0.0
0.2,0.0,3.3,7e-14,-1.73e-12,0.25,3e-14,3.24628,0.0
0.25,0.0,3.3,3.5e-13,-1.75e-12,0.25,-7e-14,3.25068,0.0
0.3,0.0,3.3,6e-14,-1.88e-12,0.25,0.0,3.25484,0.0
0.35,0.0,3.3,1e-13,-1.81e-12,0.25,2e-14,3.25888,0.0
0.4,0.0,3.3,-3e-14,-1.75e-12,0.25,3e-14,3.26282,0.0
0.45,0.0,3.3,-1.9e-13,-1.77e-12,0.25,0.0,3.26734,0.0
0.5,0.0,3.3,-2e-13,-1.82e-12,0.25,2e-14,3.27184,0.0
0.55,0.0,3.3,7e-14,-1.78e-12,0.25,0.0,3.27616,0.0
0.6,0.0,3.3,1e-13,-1.76e-12,0.25,-1.1e-13,3.28042,0.0
0.65,0.0,3.3,0.0,-1.84e-12,0.25,2e-14,3.28476,0.0
0.7,0.0,3.3,-2e-13,-1.83e-12,0.25,3e-14,3.28944,0.0
0.75,0.0,3.3,-6e-14,-1.74e-12,0.25,-1.1e-13,3.29378,0.0
0.8,0.0,3.3,3.1e-13,-1.72e-12,0.25,-5e-14,3.29808,0.0
0.85,0.0,3.3,0.0,-1.69e-12,0.25,-1e-14,3.30254,0.0
0.9,0.0,3.3,-1.8e-13,-1.83e-12,0.25,-1e-14,3.3068,0.0
0.95,0.0,3.3,1.1e-13,-1.75e-12,0.25,-4e-14,3.31104,0.0
1.0,0.0,3.3,1e-14,-1.74e-12,0.25,-2e-14,3.31534,0.0
1.05,0.0,3.3,6e-14,-1.74e-12,0.25,-3e-14,3.31954,0.0
1.1,0.0,3.3,-1.2e-13,-1.75e-12,0.25,0.0,3.3237,0.0
1.15,0.0,3.3,1.7e-13,-1.68e-12,0.25,7e-14,3.32808,0.0
1.2,0.0,3.3,3.3e-13,-1.73e-12,0.25,7e-14,3.33226,0.0
1.25,0.0,3.3,1.2e-13,-1.8e-12,0.25,-4e-14,3.3364,0.0
1.3,0.0,3.3,-1.3e-13,-1.9e-12,0.25,-9e-14,3.34072,0.0
1.35,0.0,3.3,1e-13,-1.86e-12,0.25,-5e-14,3.34538,0.0
1.4,0.0,3.3,1e-13,-1.72e-12,0.25,9e-14,3.34994,0.0
1.45,0.0,3.3,2e-14,-1.76e-12,0.25,-1e-14,3.3545,0.0
1.5,0.0,3.3,-7e-14,-1.66e-12,0.25,-6e-14,3.35912,0.0
1.55,0.0,3.3,2.1e-13,-1.62e-12,0.25,4e-14,3.3635,0.0
1.6,0.0,3.3,-4e-14,-1.7e-12,0.25,4e-14,3.36778,0.0
1.65,0.0,3.3,-7e-14,-1.7e-12,0.25,7e-14,3.37206,0.0
1.7,0.0,3.3,2.1e-13,-1.73e-12,0.25,-1.1e-13,3.37606,0.0
1.75,0.0,3.3,2.6e-13,-1.72e-12,0.25,-6e-14,3.38,0.0
1.8,0.0,3.3,2.1e-13,-1.67e-12,0.25,1.1e-13,3.38396,0.0
1.85,0.0,3.3,-5e-14,-1.96e-12,0.25,2e-14,3.3879,0.0
1.9,0.0,3.3,-3.6e-13,-1.71e-12,0.25,-1.3e-13,3.39184,0.0
1.95,0.0,3.3,5.2e-13,-1.65e-12,0.25,-1e-14,3.39598,0.0
2.0,0.0,3.3,4.3e-13,-1.68e-12,0.25,1.2e-13,3.39998,0.0
2.05,0.0,3.3,-5e-14,-1.9e-12,0.25,-3e-14,3.40392,0.0
2.1,0.0,3.3,-8e-14,-1.78e-12,0.25,-7e-14,3.40766,0.0
2.15,0.0,3.3,2.6e-13,-1.61e-12,0.25,2e-14,3.41168,0.0
2.2,0.0,3.3,3e-13,-1.59e-12,0.25,2e-14,3.4158,0.0
2.25,0.0,3.3,-2.8e-13,-1.73e-12,0.25,3e-14,3.41996,0.0
2.3,0.0,3.3,-3e-14,-1.8e-12,0.25,-5e-14,3.42404,0.0
2.35,0.0,3.3,5e-14,-1.67e-12,0.25,-3e-14,3.4281,0.0
2.4,0.0,3.3,-2e-13,-1.61e-12,0.25,3e-14,3.43206,0.0
2.45,0.0,3.3,-2.1e-13,-1.7e-12,0.25,1e-14,3.4358,0.0
2.5,0.0,3.3,1.9e-13,-1.74e-12,0.25,-7e-14,3.4396,0.0
2.55,0.0,3.3,-2.8e-13,-1.68e-12,0.25,-1e-14,3.44336,0.0
2.6,0.0,3.3,-3e-13,-1.67e-12,0.25,1e-14,3.44722,0.0
2.65,0.0,3.3,2.2e-13,-1.65e-12,0.25,3e-14,3.45126,0.0
2.7,0.0,3.3,-1.2e-13,-1.67e-12,0.25,-2e-14,3.455,0.0
2.75,0.0,3.3,-5.7e-13,-1.7e-12,0.25,1e-14,3.45852,0.0
2.8,0.0,3.3,4e-14,-1.65e-12,0.25,1e-14,3.46234,0.0
2.85,0.0,3.3,1.2e-13,-1.64e-12,0.25,5e-14,3.46624,0.0
2.9,0.0,3.3,-1.5e-13,-1.6e-12,0.25,0.0,3.47048,0.0
2.95,0.0,3.3,-1.29e-12,-1.7e-12,0.25,-1e-14,3.47488,0.0
3.0,0.0,3.3,-7.05e-12,-1.71e-12,0.25,2e-14,3.47876,0.0
0.0,0.0,3.3,-1.1e-13,-3.18799e-09,0.5,3.7e-13,3.32964,0.0
0.05,0.0,3.3,5.2e-13,-3.15195e-09,0.5,3.6e-13,1.978928,0.0
0.1,0.0,3.3,3.8e-13,-3.1247e-09,0.5,4.7e-13,1.19059,0.0
0.15,0.0,3.3,3.07841e-09,-3.09704e-09,0.5,2e-14,0.41086,0.0
0.2,0.0,3.3,3.07553e-09,-3.09216e-09,0.5,-5e-14,0.300046,0.0
0.25,0.0,3.3,3.06784e-09,-3.085e-09,0.5,5e-14,0.350064,0.0
0.3,0.0,3.3,3.06309e-09,-3.07452e-09,0.5,5e-14,0.400238,0.0
0.35,0.0,3.3,3.05191e-09,-3.06563e-09,0.5,2e-14,0.44978,0.0
0.4,0.0,3.3,3.04387e-09,-3.06336e-09,0.5,1e-14,0.499894,0.0
0.45,0.0,3.3,3.03576e-09,-3.05516e-09,0.5,1e-14,0.550082,0.0
0.5,0.0,3.3,3.03462e-09,-3.05043e-09,0.5,0.0,0.599584,0.0
0.55,0.0,3.3,3.03238e-09,-3.04597e-09,0.5,-3e-14,0.649698,0.0
0.6,0.0,3.3,3.02344e-09,-3.03971e-09,0.5,-2e-14,0.699996,0.0
0.65,0.0,3.3,3.02039e-09,-3.03973e-09,0.5,-6e-14,0.749462,0.0
0.7,0.0,3.3,3.01265e-09,-3.03317e-09,0.5,-4e-14,0.79973,0.0
0.75,0.0,3.3,3.01072e-09,-3.02985e-09,0.5,1e-14,0.849912,0.0
0.8,0.0,3.3,3.00827e-09,-3.02621e-09,0.5,2e-14,0.900114,0.0
0.85,0.0,3.3,3.00681e-09,-3.02022e-09,0.5,3e-14,0.949626,0.0
0.9,0.0,3.3,3.00141e-09,-3.01847e-09,0.5,-5e-14,0.999742,0.0
0.95,0.0,3.3,2.99637e-09,-3.01626e-09,0.5,-4e-14,1.050084,0.0
1.0,0.0,3.3,2.99476e-09,-3.01087e-09,0.5,-1e-14,1.099504,0.0
1.05,0.0,3.3,2.98893e-09,-3.00608e-09,0.5,-3e-14,1.149746,0.0
1.1,0.0,3.3,2.98774e-09,-3.00469e-09,0.5,-1e-14,1.199976,0.0
1.15,0.0,3.3,2.98273e-09,-2.99677e-09,0.5,3e-14,1.249466,0.0
1.2,0.0,3.3,2.98021e-09,-2.99765e-09,0.5,1e-14,1.299584,0.0
1.25,0.0,3.3,2.97487e-09,-2.99362e-09,0.5,4e-14,1.349888,0.0
1.3,0.0,3.3,2.97274e-09,-2.99151e-09,0.5,4e-14,1.400044,0.0
1.35,0.0,3.3,2.97162e-09,-2.98907e-09,0.5,-1e-14,1.449626,0.0
1.4,0.0,3.3,2.97172e-09,-2.98766e-09,0.5,3e-14,1.499782,0.0
1.45,0.0,3.3,2.97021e-09,-2.98675e-09,0.5,6e-14,1.549994,0.0
1.5,0.0,3.3,2.96444e-09,-2.98229e-09,0.5,2e-14,1.599472,0.0
1.55,0.0,3.3,2.96062e-09,-2.98356e-09,0.5,1e-14,1.64978,0.0
1.6,0.0,3.3,2.96444e-09,-2.98188e-09,0.5,2e-14,1.699874,0.0
1.65,0.0,3.3,2.96065e-09,-2.98158e-09,0.5,1e-14,1.74943,0.0
1.7,0.0,3.3,2.96442e-09,-2.97901e-09,0.5,-3e-14,1.799532,0.0
1.75,0.0,3.3,2.96436e-09,-2.97726e-09,0.5,2e-14,1.84979,0.0
1.8,0.0,3.3,2.95849e-09,-2.97622e-09,0.5,7e-14,1.899892,0.0
1.85,0.0,3.3,2.95883e-09,-2.97554e-09,0.5,3e-14,1.949376,0.0
1.9,0.0,3.3,2.95837e-09,-2.97287e-09,0.5,2e-14,1.999596,0.0
1.95,0.0,3.3,2.95532e-09,-2.97094e-09,0.5,-1e-14,2.049828,0.0
2.0,0.0,3.3,2.95328e-09,-2.96949e-09,0.5,-3e-14,2.099212,0.0
2.05,0.0,3.3,2.95391e-09,-2.9691e-09,0.5,-1.5e-13,2.149454,0.0
2.1,0.0,3.3,2.95124e-09,-2.9677e-09,0.5,-1e-13,2.199672,0.0
2.15,0.0,3.3,2.9476e-09,-2.965e-09,0.5,-7e-14,2.24924,0.0
2.2,0.0,3.3,2.94733e-09,-2.96406e-09,0.5,-1.2e-13,2.29938,0.0
2.25,0.0,3.3,2.94578e-09,-2.96064e-09,0.5,0.0,2.34954,0.0
2.3,0.0,3.3,2.94636e-09,-2.96167e-09,0.5,5e-14,2.39974,0.0
2.35,0.0,3.3,2.94237e-09,-2.95838e-09,0.5,4e-14,2.4492,0.0
2.4,0.0,3.3,2.94013e-09,-2.95539e-09,0.5,4e-14,2.49938,0.0
2.45,0.0,3.3,2.93723e-09,-2.95753e-09,0.5,4e-14,2.54964,0.0
2.5,0.0,3.3,2.9379e-09,-2.95598e-09,0.5,-1e-14,2.59916,0.0
2.55,0.0,3.3,2.93752e-09,-2.95393e-09,0.5,0.0,2.6493,0.0
2.6,0.0,3.3,2.93333e-09,-2.95074e-09,0.5,3e-14,2.6995,0.0
2.65,0.0,3.3,2.93442e-09,-2.95295e-09,0.5,3e-14,2.74898,0.0
2.7,0.0,3.3,2.93459e-09,-2.94935e-09,0.5,3e-14,2.79912,0.0
2.75,0.0,3.3,2.93129e-09,-2.94735e-09,0.5,3e-14,2.84934,0.0
2.8,0.0,3.3,2.93416e-09,-2.95024e-09,0.5,4e-14,2.8995,0.0
2.85,0.0,3.3,2.93625e-09,-2.94631e-09,0.5,4e-14,2.94892,0.0
2.9,0.0,3.3,2.92904e-09,-2.94113e-09,0.5,3e-14,2.99928,0.0
2.95,0.0,3.3,2.92985e-09,-2.94384e-09,0.5,1e-14,3.04938,0.0
3.0,0.0,3.3,2.92699e-09,-2.94325e-09,0.5,-1e-14,3.09884,0.0
0.0,0.0,3.3,1.30008e-08,-1.30106e-08,0.75,7e-14,0.022366,0.0
0.05,0.0,3.3,2.10877e-08,-2.11027e-08,0.75,1e-14,0.038026,0.0
0.1,0.0,3.3,3.04806e-08,-3.0496e-08,0.75,0.0,0.05842,0.0
0.15,0.0,3.3,4.0201e-08,-4.02114e-08,0.75,-1e-14,0.082916,0.0
0.2,0.0,3.3,4.97688e-08,-4.97862e-08,0.75,4e-14,0.112414,0.0
0.25,0.0,3.3,5.82541e-08,-5.82769e-08,0.75,3e-14,0.146192,0.0
0.3,0.0,3.3,6.51541e-08,-6.51708e-08,0.75,-2e-14,0.184254,0.0
0.35,0.0,3.3,7.00171e-08,-7.00446e-08,0.75,-1e-14,0.22551,0.0
0.4,0.0,3.3,7.30907e-08,-7.31278e-08,0.75,-1e-14,0.27076,0.0
0.45,0.0,3.3,7.46599e-08,-7.46817e-08,0.75,-3e-14,0.318348,0.0
0.5,0.0,3.3,7.53411e-08,-7.53401e-08,0.75,4e-14,0.366812,0.0
0.55,0.0,3.3,7.55314e-08,-7.55462e-08,0.75,4e-14,0.416586,0.0
0.6,0.0,3.3,7.56054e-08,-7.56263e-08,0.75,4e-14,0.466754,0.0
0.65,0.0,3.3,7.56071e-08,-7.56189e-08,0.75,0.0,0.516158,0.0
0.7,0.0,3.3,7.55531e-08,-7.55662e-08,0.75,2e-14,0.566406,0.0
0.75,0.0,3.3,7.5522e-08,-7.55152e-08,0.75,-2e-14,0.616656,0.0
0.8,0.0,3.3,7.54949e-08,-7.55014e-08,0.75,-1e-14,0.666846,0.0
0.85,0.0,3.3,7.54598e-08,-7.54493e-08,0.75,-1e-14,0.716248,0.0
0.9,0.0,3.3,7.54482e-08,-7.55027e-08,0.75,-1e-14,0.766484,0.0
0.95,0.0,3.3,7.54419e-08,-7.54599e-08,0.75,1e-14,0.81674,0.0
1.0,0.0,3.3,7.54338e-08,-7.54211e-08,0.75,-1e-14,0.866136,0.0
1.05,0.0,3.3,7.53724e-08,-7.53829e-08,0.75,0.0,0.916368,0.0
1.1,0.0,3.3,7.53397e-08,-7.53656e-08,0.75,3e-14,0.966608,0.0
1.15,0.0,3.3,7.53197e-08,-7.53469e-08,0.75,-1e-14,1.016044,0.0
1.2,0.0,3.3,7.53e-08,-7.53309e-08,0.75,2e-14,1.066212,0.0
1.25,0.0,3.3,7.52762e-08,-7.53226e-08,0.75,1e-14,1.116422,0.0
1.3,0.0,3.3,7.52694e-08,-7.5309e-08,0.75,-1e-14,1.166626,0.0
1.35,0.0,3.3,7.52441e-08,-7.52401e-08,0.75,-3e-14,1.216182,0.0
1.4,0.0,3.3,7.52107e-08,-7.52304e-08,0.75,-4e-14,1.266334,0.0
1.45,0.0,3.3,7.51963e-08,-7.52335e-08,0.75,-6e-14,1.316614,0.0
1.5,0.0,3.3,7.51764e-08,-7.51586e-08,0.75,-2e-14,1.366072,0.0
1.55,0.0,3.3,7.51331e-08,-7.51366e-08,0.75,0.0,1.416346,0.0
1.6,0.0,3.3,7.50975e-08,-7.5106e-08,0.75,-1e-14,1.466524,0.0
1.65,0.0,3.3,7.50872e-08,-7.5119e-08,0.75,-2e-14,1.516016,0.0
1.7,0.0,3.3,7.50564e-08,-7.50647e-08,0.75,2e-14,1.566126,0.0
1.75,0.0,3.3,7.50354e-08,-7.50583e-08,0.75,-1e-14,1.616444,0.0
1.8,0.0,3.3,7.50338e-08,-7.50366e-08,0.75,3e-14,1.666594,0.0
1.85,0.0,3.3,7.49939e-08,-7.50213e-08,0.75,7e-14,1.716104,0.0
1.9,0.0,3.3,7.49745e-08,-7.49784e-08,0.75,3e-14,1.766282,0.0
1.95,0.0,3.3,7.49754e-08,-7.49752e-08,0.75,7e-14,1.816494,0.0
2.0,0.0,3.3,7.49463e-08,-7.499e-08,0.75,2e-14,1.86589,0.0
2.05,0.0,3.3,7.49135e-08,-7.49148e-08,0.75,-7e-14,1.916118,0.0
2.1,0.0,3.3,7.48945e-08,-7.48932e-08,0.75,-4e-14,1.966354,0.0
2.15,0.0,3.3,7.48947e-08,-7.4895e-08,0.75,-2e-14,2.015846,0.0
2.2,0.0,3.3,7.48628e-08,-7.48606e-08,0.75,1e-14,2.06609,0.0
2.25,0.0,3.3,7.48669e-08,-7.48527e-08,0.75,1e-14,2.116276,0.0
2.3,0.0,3.3,7.48245e-08,-7.48171e-08,0.75,4e-14,2.166526,0.0
2.35,0.0,3.3,7.48005e-08,-7.4813e-08,0.75,-4e-14,2.21584,0.0
2.4,0.0,3.3,7.47769e-08,-7.47823e-08,0.75,-1e-14,2.26602,0.0
2.45,0.0,3.3,7.4768e-08,-7.47905e-08,0.75,-5e-14,2.31624,0.0
2.5,0.0,3.3,7.47839e-08,-7.47794e-08,0.75,1e-14,2.36576,0.0
2.55,0.0,3.3,7.47574e-08,-7.47701e-08,0.75,-2e-14,2.4159,0.0
2.6,0.0,3.3,7.47192e-08,-7.4745e-08,0.75,0.0,2.46616,0.0
2.65,0.0,3.3,7.47318e-08,-7.4765e-08,0.75,5e-14,2.51554,0.0
2.7,0.0,3.3,7.47338e-08,-7.47404e-08,0.75,-2e-14,2.56572,0.0
2.75,0.0,3.3,7.46964e-08,-7.47206e-08,0.75,0.0,2.61586,0.0
2.8,0.0,3.3,7.46961e-08,-7.47258e-08,0.75,6e-14,2.6661,0.0
2.85,0.0,3.3,7.47174e-08,-7.47183e-08,0.75,1e-14,2.71554,0.0
2.9,0.0,3.3,7.46983e-08,-7.47049e-08,0.75,6e-14,2.76574,0.0
2.95,0.0,3.3,7.4655e-08,-7.46756e-08,0.75,3e-14,2.81594,0.0
3.0,0.0,3.3,7.46418e-08,-7.46548e-08,0.75,0.0,2.8654,0.0
0.0,0.0,3.3,1.54625e-08,-1.54859e-08,1.0,-6e-14,0.009304,0.0
0.05,0.0,3.3,2.72109e-08,-2.72274e-08,1.0,-2e-14,0.016544,0.0
0.1,0.0,3.3,4.28021e-08,-4.28158e-08,1.0,4e-14,0.026442,0.0
0.15,0.0,3.3,6.1577e-08,-6.15805e-08,1.0,2e-14,0.038776,0.0
0.2,0.0,3.3,8.36623e-08,-8.36689e-08,1.0,4e-14,0.053988,0.0
0.25,0.0,3.3,1.080827e-07,-1.081366e-07,1.0,1e-13,0.071762,0.0
0.3,0.0,3.3,1.34294e-07,-1.34286e-07,1.0,-1e-14,0.092144,0.0
0.35,0.0,3.3,1.61023e-07,-1.61042e-07,1.0,4e-14,0.114662,0.0
0.4,0.0,3.3,1.88497e-07,-1.88515e-07,1.0,-3e-14,0.140042,0.0
0.45,0.0,3.3,2.15548e-07,-2.15552e-07,1.0,1e-14,0.16783,0.0
0.5,0.0,3.3,2.41224e-07,-2.41226e-07,1.0,1e-14,0.197726,0.0
0.55,0.0,3.3,2.65538e-07,-2.65518e-07,1.0,2e-14,0.230474,0.0
0.6,0.0,3.3,2.87531e-07,-2.87584e-07,1.0,1e-14,0.265746,0.0
0.65,0.0,3.3,3.06506e-07,-3.06528e-07,1.0,-2e-14,0.302874,0.0
0.7,0.0,3.3,3.22687e-07,-3.22687e-07,1.0,2e-14,0.342988,0.0
0.75,0.0,3.3,3.3532e-07,-3.35371e-07,1.0,-2e-14,0.385396,0.0
0.8,0.0,3.3,3.44799e-07,-3.44709e-07,1.0,3e-14,0.429958,0.0
0.85,0.0,3.3,3.51078e-07,-3.51053e-07,1.0,0.0,0.475616,0.0
0.9,0.0,3.3,3.55006e-07,-3.55062e-07,1.0,-6e-14,0.523466,0.0
0.95,0.0,3.3,3.57148e-07,-3.57101e-07,1.0,-2e-14,0.572494,0.0
1.0,0.0,3.3,3.5826e-07,-3.58286e-07,1.0,-2.1e-13,0.621278,0.0
1.05,0.0,3.3,3.58753e-07,-3.58695e-07,1.0,-7e-14,0.671132,0.0
1.1,0.0,3.3,3.58831e-07,-3.58878e-07,1.0,-1.6e-13,0.721262,0.0
1.15,0.0,3.3,3.58897e-07,-3.58894e-07,1.0,-4e-14,0.770566,0.0
1.2,0.0,3.3,3.58932e-07,-3.58896e-07,1.0,5e-14,0.820672,0.0
1.25,0.0,3.3,3.5891e-07,-3.5894e-07,1.0,-4e-14,0.87094,0.0
1.3,0.0,3.3,3.58782e-07,-3.58878e-07,1.0,2e-14,0.921094,0.0
1.35,0.0,3.3,3.5877e-07,-3.5879e-07,1.0,-1e-14,0.970632,0.0
1.4,0.0,3.3,3.58755e-07,-3.58779e-07,1.0,-4e-14,1.020806,0.0
1.45,0.0,3.3,3.58738e-07,-3.58768e-07,1.0,2e-14,1.070996,0.0
1.5,0.0,3.3,3.58674e-07,-3.5875e-07,1.0,0.0,1.120368,0.0
1.55,0.0,3.3,3.58595e-07,-3.58645e-07,1.0,3e-14,1.170696,0.0
1.6,0.0,3.3,3.58549e-07,-3.58536e-07,1.0,0.0,1.220838,0.0
1.65,0.0,3.3,3.58499e-07,-3.58541e-07,1.0,-4e-14,1.270314,0.0
1.7,0.0,3.3,3.58446e-07,-3.58438e-07,1.0,-6e-14,1.32044,0.0
1.75,0.0,3.3,3.58464e-07,-3.58495e-07,1.0,-5e-14,1.370764,0.0
1.8,0.0,3.3,3.58452e-07,-3.58413e-07,1.0,-2e-14,1.420848,0.0
1.85,0.0,3.3,3.58494e-07,-3.58483e-07,1.0,-3e-14,1.470338,0.0
1.9,0.0,3.3,3.58452e-07,-3.58452e-07,1.0,1e-14,1.520444,0.0
1.95,0.0,3.3,3.58345e-07,-3.58281e-07,1.0,4e-14,1.570692,0.0
2.0,0.0,3.3,3.58274e-07,-3.58239e-07,1.0,-4e-14,1.620158,0.0
2.05,0.0,3.3,3.58227e-07,-3.58228e-07,1.0,2e-14,1.670344,0.0
2.1,0.0,3.3,3.58171e-07,-3.58181e-07,1.0,5e-14,1.720456,0.0
2.15,0.0,3.3,3.58222e-07,-3.58181e-07,1.0,-3e-14,1.769908,0.0
2.2,0.0,3.3,3.58101e-07,-3.58137e-07,1.0,3e-14,1.82022,0.0
2.25,0.0,3.3,3.58017e-07,-3.5812e-07,1.0,5e-14,1.870448,0.0
2.3,0.0,3.3,3.57894e-07,-3.57951e-07,1.0,1e-14,1.92066,0.0
2.35,0.0,3.3,3.57934e-07,-3.57873e-07,1.0,3e-14,1.970042,0.0
2.4,0.0,3.3,3.57919e-07,-3.57886e-07,1.0,1e-14,2.020228,0.0
2.45,0.0,3.3,3.57857e-07,-3.5786e-07,1.0,4e-14,2.07043,0.0
2.5,0.0,3.3,3.57803e-07,-3.5777e-07,1.0,3e-14,2.119894,0.0
2.55,0.0,3.3,3.57698e-07,-3.57704e-07,1.0,5e-14,2.17006,0.0
2.6,0.0,3.3,3.5775e-07,-3.5774e-07,1.0,5e-14,2.22026,0.0
2.65,0.0,3.3,3.57655e-07,-3.57714e-07,1.0,6e-14,2.26964,0.0
2.7,0.0,3.3,3.57648e-07,-3.57645e-07,1.0,2e-14,2.31978,0.0
2.75,0.0,3.3,3.57514e-07,-3.5753e-07,1.0,-2e-14,2.36998,0.0
2.8,0.0,3.3,3.57541e-07,-3.57507e-07,1.0,-5e-14,2.42032,0.0
2.85,0.0,3.3,3.57509e-07,-3.57497e-07,1.0,-3e-14,2.46962,0.0
2.9,0.0,3.3,3.57521e-07,-3.575e-07,1.0,1e-14,2.51988,0.0
2.95,0.0,3.3,3.57394e-07,-3.57445e-07,1.0,-5e-14,2.57002,0.0
3.0,0.0,3.3,3.57383e-07,-3.57328e-07,1.0,1e-14,2.61942,0.0
0.0,0.0,3.3,1.6162e-08,-1.61719e-08,1.25,-5e-14,0.005254,0.0
0.05,0.0,3.3,2.92204e-08,-2.92355e-08,1.25,-5e-14,0.009542,0.0
0.1,0.0,3.3,4.73469e-08,-4.73525e-08,1.25,0.0,0.01555,0.0
0.15,0.0,3.3,7.01481e-08,-7.01597e-08,1.25,8e-14,0.023234,0.0
0.2,0.0,3.3,9.83047e-08,-9.83115e-08,1.25,4e-14,0.032882,0.0
0.25,0.0,3.3,1.30986e-07,-1.31004e-07,1.25,0.0,0.044362,0.0
0.3,0.0,3.3,1.67958e-07,-1.67941e-07,1.25,4e-14,0.057674,0.0
0.35,0.0,3.3,2.07932e-07,-2.07958e-07,1.25,3e-14,0.072524,0.0
0.4,0.0,3.3,2.5168e-07,-2.51733e-07,1.25,3e-14,0.089424,0.0
0.45,0.0,3.3,2.98022e-07,-2.98051e-07,1.25,4e-14,0.107986,0.0
0.5,0.0,3.3,3.45726e-07,-3.45716e-07,1.25,4e-14,0.128032,0.0
0.55,0.0,3.3,3.95485e-07,-3.95467e-07,1.25,1e-14,0.150056,0.0
0.6,0.0,3.3,4.4618e-07,-4.46193e-07,1.25,0.0,0.17377,0.0
0.65,0.0,3.3,4.96249e-07,-4.96251e-07,1.25,3e-14,0.19876,0.0
0.7,0.0,3.3,5.46772e-07,-5.46791e-07,1.25,1e-14,0.22582,0.0
0.75,0.0,3.3,5.96251e-07,-5.96277e-07,1.25,1e-14,0.254508,0.0
0.8,0.0,3.3,6.44164e-07,-6.44166e-07,1.25,4e-14,0.28488,0.0
0.85,0.0,3.3,6.89348e-07,-6.89323e-07,1.25,-3e-14,0.31647,0.0
0.9,0.0,3.3,7.32577e-07,-7.32635e-07,1.25,0.0,0.350234,0.0
0.95,0.0,3.3,7.7273e-07,-7.72747e-07,1.25,2e-14,0.385796,0.0
1.0,0.0,3.3,8.08686e-07,-8.08693e-07,1.25,1e-14,0.422346,0.0
1.05,0.0,3.3,8.413e-07,-8.413e-07,1.25,-4e-14,0.46124,0.0
1.1,0.0,3.3,8.69516e-07,-8.69451e-07,1.25,-2e-14,0.501854,0.0
1.15,0.0,3.3,8.93238e-07,-8.93108e-07,1.25,-6e-14,0.543432,0.0
1.2,0.0,3.3,9.12564e-07,-9.12536e-07,1.25,-1e-14,0.587088,0.0
1.25,0.0,3.3,9.27801e-07,-9.27875e-07,1.25,1e-14,0.632408,0.0
1.3,0.0,3.3,9.39175e-07,-9.39099e-07,1.25,1e-14,0.678866,0.0
1.35,0.0,3.3,9.46729e-07,-9.46771e-07,1.25,-1e-14,0.72586,0.0
1.4,0.0,3.3,9.52058e-07,-9.51978e-07,1.25,-1e-14,0.774372,0.0
1.45,0.0,3.3,9.55187e-07,-9.55114e-07,1.25,0.0,0.823632,0.0
1.5,0.0,3.3,9.56891e-07,-9.56699e-07,1.25,5e-14,0.872498,0.0
1.55,0.0,3.3,9.57728e-07,-9.57756e-07,1.25,4e-14,0.92248,0.0
1.6,0.0,3.3,9.58272e-07,-9.58247e-07,1.25,4e-14,0.972458,0.0
1.65,0.0,3.3,9.58332e-07,-9.5835e-07,1.25,0.0,1.021766,0.0
1.7,0.0,3.3,9.58501e-07,-9.58381e-07,1.25,-5e-14,1.071888,0.0
1.75,0.0,3.3,9.58575e-07,-9.58543e-07,1.25,-5e-14,1.12204,0.0
1.8,0.0,3.3,9.58498e-07,-9.58568e-07,1.25,-5e-14,1.172196,0.0
1.85,0.0,3.3,9.58584e-07,-9.58704e-07,1.25,-5e-14,1.221712,0.0
1.9,0.0,3.3,9.58794e-07,-9.58814e-07,1.25,-1e-14,1.27174,0.0
1.95,0.0,3.3,9.58651e-07,-9.5865e-07,1.25,0.0,1.321994,0.0
