
SetupTitle, I/V Sweep - Unit (transfer)
PrimitiveTest, I/V Sweep
TestParameter, Context.MainFrame, B1500A
TestParameter, Channel.UnitType, SMU, SMU, SMU
TestParameter, Channel.Unit, SMU3:HR, SMU4:HR, SMU1:HR
TestParameter, Channel.IName, IG, ID, IS
TestParameter, Channel.VName, VG, VD, VS
TestParameter, Channel.Mode, V, V, COMMON
TestParameter, Channel.Func, VAR1, VAR2, CONST
TestParameter, Channel.Index, 
TestParameter, Channel.Time, 
TestParameter, Measurement.Port.Unit, SMU3:HR, SMU4:HR, SMU1:HR
TestParameter, Measurement.Port.SeriesResistor, NONE, NONE, NONE
TestParameter, Measurement.Port.Filter, ON, ON, ON
TestParameter, Measurement.Port.OutputVoltageComparison, 0, 0, 0
TestParameter, Measurement.Primary.Locus, Single
TestParameter, Measurement.Primary.Scale, LINEAR
TestParameter, Measurement.Primary.Start, -3
TestParameter, Measurement.Primary.Stop, 3
TestParameter, Measurement.Primary.Step, 0.06
TestParameter, Measurement.Primary.Compliance, 0.1
TestParameter, Measurement.Primary.PowerCompliance, 0
TestParameter, Measurement.Aborting.Condition, CONTINUE AT ANY
TestParameter, Measurement.PostOutput.Value, START
TestParameter, Measurement.PostOutput.Retention, OFF
TestParameter, Measurement.Secondary.Start, 0.1
TestParameter, Measurement.Secondary.Count, 5
TestParameter, Measurement.Secondary.Step, 0.70000000000000007
TestParameter, Measurement.Secondary.Compliance, 0.1
TestParameter, Measurement.Secondary.PowerCompliance, 0
TestParameter, Measurement.Bias.Source, -3, 0.1, 0
TestParameter, Measurement.Bias.Compliance, 0.1, 0.1, 0.1
TestParameter, Measurement.Monitor.Unit, SMU3:HR, SMU4:HR, SMU1:HR
TestParameter, Measurement.Monitor.Adc, HR ADC, HR ADC, HR ADC
TestParameter, Measurement.Monitor.Measurement, Compliance Side, Compliance Side, Compliance Side
TestParameter, Measurement.Monitor.RangingMode, LIMITED, LIMITED, LIMITED
TestParameter, Measurement.Monitor.RangeBoundary, 1nA, 1nA, 1nA
TestParameter, Measurement.Monitor.RangeRating, BY FULL RANGE, BY FULL RANGE, BY FULL RANGE
TestParameter, Measurement.Monitor.RangeRatingCoeff, 50, 50, 50
TestParameter, Measurement.Timing.Hold, 0
TestParameter, Measurement.Timing.Delay, 0
TestParameter, Measurement.Adc.HighSpeed.Mode, PLC
TestParameter, Measurement.Adc.HighSpeed.Coeff, 5
TestParameter, Measurement.Adc.HighResolution.AutoZero, OFF
TestParameter, Measurement.Adc.HighResolution.Mode, PLC
TestParameter, Measurement.Adc.HighResolution.Coeff, 5
TestParameter, Measurement.WaitTime.Source.Coeff, 1
TestParameter, Measurement.WaitTime.Source.Offset, 0
TestParameter, Measurement.WaitTime.Monitor.Coeff, 1
TestParameter, Measurement.WaitTime.Monitor.Offset, 0
TestParameter, Function.User.Name, SS
TestParameter, Function.User.Unit, mV/dec
TestParameter, Function.User.Definition, diff(VG,log(ID))*1000
TestParameter, Output.Graph.Enabled, true
TestParameter, Output.Graph.AutoScaling, false
TestParameter, Output.Graph.XAxis.Data, VG
TestParameter, Output.Graph.XAxis.Scale, Linear
TestParameter, Output.Graph.XAxis.Left, -3
TestParameter, Output.Graph.XAxis.Right, 3
TestParameter, Output.Graph.XAxis.RunTimeAutoScale, true
TestParameter, Output.Graph.YAxis.Data, ID, IG
TestParameter, Output.Graph.YAxis.Scale, Log, Log
TestParameter, Output.Graph.YAxis.Bottom, 0, 1E-15
TestParameter, Output.Graph.YAxis.Top, 0.0001, 1E-12
TestParameter, Output.Graph.YAxis.Group, , 
TestParameter, Output.Graph.YAxis.RunTimeAutoScale, true, true
TestParameter, Output.List.Data, VG, VD, VS, IG, ID, IS, SS
TestParameter, Output.Scalar.Data, SS
TestParameter, AutoAnalysis.Interpolation, false
TestParameter, AutoAnalysis.Var2StepCount, 1
TestParameter, AutoAnalysis.Var2StepScript, 
TestParameter, AutoAnalysis.Line1.Enabled, false
TestParameter, AutoAnalysis.Line1.Type, 1
TestParameter, AutoAnalysis.Line1.Fix, True
TestParameter, AutoAnalysis.Line1.YAxis, 0
TestParameter, AutoAnalysis.Line1.Point1.Type, 0
TestParameter, AutoAnalysis.Line1.Point1.XY.X, 
TestParameter, AutoAnalysis.Line1.Point1.XY.Y, 
TestParameter, AutoAnalysis.Line1.Point1.Data.Var, 
TestParameter, AutoAnalysis.Line1.Point1.Data.Condition, 
TestParameter, AutoAnalysis.Line1.Point1.Data.Start, false
TestParameter, AutoAnalysis.Line1.Point1.Data.StartVar, 
TestParameter, AutoAnalysis.Line1.Point1.Data.StartCondition, 
TestParameter, AutoAnalysis.Line1.Point2.Type, 0
TestParameter, AutoAnalysis.Line1.Point2.XY.X, 
TestParameter, AutoAnalysis.Line1.Point2.XY.Y, 
TestParameter, AutoAnalysis.Line1.Point2.Data.Var, 
TestParameter, AutoAnalysis.Line1.Point2.Data.Condition, 
TestParameter, AutoAnalysis.Line1.Point2.Data.Start, false
TestParameter, AutoAnalysis.Line1.Point2.Data.StartVar, 
TestParameter, AutoAnalysis.Line1.Point2.Data.StartCondition, 
TestParameter, AutoAnalysis.Line1.GradientExpr, 0
TestParameter, AutoAnalysis.Line2.Enabled, false
TestParameter, AutoAnalysis.Line2.Type, 1
TestParameter, AutoAnalysis.Line2.Fix, True
TestParameter, AutoAnalysis.Line2.YAxis, 0
TestParameter, AutoAnalysis.Line2.Point1.Type, 0
TestParameter, AutoAnalysis.Line2.Point1.XY.X, 
TestParameter, AutoAnalysis.Line2.Point1.XY.Y, 
TestParameter, AutoAnalysis.Line2.Point1.Data.Var, 
TestParameter, AutoAnalysis.Line2.Point1.Data.Condition, 
TestParameter, AutoAnalysis.Line2.Point1.Data.Start, false
TestParameter, AutoAnalysis.Line2.Point1.Data.StartVar, 
TestParameter, AutoAnalysis.Line2.Point1.Data.StartCondition, 
TestParameter, AutoAnalysis.Line2.Point2.Type, 0
TestParameter, AutoAnalysis.Line2.Point2.XY.X, 
TestParameter, AutoAnalysis.Line2.Point2.XY.Y, 
TestParameter, AutoAnalysis.Line2.Point2.Data.Var, 
TestParameter, AutoAnalysis.Line2.Point2.Data.Condition, 
TestParameter, AutoAnalysis.Line2.Point2.Data.Start, false
TestParameter, AutoAnalysis.Line2.Point2.Data.StartVar, 
TestParameter, AutoAnalysis.Line2.Point2.Data.StartCondition, 
TestParameter, AutoAnalysis.Line2.GradientExpr, 0
TestParameter, AutoAnalysis.Marker.Enabled, false
TestParameter, AutoAnalysis.Marker.Data.Var, 
TestParameter, AutoAnalysis.Marker.Data.Condition, 
TestParameter, AutoAnalysis.Marker.Data.Start, false
TestParameter, AutoAnalysis.Marker.Data.StartVar, 
TestParameter, AutoAnalysis.Marker.Data.StartCondition, 
MetaData, TestRecord.EntryPoint, true
MetaData, TestRecord.RecordTime, 02/06/2026 12:35:00
MetaData, TestRecord.TestTarget, 260206_ALD_IGZO_#6_WL_1010_R02_upper_TR
MetaData, TestRecord.IterationIndex, 11
MetaData, TestRecord.Preservation, true
MetaData, TestRecord.Flag, 
MetaData, TestRecord.Remarks, 
MetaData, TestRecord.LinkKey, 61de9ecb-8ad8-4ca8-8bc2-601bff82d15c
MetaData, TestRecord.Parameters, 
Dimension1, 101, 101, 101, 101, 101, 101, 101
Dimension2, 5, 5, 5, 5, 5, 5, 5
DataName, VG, VD, VS, IG, ID, IS, SS
DataValue, -3, 0.1, 0, -4.6000000000000006E-14, 1.4400000000000002E-13, -1.7E-14, -30.393889211785122
DataValue, -2.94, 0.1, 0, -2E-15, -2.0000000000000003E-14, -1.0000000000000002E-14, -249.38851502905416
DataValue, -2.88, 0.1, 0, -5.3E-14, 8.9000000000000012E-14, -4.1E-14, 57.196842048501
DataValue, -2.82, 0.1, 0, -1.1E-14, 1.63E-13, 9.0000000000000011E-15, -77.71027249051302
DataValue, -2.7600000000000002, 0.1, 0, 3.4E-14, -1.9E-14, -5.9E-14, -39.810123504325162
DataValue, -2.7, 0.1, 0, 1.4E-14, 8E-15, -1.5000000000000002E-14, -1078.8879729127339
DataValue, -2.64, 0.1, 0, -3.5E-14, 1.7E-14, -3.2E-14, 39.973846134410636
DataValue, -2.58, 0.1, 0, 1.3000000000000001E-14, 1.6100000000000002E-13, -3.3000000000000005E-14, 76.262821610866624
DataValue, -2.52, 0.1, 0, 1.2000000000000001E-14, 8.2E-14, -2.6000000000000003E-14, -89.303339289694875
DataValue, -2.46, 0.1, 0, -9.0000000000000011E-15, -4.2000000000000004E-14, 6.0000000000000005E-15, -39.729509762178722
DataValue, -2.4, 0.1, 0, -8E-15, 4E-15, -2.4000000000000002E-14, 119.13478244165292
DataValue, -2.34, 0.1, 0, 4.5000000000000004E-14, 1.1500000000000002E-13, 1.6E-14, 36.617241463862477
DataValue, -2.2800000000000002, 0.1, 0, 7E-15, 1.06E-13, -4.5000000000000004E-14, -91.537026319160361
DataValue, -2.22, 0.1, 0, 4E-15, 3.1E-14, -8E-15, -193.42739318408405
DataValue, -2.16, 0.1, 0, -1.8000000000000002E-14, -5.700000000000001E-14, -1.2000000000000001E-14, -273.81323410335062
DataValue, -2.1, 0.1, 0, 2.5E-14, -2.0000000000000003E-14, -3.7E-14, 93.0472370853206
DataValue, -2.04, 0.1, 0, 2.7000000000000002E-14, 2.0700000000000003E-13, 2.9E-14, 118.62385513363422
DataValue, -1.98, 0.1, 0, -7E-15, 5.5000000000000005E-14, -1.0000000000000002E-14, -44.549028012373647
DataValue, -1.92, 0.1, 0, 0, 1.4E-14, -1.1E-14, -62.244162114250962
DataValue, -1.86, 0.1, 0, 2.3000000000000003E-14, -8E-15, -1.1E-14, 57.707801635558525
DataValue, -1.8, 0.1, 0, 1.2000000000000001E-14, 1.12E-13, -2.8E-14, 39.973846134410636
DataValue, -1.74, 0.1, 0, 1.3000000000000001E-14, 1.6100000000000002E-13, -2.4000000000000002E-14, -103.16804922316781
DataValue, -1.68, 0.1, 0, 7E-15, 3.5E-14, -3.9000000000000004E-14, -330.664600251863
DataValue, -1.62, 0.1, 0, 4E-15, -1.12E-13, -1.1E-14, 216.01156853605468
DataValue, -1.56, 0.1, 0, -2.1000000000000002E-14, 6.1E-14, 1.3000000000000001E-14, 1403.144882499618
DataValue, -1.5, 0.1, 0, 5.0000000000000008E-15, 1.22E-13, -1.1E-14, 317.65990068941079
DataValue, -1.44, 0.1, 0, 1.6E-14, 8.9000000000000012E-14, -6.0000000000000005E-15, -110.04641429157648
DataValue, -1.3800000000000001, 0.1, 0, 1.0000000000000002E-14, -4.1E-14, -3.0000000000000002E-15, -381.86266901777503
DataValue, -1.32, 0.1, 0, -1.2000000000000001E-14, -6.5E-14, -1.6E-14, 100.07649021015889
DataValue, -1.26, 0.1, 0, -3.0000000000000002E-15, 1.36E-13, -2.4000000000000002E-14, 171.23042033143736
DataValue, -1.2, 0.1, 0, -1.5000000000000002E-14, 1.3100000000000002E-13, -2.5E-14, -31.462679544337096
DataValue, -1.1400000000000001, 0.1, 0, -9.0000000000000011E-15, -3.0000000000000002E-15, 5.0000000000000008E-15, -60.458713399109577
DataValue, -1.08, 0.1, 0, -3.0000000000000002E-15, -1.8000000000000002E-14, -5.0000000000000008E-15, 41.255247329414878
DataValue, -1.02, 0.1, 0, 2E-15, 5.5000000000000005E-14, -4.3000000000000006E-14, 56.775854019794558
DataValue, -0.96, 0.1, 0, 1.2000000000000001E-14, 1.4900000000000002E-13, 1.0000000000000002E-14, -78.8215373328122
DataValue, -0.9, 0.1, 0, -2.4000000000000002E-14, 1.2000000000000001E-14, -2.6000000000000003E-14, -76.43511215571209
DataValue, -0.84, 0.1, 0, 9.0000000000000011E-15, -3.1E-14, -3.3000000000000005E-14, -137.06942907258875
DataValue, -0.78, 0.1, 0, 2.5E-14, 5.0000000000000008E-15, -5.0000000000000008E-15, 69.562471398454989
DataValue, -0.72, 0.1, 0, 3.0000000000000005E-14, 1.7400000000000002E-13, -2.5E-14, 39.415048650366089
DataValue, -0.66, 0.1, 0, -1.7E-14, 1.0500000000000001E-13, 1.2000000000000001E-14, -38.965925420486137
DataValue, -0.6, 0.1, 0, 2.6000000000000003E-14, 8E-15, -2.7000000000000002E-14, -778.4591033557117
DataValue, -0.54, 0.1, 0, 3.0000000000000002E-15, -9.0000000000000008E-14, -4.2000000000000004E-14, 42.690837854128226
DataValue, -0.48, 0.1, 0, 1.6E-14, 1.3300000000000001E-13, -7E-15, 190.44927225730382
DataValue, -0.42, 0.1, 0, 1.3000000000000001E-14, 1.69E-13, -4.7E-14, 305.45652218992217
DataValue, -0.36, 0.1, 0, 2.8E-14, 1.9700000000000002E-13, -2.0300000000000002E-13, 52.818229679506331
DataValue, -0.3, 0.1, 0, 3.0000000000000002E-15, 1.6390000000000002E-12, -1.6350000000000002E-12, 27.9455233587456
DataValue, -0.24, 0.1, 0, 2.4000000000000002E-14, 1.4433E-11, -1.4368000000000002E-11, 28.326625637632269
DataValue, -0.18, 0.1, 0, 2.1000000000000002E-14, 1.1333900000000001E-10, -1.1283400000000001E-10, 31.176307116134058
DataValue, -0.12, 0.1, 0, 1.5000000000000002E-14, 6.77625E-10, -6.7606400000000008E-10, 37.519719539933746
DataValue, -0.06, 0.1, 0, 1.7E-14, 2.77582E-09, -2.76767E-09, 48.772772521142784
DataValue, 0, 0.1, 0, -7E-15, 7.93456E-09, -7.92826E-09, 66.173757798579317
DataValue, 0.06, 0.1, 0, 4.5000000000000004E-14, 1.7019399999999997E-08, -1.70028E-08, 90.158523935531491
DataValue, 0.12, 0.1, 0, 7E-15, 3.00306E-08, -3.00115E-08, 119.56127406292977
DataValue, 0.18, 0.1, 0, 3.9000000000000004E-14, 4.6433599999999996E-08, -4.6414499999999995E-08, 152.70556548927922
DataValue, 0.24, 0.1, 0, 1.4E-14, 6.5893699999999991E-08, -6.58657E-08, 187.64431645778791
DataValue, 0.3, 0.1, 0, -6.0000000000000005E-15, 8.8017099999999992E-08, -8.79988E-08, 224.51464388410622
DataValue, 0.36, 0.1, 0, 8E-15, 1.1245229999999998E-07, -1.1242919999999999E-07, 262.32175547093209
DataValue, 0.42, 0.1, 0, -4E-15, 1.39071E-07, -1.39053E-07, 300.80785699786588
DataValue, 0.48, 0.1, 0, -2.5E-14, 1.67579E-07, -1.67587E-07, 339.55992721613751
DataValue, 0.54, 0.1, 0, 7E-15, 1.98023E-07, -1.98013E-07, 379.15412663599
DataValue, 0.6, 0.1, 0, -3.1E-14, 2.2997E-07, -2.29982E-07, 419.2296732554268
DataValue, 0.66, 0.1, 0, 2E-15, 2.6365E-07, -2.6364099999999997E-07, 459.589739797728
DataValue, 0.72, 0.1, 0, 1.8000000000000002E-14, 2.9858399999999997E-07, -2.98596E-07, 500.93956220082225
DataValue, 0.78, 0.1, 0, 4.0000000000000006E-14, 3.35014E-07, -3.3501E-07, 542.17514125849334
DataValue, 0.84, 0.1, 0, -1E-15, 3.72554E-07, -3.72577E-07, 584.83923851763734
DataValue, 0.9, 0.1, 0, 1.3000000000000001E-14, 4.11314E-07, -4.1130699999999997E-07, 626.98053271171113
DataValue, 0.96, 0.1, 0, 0, 4.51139E-07, -4.51147E-07, 670.56679489896294
DataValue, 1.02, 0.1, 0, -5.0000000000000008E-15, 4.9191699999999994E-07, -4.91971E-07, 713.599994932519
DataValue, 1.08, 0.1, 0, 4.4E-14, 5.33755E-07, -5.33775E-07, 757.84184838254919
DataValue, 1.1400000000000001, 0.1, 0, -1.3000000000000001E-14, 5.76315E-07, -5.76369E-07, 802.53568449145257
DataValue, 1.2, 0.1, 0, 3.9000000000000004E-14, 6.1984099999999995E-07, -6.19876E-07, 845.69099519483746
DataValue, 1.26, 0.1, 0, 1.6E-14, 6.64178E-07, -6.64211E-07, 890.514640406626
DataValue, 1.32, 0.1, 0, 1.0000000000000002E-14, 7.09256E-07, -7.09288E-07, 935.76182518720543
DataValue, 1.3800000000000001, 0.1, 0, -1.0000000000000002E-14, 7.55053E-07, -7.55058E-07, 982.17873210015659
DataValue, 1.44, 0.1, 0, 0, 8.01427E-07, -8.01502E-07, 1027.6980661778136
DataValue, 1.5, 0.1, 0, 2.7000000000000002E-14, 8.48571E-07, -8.4865499999999995E-07, 1072.2980735621147
DataValue, 1.56, 0.1, 0, 4.0000000000000006E-14, 8.96325E-07, -8.96331E-07, 1121.8587342444021
DataValue, 1.62, 0.1, 0, 1E-15, 9.44371E-07, -9.44395E-07, 1170.6155792700872
DataValue, 1.68, 0.1, 0, -2.0000000000000003E-14, 9.93082E-07, -9.93151E-07, 1214.7953077469758
DataValue, 1.74, 0.1, 0, 1E-15, 1.042421E-06, -1.042455E-06, 1263.7111060474833
DataValue, 1.8, 0.1, 0, 9.0000000000000011E-15, 1.092006E-06, -1.092045E-06, 1312.9253213868667
DataValue, 1.86, 0.1, 0, -1.6E-14, 1.142187E-06, -1.1422019999999999E-06, 1359.8474330809038
DataValue, 1.92, 0.1, 0, 3.0000000000000002E-15, 1.1927500000000001E-06, -1.19231E-06, 1410.6767660206278
DataValue, 1.98, 0.1, 0, -1E-15, 1.2436E-06, -1.24318E-06, 1462.8278948925947
DataValue, 2.04, 0.1, 0, 1.1E-14, 1.2947200000000002E-06, -1.2943500000000002E-06, 1511.0202969234204
DataValue, 2.1, 0.1, 0, 9.0000000000000011E-15, 1.34639E-06, -1.34603E-06, 1560.645929499191
DataValue, 2.16, 0.1, 0, 1.2000000000000001E-14, 1.3982000000000002E-06, -1.3978000000000002E-06, 1612.1853798909112
DataValue, 2.22, 0.1, 0, -2.3000000000000003E-14, 1.45043E-06, -1.4500700000000001E-06, 1660.8812203549048
DataValue, 2.2800000000000002, 0.1, 0, 1.1E-14, 1.5029600000000002E-06, -1.5025200000000001E-06, 1715.9883586283172
DataValue, 2.34, 0.1, 0, -2.6000000000000003E-14, 1.5554900000000001E-06, -1.5550600000000001E-06, 1770.3097767720399
DataValue, 2.4, 0.1, 0, -2.9E-14, 1.6083700000000002E-06, -1.6078100000000002E-06, 1821.769824518394
DataValue, 2.46, 0.1, 0, 2.6000000000000003E-14, 1.6614E-06, -1.6608300000000002E-06, 1876.3855585426645
DataValue, 2.52, 0.1, 0, 2E-15, 1.7145900000000002E-06, -1.7140400000000003E-06, 1931.7304505946445
DataValue, 2.58, 0.1, 0, 8E-15, 1.7678800000000001E-06, -1.7673400000000003E-06, 1986.804014158846
DataValue, 2.64, 0.1, 0, 1.6E-14, 1.82134E-06, -1.8208000000000002E-06, 2043.7511065053805
DataValue, 2.7, 0.1, 0, -1E-15, 1.8747900000000002E-06, -1.8742600000000002E-06, 2100.9083937399018
DataValue, 2.7600000000000002, 0.1, 0, 9.0000000000000011E-15, 1.9284E-06, -1.9277500000000003E-06, 2156.1331319982646
DataValue, 2.82, 0.1, 0, 1.4E-14, 1.98209E-06, -1.98138E-06, 2211.8898359893969
DataValue, 2.88, 0.1, 0, -3.7E-14, 2.03591E-06, -2.03522E-06, 2271.2142802497306
DataValue, 2.94, 0.1, 0, -8E-15, 2.0896300000000003E-06, -2.0889400000000003E-06, 2330.0166034898461
DataValue, 3, 0.1, 0, 6.0000000000000005E-15, 2.14351E-06, -2.1427200000000004E-06, 2356.8548957255261
DataValue, -3, 0.8, 0, -5.2000000000000006E-14, 1.88E-13, 4.5000000000000004E-14, -58.153659492537869
DataValue, -2.94, 0.8, 0, -1.1E-14, 6.7E-14, 9.0000000000000011E-15, -216.4850728485726
DataValue, -2.88, 0.8, 0, 4E-15, 1.0800000000000001E-13, -1.9E-14, 233.55107018509187
DataValue, -2.82, 0.8, 0, -2E-15, 1.12E-13, 1.2000000000000001E-14, -243.66645643226991
DataValue, -2.7600000000000002, 0.8, 0, -3.4E-14, -6.6000000000000009E-14, 2.2E-14, -55.721960061362296
DataValue, -2.7, 0.8, 0, 2.1000000000000002E-14, -1.3000000000000001E-14, -1E-15, 105.42764103576307
DataValue, -2.64, 0.8, 0, -2E-15, 2.06E-13, -3.7E-14, 57.18398232032159
DataValue, -2.58, 0.8, 0, -2.5E-14, 1.06E-13, -1.8000000000000002E-14, -53.647260040902957
DataValue, -2.52, 0.8, 0, 4E-15, 2.2E-14, 2.2E-14, -1211.009253098068
DataValue, -2.46, 0.8, 0, -1.3000000000000001E-14, -9.6000000000000007E-14, -2.1000000000000002E-14, 96.798323892953093
DataValue, -2.4, 0.8, 0, 1.5000000000000002E-14, 7.6E-14, 7E-15, 264.94064001212161
DataValue, -2.34, 0.8, 0, -1.1E-14, 1.5100000000000001E-13, -1.0000000000000002E-14, -120.176800490222
DataValue, -2.2800000000000002, 0.8, 0, -2.5E-14, -2.8E-14, -1.1E-14, -37.203299413600092
DataValue, -2.22, 0.8, 0, -3.7E-14, -6.0000000000000005E-15, -1.8000000000000002E-14, 241.72256999477997
DataValue, -2.16, 0.8, 0, -8E-15, -4.6000000000000006E-14, -4.2000000000000004E-14, 38.727296352938652
DataValue, -2.1, 0.8, 0, 1E-15, 1.3300000000000001E-13, -4.8000000000000004E-14, 167.91356815426653
DataValue, -2.04, 0.8, 0, 2.7000000000000002E-14, 9.4E-14, -3.3000000000000005E-14, -61.667801084370076
DataValue, -1.98, 0.8, 0, -2.4000000000000002E-14, -1.9E-14, -5.4000000000000003E-14, -144.62662977496666
DataValue, -1.92, 0.8, 0, 1E-15, -4.1E-14, -3.7E-14, 66.648406884264546
DataValue, -1.86, 0.8, 0, -1.4E-14, 1.1500000000000002E-13, 7E-15, 125.09685001286661
DataValue, -1.8, 0.8, 0, -1.2000000000000001E-14, 1.0700000000000001E-13, -1.5000000000000002E-14, -121.98444134631727
DataValue, -1.74, 0.8, 0, 8E-15, 4.3000000000000006E-14, -1.2000000000000001E-14, -207.43865608545914
DataValue, -1.68, 0.8, 0, -2.7000000000000002E-14, -6.0000000000000009E-14, -5.0000000000000008E-15, -82.269823176447858
DataValue, -1.62, 0.8, 0, 1.0000000000000002E-14, 1.0000000000000002E-14, -7E-15, 116.5479185780415
DataValue, -1.56, 0.8, 0, 8E-15, 1.6800000000000002E-13, -4.1E-14, 50.235209850378276
DataValue, -1.5, 0.8, 0, -2.4000000000000002E-14, 1.09E-13, -1.8000000000000002E-14, -29.811059807816324
DataValue, -1.44, 0.8, 0, 5.0000000000000008E-15, -3.0000000000000002E-15, -5.0000000000000008E-15, -707.7169835801061
DataValue, -1.3800000000000001, 0.8, 0, 9.0000000000000011E-15, -9.2000000000000012E-14, -4.1E-14, 32.243595835781605
DataValue, -1.32, 0.8, 0, 3.8E-14, 1.24E-13, -4.3000000000000006E-14, 186.62594993899563
DataValue, -1.26, 0.8, 0, -2.5E-14, 1.75E-13, -9.0000000000000011E-15, -138.08374446635588
DataValue, -1.2, 0.8, 0, -2.3000000000000003E-14, 5.2000000000000006E-14, -8E-15, -177.47551615224379
DataValue, -1.1400000000000001, 0.8, 0, -1.4E-14, -8.9000000000000012E-14, -1.0000000000000002E-14, -247.16388922965413
DataValue, -1.08, 0.8, 0, -2.9E-14, -3.2E-14, -5.9E-14, 198.30979534361674
DataValue, -1.02, 0.8, 0, 1.7E-14, 1.63E-13, -3.1E-14, 196.1420361626881
DataValue, -0.96, 0.8, 0, -3.0000000000000002E-15, 5.9E-14, -7.7E-14, -64.004288255274759
