
SetupTitle, I/V Sweep - Unit (transfer)
PrimitiveTest, I/V Sweep
TestParameter, Context.MainFrame, B1500A
TestParameter, Channel.UnitType, SMU, SMU, SMU
TestParameter, Channel.Unit, SMU4:HR, SMU3:HR, SMU1:HR
TestParameter, Channel.IName, IG, ID, IS
TestParameter, Channel.VName, VG, VD, VS
TestParameter, Channel.Mode, V, V, COMMON
TestParameter, Channel.Func, VAR1, VAR2, CONST
TestParameter, Channel.Index, 
TestParameter, Channel.Time, 
TestParameter, Measurement.Port.Unit, SMU4:HR, SMU3:HR, SMU1:HR
TestParameter, Measurement.Port.SeriesResistor, NONE, NONE, NONE
TestParameter, Measurement.Port.Filter, ON, ON, ON
TestParameter, Measurement.Port.OutputVoltageComparison, 0, 0, 0
TestParameter, Measurement.Primary.Locus, Single
TestParameter, Measurement.Primary.Scale, LINEAR
TestParameter, Measurement.Primary.Start, -3
TestParameter, Measurement.Primary.Stop, 3
TestParameter, Measurement.Primary.Step, 0.06
TestParameter, Measurement.Primary.Compliance, 0.1
TestParameter, Measurement.Primary.PowerCompliance, 0
TestParameter, Measurement.Aborting.Condition, CONTINUE AT ANY
TestParameter, Measurement.PostOutput.Value, START
TestParameter, Measurement.PostOutput.Retention, OFF
TestParameter, Measurement.Secondary.Start, 0.1
TestParameter, Measurement.Secondary.Count, 3
TestParameter, Measurement.Secondary.Step, 1.4000000000000001
TestParameter, Measurement.Secondary.Compliance, 0.1
TestParameter, Measurement.Secondary.PowerCompliance, 0
TestParameter, Measurement.Bias.Source, -3, 0.1, 0
TestParameter, Measurement.Bias.Compliance, 0.1, 0.1, 0.1
TestParameter, Measurement.Monitor.Unit, SMU4:HR, SMU3:HR, SMU1:HR
TestParameter, Measurement.Monitor.Adc, HR ADC, HR ADC, HR ADC
TestParameter, Measurement.Monitor.Measurement, Compliance Side, Compliance Side, Compliance Side
TestParameter, Measurement.Monitor.RangingMode, LIMITED, LIMITED, LIMITED
TestParameter, Measurement.Monitor.RangeBoundary, 1nA, 1nA, 1nA
TestParameter, Measurement.Monitor.RangeRating, BY FULL RANGE, BY FULL RANGE, BY FULL RANGE
TestParameter, Measurement.Monitor.RangeRatingCoeff, 50, 50, 50
TestParameter, Measurement.Timing.Hold, 0
TestParameter, Measurement.Timing.Delay, 0
TestParameter, Measurement.Adc.HighSpeed.Mode, PLC
TestParameter, Measurement.Adc.HighSpeed.Coeff, 5
TestParameter, Measurement.Adc.HighResolution.AutoZero, OFF
TestParameter, Measurement.Adc.HighResolution.Mode, PLC
TestParameter, Measurement.Adc.HighResolution.Coeff, 5
TestParameter, Measurement.WaitTime.Source.Coeff, 1
TestParameter, Measurement.WaitTime.Source.Offset, 0
TestParameter, Measurement.WaitTime.Monitor.Coeff, 1
TestParameter, Measurement.WaitTime.Monitor.Offset, 0
TestParameter, Function.User.Name, SS
TestParameter, Function.User.Unit, mV/dec
TestParameter, Function.User.Definition, diff(VG,log(ID))*1000
TestParameter, Output.Graph.Enabled, true
TestParameter, Output.Graph.AutoScaling, false
TestParameter, Output.Graph.XAxis.Data, VG
TestParameter, Output.Graph.XAxis.Scale, Linear
TestParameter, Output.Graph.XAxis.Left, -3
TestParameter, Output.Graph.XAxis.Right, 3
TestParameter, Output.Graph.XAxis.RunTimeAutoScale, true
TestParameter, Output.Graph.YAxis.Data, ID, IG
TestParameter, Output.Graph.YAxis.Scale, Log, Log
TestParameter, Output.Graph.YAxis.Bottom, 0, 1E-15
TestParameter, Output.Graph.YAxis.Top, 0.0001, 1E-12
TestParameter, Output.Graph.YAxis.Group, , 
TestParameter, Output.Graph.YAxis.RunTimeAutoScale, true, true
TestParameter, Output.List.Data, VG, VD, VS, IG, ID, IS, SS
TestParameter, Output.Scalar.Data, SS
TestParameter, AutoAnalysis.Interpolation, false
TestParameter, AutoAnalysis.Var2StepCount, 1
TestParameter, AutoAnalysis.Var2StepScript, 
TestParameter, AutoAnalysis.Line1.Enabled, false
TestParameter, AutoAnalysis.Line1.Type, 1
TestParameter, AutoAnalysis.Line1.Fix, True
TestParameter, AutoAnalysis.Line1.YAxis, 0
TestParameter, AutoAnalysis.Line1.Point1.Type, 0
TestParameter, AutoAnalysis.Line1.Point1.XY.X, 
TestParameter, AutoAnalysis.Line1.Point1.XY.Y, 
TestParameter, AutoAnalysis.Line1.Point1.Data.Var, 
TestParameter, AutoAnalysis.Line1.Point1.Data.Condition, 
TestParameter, AutoAnalysis.Line1.Point1.Data.Start, false
TestParameter, AutoAnalysis.Line1.Point1.Data.StartVar, 
TestParameter, AutoAnalysis.Line1.Point1.Data.StartCondition, 
TestParameter, AutoAnalysis.Line1.Point2.Type, 0
TestParameter, AutoAnalysis.Line1.Point2.XY.X, 
TestParameter, AutoAnalysis.Line1.Point2.XY.Y, 
TestParameter, AutoAnalysis.Line1.Point2.Data.Var, 
TestParameter, AutoAnalysis.Line1.Point2.Data.Condition, 
TestParameter, AutoAnalysis.Line1.Point2.Data.Start, false
TestParameter, AutoAnalysis.Line1.Point2.Data.StartVar, 
TestParameter, AutoAnalysis.Line1.Point2.Data.StartCondition, 
TestParameter, AutoAnalysis.Line1.GradientExpr, 0
TestParameter, AutoAnalysis.Line2.Enabled, false
TestParameter, AutoAnalysis.Line2.Type, 1
TestParameter, AutoAnalysis.Line2.Fix, True
TestParameter, AutoAnalysis.Line2.YAxis, 0
TestParameter, AutoAnalysis.Line2.Point1.Type, 0
TestParameter, AutoAnalysis.Line2.Point1.XY.X, 
TestParameter, AutoAnalysis.Line2.Point1.XY.Y, 
TestParameter, AutoAnalysis.Line2.Point1.Data.Var, 
TestParameter, AutoAnalysis.Line2.Point1.Data.Condition, 
TestParameter, AutoAnalysis.Line2.Point1.Data.Start, false
TestParameter, AutoAnalysis.Line2.Point1.Data.StartVar, 
TestParameter, AutoAnalysis.Line2.Point1.Data.StartCondition, 
TestParameter, AutoAnalysis.Line2.Point2.Type, 0
TestParameter, AutoAnalysis.Line2.Point2.XY.X, 
TestParameter, AutoAnalysis.Line2.Point2.XY.Y, 
TestParameter, AutoAnalysis.Line2.Point2.Data.Var, 
TestParameter, AutoAnalysis.Line2.Point2.Data.Condition, 
TestParameter, AutoAnalysis.Line2.Point2.Data.Start, false
TestParameter, AutoAnalysis.Line2.Point2.Data.StartVar, 
TestParameter, AutoAnalysis.Line2.Point2.Data.StartCondition, 
TestParameter, AutoAnalysis.Line2.GradientExpr, 0
TestParameter, AutoAnalysis.Marker.Enabled, false
TestParameter, AutoAnalysis.Marker.Data.Var, 
TestParameter, AutoAnalysis.Marker.Data.Condition, 
TestParameter, AutoAnalysis.Marker.Data.Start, false
TestParameter, AutoAnalysis.Marker.Data.StartVar, 
TestParameter, AutoAnalysis.Marker.Data.StartCondition, 
MetaData, TestRecord.EntryPoint, true
MetaData, TestRecord.RecordTime, 02/06/2026 13:54:35
MetaData, TestRecord.TestTarget, 260206_ALD_IGZO_#6_WL_1010_R02_lower_TR_2nd
MetaData, TestRecord.IterationIndex, 2
MetaData, TestRecord.Preservation, true
MetaData, TestRecord.Flag, 
MetaData, TestRecord.Remarks, 
MetaData, TestRecord.LinkKey, 6d79de6a-3ce7-43a6-8d77-b7641240e742
MetaData, TestRecord.Parameters, 
Dimension1, 101, 101, 101, 101, 101, 101, 101
Dimension2, 3, 3, 3, 3, 3, 3, 3
DataName, VG, VD, VS, IG, ID, IS, SS
DataValue, -3, 0.1, 0, 1.2100000000000002E-13, -2.9E-14, -7.1E-14, 72.960843643274529
DataValue, -2.94, 0.1, 0, 2.2E-14, -6.6000000000000009E-14, -1.3000000000000001E-14, -76.164538622412621
DataValue, -2.88, 0.1, 0, -1.03E-13, 6.0000000000000005E-15, -2.1000000000000002E-14, -432.22724271481877
DataValue, -2.82, 0.1, 0, 2.6000000000000003E-14, -5E-14, -4.2000000000000004E-14, 58.913576871567443
DataValue, -2.7600000000000002, 0.1, 0, 5.2000000000000006E-14, -4.6000000000000006E-14, -5.8E-14, -288.797929761355
DataValue, -2.7, 0.1, 0, -5E-14, -3.3000000000000005E-14, -5.6E-14, -43.955575292667824
DataValue, -2.64, 0.1, 0, -1.7E-14, 3.0000000000000002E-15, -6.0000000000000005E-15, -180.915190951796
DataValue, -2.58, 0.1, 0, -3.8E-14, -1.7E-14, -3.7E-14, 141.62670013725884
DataValue, -2.52, 0.1, 0, 1.5600000000000002E-13, 7E-15, -4.0000000000000006E-14, -618.05965859735215
DataValue, -2.46, 0.1, 0, 5.5000000000000005E-14, -1.4E-14, -4.5000000000000004E-14, 74.560192147153685
DataValue, -2.4, 0.1, 0, -5.9E-14, -3.5E-14, -4.1E-14, -141.62670013725946
DataValue, -2.34, 0.1, 0, 3.5E-14, -6.0000000000000005E-15, -3.2E-14, -285.81374511377686
DataValue, -2.2800000000000002, 0.1, 0, 8.0000000000000013E-14, -2.3000000000000003E-14, -3.3000000000000005E-14, 64.109338839768171
DataValue, -2.22, 0.1, 0, 3.3000000000000005E-14, -3.9000000000000004E-14, -2.0000000000000003E-14, 1439.1662805129836
DataValue, -2.16, 0.1, 0, -2.9E-14, -2.5E-14, -3.0000000000000002E-15, -88.171981893095818
DataValue, -2.1, 0.1, 0, -7.1E-14, -1.0000000000000002E-14, -5.4000000000000003E-14, -65.481400076237477
DataValue, -2.04, 0.1, 0, 8.8E-14, -4E-15, -3.8E-14, -74.560192147153685
DataValue, -1.98, 0.1, 0, 1.16E-13, -2E-15, -5.4000000000000003E-14, 54.614353597610233
DataValue, -1.92, 0.1, 0, -1.7E-14, 3.6000000000000004E-14, -2.3000000000000003E-14, 74.560192147153558
DataValue, -1.86, 0.1, 0, -2.0000000000000003E-14, 1.0000000000000002E-14, -7.8000000000000008E-14, -368.75150524281594
DataValue, -1.8, 0.1, 0, 6.4E-14, -2.6000000000000003E-14, -3.2E-14, 57.030584174715088
DataValue, -1.74, 0.1, 0, 1.24E-13, -8.2E-14, -5E-14, -326.33101299048963
DataValue, -1.68, 0.1, 0, 1.2000000000000001E-14, -1.8000000000000002E-14, -3.3000000000000005E-14, -101.02341582861351
DataValue, -1.62, 0.1, 0, -5.700000000000001E-14, -2.5E-14, -7.2000000000000009E-14, 160.59647633406473
DataValue, -1.56, 0.1, 0, -3.7E-14, -3.8E-14, -3.5E-14, -2939.5917913923054
DataValue, -1.5, 0.1, 0, 1.2600000000000002E-13, -2.4000000000000002E-14, -5.1000000000000004E-14, -698.282342697991
DataValue, -1.44, 0.1, 0, 2.5E-14, -3.2E-14, -6.8E-14, 318.05416063996495
DataValue, -1.3800000000000001, 0.1, 0, -4.1E-14, -3.5E-14, -4.4E-14, -145.15919958799137
DataValue, -1.32, 0.1, 0, 1.3000000000000001E-14, -1.4E-14, -3.0000000000000005E-14, 
DataValue, -1.26, 0.1, 0, 7.2000000000000009E-14, -3.5E-14, -5.8E-14, -356.64160943861282
DataValue, -1.2, 0.1, 0, 9.3000000000000008E-14, -1.0000000000000002E-14, -4.1E-14, -41.925778445372906
DataValue, -1.1400000000000001, 0.1, 0, -4.1E-14, -2E-15, -5.700000000000001E-14, 103.16804922316761
DataValue, -1.08, 0.1, 0, -1.1100000000000001E-13, -3.2E-14, -3.1E-14, 34.62468098133516
DataValue, -1.02, 0.1, 0, 1.5000000000000002E-13, -6.4E-14, -2.1000000000000002E-14, -3779.6825183504607
DataValue, -0.96, 0.1, 0, 6.8E-14, -3.1E-14, -3.3000000000000005E-14, -112.37631967594976
DataValue, -0.9, 0.1, 0, 2.4000000000000002E-14, -2.2E-14, -1.4E-14, -73.071473233408767
DataValue, -0.84, 0.1, 0, -7.2000000000000009E-14, -6.0000000000000005E-15, -7.6E-14, -818.53449013726356
DataValue, -0.78, 0.1, 0, 5.6E-14, -1.9E-14, -1.8000000000000002E-14, 76.164538622412536
DataValue, -0.72, 0.1, 0, 1.2600000000000002E-13, -2.9E-14, -8.2E-14, -65.011520646937186
DataValue, -0.66, 0.1, 0, 1.3000000000000001E-14, 3.0000000000000002E-15, -3.5E-14, -93.178243136328945
DataValue, -0.6, 0.1, 0, -7.6E-14, -8E-15, -7.5000000000000009E-14, 66.973275186149692
DataValue, -0.54, 0.1, 0, 1.9E-14, 1.8000000000000002E-14, -2.5E-14, 147.97820774258614
DataValue, -0.48, 0.1, 0, 1.57E-13, -1.8000000000000002E-14, -3.3000000000000005E-14, 326.33101299048946
DataValue, -0.42, 0.1, 0, -1.3000000000000001E-14, -2.6000000000000003E-14, -4.8000000000000004E-14, -368.75150524282031
DataValue, -0.36, 0.1, 0, -1.6E-14, 1.3000000000000001E-14, -5.3E-14, -0
DataValue, -0.3, 0.1, 0, -6.5E-14, 0, -3.5E-14, -46.784549430153618
DataValue, -0.24, 0.1, 0, 1.0100000000000001E-13, -1E-15, -3.9000000000000004E-14, 0
DataValue, -0.18, 0.1, 0, 8.3000000000000012E-14, 1.0000000000000002E-14, -5.8E-14, 48.291552525821331
DataValue, -0.12, 0.1, 0, -5.6E-14, -1.2000000000000001E-14, -4.5000000000000004E-14, -130.96280015247484
DataValue, -0.06, 0.1, 0, -3.5E-14, 4E-15, -5.9E-14, 37.089636474047062
DataValue, 0, 0.1, 0, 1.17E-13, 3.05E-13, -3.4700000000000004E-13, 18.075297275988969
DataValue, 0.06, 0.1, 0, 7.3E-14, 3.0570000000000004E-12, -3.091E-12, 27.18445504160897
DataValue, 0.12, 0.1, 0, -2.7000000000000002E-14, 2.52E-11, -2.5027000000000003E-11, 30.148789599782923
DataValue, 0.18, 0.1, 0, -9.1E-14, 1.6364400000000002E-10, -1.61059E-10, 35.359847681452358
DataValue, 0.24, 0.1, 0, 7.8000000000000008E-14, 7.503380000000001E-10, -7.36578E-10, 44.441800354376
DataValue, 0.3, 0.1, 0, -1.23E-13, 2.43537E-09, -2.39646E-09, 56.892080951018428
DataValue, 0.36, 0.1, 0, 2.2E-14, 6.18437E-09, -6.1215E-09, 72.409430376960046
DataValue, 0.42, 0.1, 0, -6.7E-14, 1.2773099999999998E-08, -1.26772E-08, 92.285447887178
DataValue, 0.48, 0.1, 0, -3.7E-14, 2.26994E-08, -2.2598099999999997E-08, 115.41216981391894
DataValue, 0.54, 0.1, 0, -2.5E-14, 3.6128899999999993E-08, -3.6005299999999994E-08, 141.75267311817683
DataValue, 0.6, 0.1, 0, -4.4E-14, 5.2925399999999994E-08, -5.27993E-08, 171.30908782479486
DataValue, 0.66, 0.1, 0, 1.4E-13, 7.279019999999999E-08, -7.2641199999999993E-08, 203.05119644822631
DataValue, 0.72, 0.1, 0, 2.2E-14, 9.5570799999999992E-08, -9.5435699999999992E-08, 236.55041443029236
DataValue, 0.78, 0.1, 0, -1.19E-13, 1.20889E-07, -1.2078E-07, 271.56575558102475
DataValue, 0.84, 0.1, 0, 1.75E-13, 1.48673E-07, -1.48597E-07, 307.26763032692679
DataValue, 0.9, 0.1, 0, 2.6000000000000003E-14, 1.78647E-07, -1.78534E-07, 344.27096371106222
DataValue, 0.96, 0.1, 0, -1.2000000000000001E-14, 2.10674E-07, -2.10555E-07, 382.58441673141374
DataValue, 1.02, 0.1, 0, -5.2000000000000006E-14, 2.44464E-07, -2.44369E-07, 422.00054240336243
DataValue, 1.08, 0.1, 0, 7E-14, 2.79967E-07, -2.79898E-07, 462.22108072523918
DataValue, 1.1400000000000001, 0.1, 0, 6.2E-14, 3.16931E-07, -3.16852E-07, 502.98057046716906
DataValue, 1.2, 0.1, 0, -3.0000000000000002E-15, 3.5540199999999997E-07, -3.55305E-07, 544.34173570491021
DataValue, 1.26, 0.1, 0, -8E-15, 3.95098E-07, -3.95043E-07, 586.33541559330388
DataValue, 1.32, 0.1, 0, 1.1300000000000001E-13, 4.36117E-07, -4.36109E-07, 627.75761372354361
DataValue, 1.3800000000000001, 0.1, 0, 1E-13, 4.78325E-07, -4.78266E-07, 671.33294893059519
DataValue, 1.44, 0.1, 0, -1.8000000000000002E-14, 5.21474E-07, -5.21432E-07, 715.94414356698837
DataValue, 1.5, 0.1, 0, -6.0000000000000009E-14, 5.6560799999999994E-07, -5.65623E-07, 761.28266347078988
DataValue, 1.56, 0.1, 0, 6.1E-14, 6.10506E-07, -6.10513E-07, 806.27531212419376
DataValue, 1.62, 0.1, 0, 6.3000000000000009E-14, 6.56376E-07, -6.56384E-07, 849.87770872961653
DataValue, 1.68, 0.1, 0, -3.0000000000000005E-14, 7.0309E-07, -7.03048E-07, 897.46460164611767
DataValue, 1.74, 0.1, 0, -5.9E-14, 7.50278E-07, -7.50295E-07, 944.95040533556926
DataValue, 1.8, 0.1, 0, 8.6000000000000012E-14, 7.98293E-07, -7.98298E-07, 991.77853410493083
DataValue, 1.86, 0.1, 0, 1.0200000000000001E-13, 8.46778E-07, -8.4680599999999994E-07, 1039.8112403091309
DataValue, 1.92, 0.1, 0, -1.6E-14, 8.95947E-07, -8.95971E-07, 1087.976677839911
DataValue, 1.98, 0.1, 0, -9.0000000000000008E-14, 9.4552E-07, -9.4552099999999993E-07, 1136.3863434508592
DataValue, 2.04, 0.1, 0, 9.4E-14, 9.95733E-07, -9.9579E-07, 1185.4226945786836
DataValue, 2.1, 0.1, 0, 9.7E-14, 1.046247E-06, -1.04626E-06, 1233.8529216325389
DataValue, 2.16, 0.1, 0, -3.1E-14, 1.09744E-06, -1.09749E-06, 1282.6618024265829
DataValue, 2.22, 0.1, 0, -1.8000000000000002E-14, 1.148854E-06, -1.148887E-06, 1333.5878572928991
DataValue, 2.2800000000000002, 0.1, 0, -3.4E-14, 1.20077E-06, -1.20054E-06, 1383.1292072315109
DataValue, 2.34, 0.1, 0, -9.3000000000000008E-14, 1.2529800000000002E-06, -1.2528400000000002E-06, 1437.3804529596205
DataValue, 2.4, 0.1, 0, 9.0000000000000011E-15, 1.3053200000000002E-06, -1.3051600000000002E-06, 1487.7692827389985
DataValue, 2.46, 0.1, 0, 1.4300000000000002E-13, 1.3582300000000002E-06, -1.3581000000000002E-06, 1534.9899379215744
DataValue, 2.52, 0.1, 0, 9.0000000000000011E-15, 1.4114600000000001E-06, -1.4112800000000002E-06, 1587.7784826320115
DataValue, 2.58, 0.1, 0, 1.4E-14, 1.4648600000000001E-06, -1.4646800000000002E-06, 1641.4754610814759
DataValue, 2.64, 0.1, 0, 1.6E-14, 1.5185100000000002E-06, -1.5184000000000002E-06, 1693.1160118508258
DataValue, 2.7, 0.1, 0, 9.4E-14, 1.57245E-06, -1.57225E-06, 1748.5804928388786
DataValue, 2.7600000000000002, 0.1, 0, 9.8000000000000012E-14, 1.62638E-06, -1.6262000000000002E-06, 1803.2717454211881
DataValue, 2.82, 0.1, 0, -1.4E-14, 1.6806500000000002E-06, -1.68054E-06, 1853.6488948095675
DataValue, 2.88, 0.1, 0, -3.2E-14, 1.7351500000000002E-06, -1.7350200000000003E-06, 1904.8861881837261
DataValue, 2.94, 0.1, 0, 1.18E-13, 1.7899300000000002E-06, -1.78975E-06, 1960.401339645837
DataValue, 3, 0.1, 0, 5.3E-14, 1.8446800000000002E-06, -1.8445300000000003E-06, 1991.4164790280022
DataValue, -3, 1.5, 0, -1.0200000000000001E-13, -1.9E-14, -3.5E-14, -109.78079026600935
DataValue, -2.94, 1.5, 0, -3.0000000000000002E-15, -1.1E-14, -3.5E-14, 166.8700007840805
DataValue, -2.88, 1.5, 0, 1.0700000000000001E-13, -3.9000000000000004E-14, -2.8E-14, 66.973275186149891
DataValue, -2.82, 1.5, 0, 5.2000000000000006E-14, -6.6000000000000009E-14, -3.5E-14, -0
DataValue, -2.7600000000000002, 1.5, 0, -5.9E-14, 0, -4.8000000000000004E-14, -123.61207879470382
DataValue, -2.7, 1.5, 0, -2.0000000000000003E-14, -2.5E-14, -3.7E-14, 0
DataValue, -2.64, 1.5, 0, 6.3000000000000009E-14, -2.2E-14, -4.0000000000000006E-14, 212.27148192549052
DataValue, -2.58, 1.5, 0, 9.5000000000000012E-14, -4.4E-14, -4.9000000000000006E-14, -152.1959284450833
DataValue, -2.52, 1.5, 0, -2.2E-14, -1.0000000000000002E-14, -5.700000000000001E-14, -524.380245802194
DataValue, -2.46, 1.5, 0, -5.700000000000001E-14, -3.5E-14, -4.5000000000000004E-14, 89.887568624736673
DataValue, -2.4, 1.5, 0, 4.8000000000000004E-14, -3.8E-14, -5E-14, 898.66508273023419
DataValue, -2.34, 1.5, 0, 1.1000000000000001E-13, -4.0000000000000006E-14, -2.6000000000000003E-14, -219.56158053201645
DataValue, -2.2800000000000002, 1.5, 0, -3.1E-14, 2.2E-14, -7.5000000000000009E-14, 1018.8224418844454
DataValue, -2.22, 1.5, 0, -6.5E-14, -4.5000000000000004E-14, -4.7E-14, 230.82451355720943
DataValue, -2.16, 1.5, 0, 1.1E-14, -3.7E-14, -4.7E-14, 
DataValue, -2.1, 1.5, 0, 1.5100000000000001E-13, -4.5000000000000004E-14, -4.8000000000000004E-14, 551.15781669882051
DataValue, -2.04, 1.5, 0, -8.1000000000000008E-14, -4.6000000000000006E-14, -4.9000000000000006E-14, -44.312324768262641
DataValue, -1.98, 1.5, 0, -4.6000000000000006E-14, -3.0000000000000002E-15, -5.8E-14, -31.342710787706952
DataValue, -1.92, 1.5, 0, -8.6000000000000012E-14, -1E-15, -5.6E-14, 42.652855228401727
DataValue, -1.86, 1.5, 0, 1.16E-13, -5E-14, -4.1E-14, 66.973275186149621
DataValue, -1.8, 1.5, 0, 7.6E-14, -6.0000000000000005E-15, -7.2000000000000009E-14, -146.16667800164072
DataValue, -1.74, 1.5, 0, -9.3000000000000008E-14, -2.2E-14, -7.2000000000000009E-14, -173.12340490667529
DataValue, -1.68, 1.5, 0, -4.9000000000000006E-14, -3.0000000000000002E-15, -7.7E-14, 1379.1299960038848
DataValue, -1.62, 1.5, 0, 2.9E-14, -2.4000000000000002E-14, -6.0000000000000009E-14, 39.014557544813762
DataValue, -1.56, 1.5, 0, 1.1100000000000001E-13, -6.5E-14, -5E-14, 417.12713961386663
DataValue, -1.5, 1.5, 0, -8.9000000000000012E-14, -3.2E-14, -1.4E-14, -67.548854819541347
DataValue, -1.44, 1.5, 0, -5.700000000000001E-14, -1.1E-14, -2.2E-14, -71.685596997302127
DataValue, -1.3800000000000001, 1.5, 0, 1.0400000000000001E-13, -6.0000000000000005E-15, -4.2000000000000004E-14, 219.56158053201827
DataValue, -1.32, 1.5, 0, 9.7E-14, -1.9E-14, -5.5000000000000005E-14, 56.073032715938815
DataValue, -1.26, 1.5, 0, 1.9E-14, -5.1000000000000004E-14, -7.1E-14, -316.2141811965393
DataValue, -1.2, 1.5, 0, -5.8E-14, 1.3000000000000001E-14, -4.0000000000000006E-14, -212.56627979253702
DataValue, -1.1400000000000001, 1.5, 0, 4.4E-14, -2.9E-14, -4.8000000000000004E-14, 156.40168668216552
DataValue, -1.08, 1.5, 0, 1.1100000000000001E-13, -2.8E-14, -4.0000000000000006E-14, -224.68439456685303
DataValue, -1.02, 1.5, 0, 3.0000000000000005E-14, 1.7E-14, -6.2E-14, -61.667801084370076
DataValue, -0.96, 1.5, 0, -4.0000000000000006E-14, -4E-15, -4.8000000000000004E-14, -958.74869524567521
DataValue, -0.9, 1.5, 0, -4.0000000000000006E-14, -1.5000000000000002E-14, -3.7E-14, 214.43283514697114
DataValue, -0.84, 1.5, 0, 1.22E-13, 7E-15, -4.1E-14, -838.56947972521834
DataValue, -0.78, 1.5, 0, 5.8E-14, -1.3000000000000001E-14, -3.4E-14, 86.561702453338015
