VIN,VSS,VDD,IDD,ISS,VREF,IIN,VOUT
0.0,0.0,3.3,1.4444e-10,-5e-14,0.0,-4e-14,0.20642
0.05,0.0,3.3,1.4353e-10,4e-14,0.0,-4e-14,0.285746
0.1,0.0,3.3,1.7971e-10,1e-14,0.0,-1e-14,0.325676
0.15,0.0,3.3,1.8526e-10,-8e-14,0.0,-5e-14,0.373902
0.2,0.0,3.3,1.9375e-10,-8e-14,0.0,-3e-14,0.422132
0.25,0.0,3.3,1.9089e-10,0.0,0.0,-1.2e-13,0.473208
0.3,0.0,3.3,1.961e-10,-7e-14,0.0,-1.5e-13,0.522364
0.35,0.0,3.3,1.9207e-10,4e-14,0.0,-4e-14,0.572262
0.4,0.0,3.3,1.9124e-10,-3e-14,0.0,1e-14,0.623062
0.45,0.0,3.3,1.9494e-10,0.0,0.0,-1e-13,0.672196
0.5,0.0,3.3,1.9376e-10,3e-14,0.0,-3e-14,0.722304
0.55,0.0,3.3,1.9248e-10,0.0,0.0,-8e-14,0.77229
0.6,0.0,3.3,1.9431e-10,4e-14,0.0,4e-14,0.82233
0.65,0.0,3.3,1.8734e-10,-8e-14,0.0,1e-14,0.873416
0.7,0.0,3.3,1.9118e-10,-1e-14,0.0,0.0,0.922846
0.75,0.0,3.3,1.8954e-10,-6e-14,0.0,-9e-14,0.9734
0.8,0.0,3.3,1.9451e-10,4e-14,0.0,-9e-14,1.022392
0.85,0.0,3.3,1.9324e-10,9e-14,0.0,-1e-14,1.072376
0.9,0.0,3.3,1.9113e-10,-1.3e-13,0.0,-9e-14,1.123074
0.95,0.0,3.3,1.9566e-10,7e-14,0.0,3e-14,1.172184
1.0,0.0,3.3,1.9206e-10,3e-14,0.0,-7e-14,1.222248
1.05,0.0,3.3,1.9425e-10,4e-14,0.0,0.0,1.272218
1.1,0.0,3.3,1.9461e-10,-4e-14,0.0,-2e-14,1.32234
1.15,0.0,3.3,1.8773e-10,-1e-14,0.0,-4e-14,1.37329
1.2,0.0,3.3,1.9253e-10,-2e-14,0.0,-3e-14,1.422184
1.25,0.0,3.3,1.9415e-10,7e-14,0.0,-4e-14,1.472296
1.3,0.0,3.3,1.8944e-10,3e-14,0.0,0.0,1.523486
1.35,0.0,3.3,1.9238e-10,-1e-13,0.0,-2e-14,1.572414
1.4,0.0,3.3,1.9297e-10,4e-14,0.0,-1e-14,1.622326
1.45,0.0,3.3,1.9023e-10,-2e-14,0.0,-8e-14,1.673162
1.5,0.0,3.3,1.913e-10,8e-14,0.0,2e-14,1.722612
1.55,0.0,3.3,1.8944e-10,-7e-14,0.0,-2e-14,1.773316
1.6,0.0,3.3,1.9262e-10,0.0,0.0,5e-14,1.82251
1.65,0.0,3.3,1.9026e-10,-9e-14,0.0,-5e-14,1.87255
1.7,0.0,3.3,1.866e-10,3e-14,0.0,-4e-14,1.923448
1.75,0.0,3.3,1.9276e-10,-3e-14,0.0,-8e-14,1.972652
1.8,0.0,3.3,1.9212e-10,1.1e-13,0.0,7e-14,2.022814
1.85,0.0,3.3,1.8555e-10,-6e-14,0.0,-2e-14,2.073762
1.9,0.0,3.3,1.9171e-10,3e-14,0.0,2e-14,2.122542
1.95,0.0,3.3,1.9322e-10,-9e-14,0.0,-1.4e-13,2.172588
2.0,0.0,3.3,1.8756e-10,8e-14,0.0,-8e-14,2.22326
2.05,0.0,3.3,1.9133e-10,-1e-14,0.0,-1e-13,2.27242
2.1,0.0,3.3,1.927e-10,-9e-14,0.0,-1e-14,2.32236
2.15,0.0,3.3,1.876e-10,8e-14,0.0,0.0,2.37326
2.2,0.0,3.3,1.9384e-10,0.0,0.0,-1.2e-13,2.42208
2.25,0.0,3.3,1.9396e-10,8e-14,0.0,-2e-14,2.47222
2.3,0.0,3.3,1.928e-10,-4e-14,0.0,-6e-14,2.52242
2.35,0.0,3.3,1.9153e-10,-3e-14,0.0,0.0,2.57236
2.4,0.0,3.3,1.8964e-10,3e-14,0.0,-8e-14,2.62316
2.45,0.0,3.3,1.9454e-10,2e-14,0.0,-4e-14,2.67212
2.5,0.0,3.3,1.9094e-10,0.0,0.0,-9e-14,2.72208
2.55,0.0,3.3,1.9042e-10,1e-13,0.0,3e-14,2.7729
2.6,0.0,3.3,1.9393e-10,5e-14,0.0,-5e-14,2.82198
2.65,0.0,3.3,1.9145e-10,5e-14,0.0,-8e-14,2.8721
2.7,0.0,3.3,1.9264e-10,7e-14,0.0,8e-14,2.92188
2.75,0.0,3.3,1.9297e-10,9e-14,0.0,-5e-14,2.97188
2.8,0.0,3.3,1.8963e-10,-4e-14,0.0,-6e-14,3.02314
2.85,0.0,3.3,1.9009e-10,1e-14,0.0,-5e-14,3.07224
2.9,0.0,3.3,1.9224e-10,4e-14,0.0,-7e-14,3.122
2.95,0.0,3.3,1.8577e-10,5e-14,0.0,-4e-14,3.1731
3.0,0.0,3.3,1.789e-10,1.1e-13,0.0,-3e-14,3.2212
0.0,0.0,3.3,4e-14,-1.3439e-10,0.25,-6e-14,3.2499
0.05,0.0,3.3,-5.1e-13,-1.0847e-10,0.25,-5e-14,3.20886
0.1,0.0,3.3,-2.8e-13,-9.84e-11,0.25,-1e-14,3.18436
0.15,0.0,3.3,-1.1e-13,-9.231e-11,0.25,-4e-14,3.16206
0.2,0.0,3.3,-9e-14,-8.74e-11,0.25,4e-14,3.14144
0.25,0.0,3.3,4e-14,-8.341e-11,0.25,1e-14,3.12224
0.3,0.0,3.3,-1.8e-13,-8.015e-11,0.25,3e-14,3.10392
0.35,0.0,3.3,5.9e-13,-7.733e-11,0.25,1e-14,3.08654
0.4,0.0,3.3,1.7e-13,-7.518e-11,0.25,6e-14,3.06972
0.45,0.0,3.3,6.5e-13,-7.31e-11,0.25,7e-14,3.05352
0.5,0.0,3.3,3.6e-13,-7.137e-11,0.25,-4e-14,3.03792
0.55,0.0,3.3,-1.3e-13,-6.945e-11,0.25,1.1e-13,3.02272
0.6,0.0,3.3,4.9e-13,-6.844e-11,0.25,-8e-14,3.0078
0.65,0.0,3.3,4.6e-13,-6.697e-11,0.25,-5e-14,2.99298
0.7,0.0,3.3,1.6e-13,-6.562e-11,0.25,-7e-14,2.97836
0.75,0.0,3.3,4.2e-13,-6.418e-11,0.25,-1e-14,2.9642
0.8,0.0,3.3,-4.1e-13,-6.31e-11,0.25,-4e-14,2.95046
0.85,0.0,3.3,-1e-13,-6.228e-11,0.25,-1e-14,2.93688
0.9,0.0,3.3,5.1e-13,-6.103e-11,0.25,6e-14,2.92352
0.95,0.0,3.3,5.3e-13,-6.031e-11,0.25,0.0,2.91056
1.0,0.0,3.3,3.6e-13,-5.937e-11,0.25,6e-14,2.89816
1.05,0.0,3.3,1.2e-13,-5.863e-11,0.25,-1e-14,2.88606
1.1,0.0,3.3,4.2e-13,-5.752e-11,0.25,3.1e-13,2.87388
1.15,0.0,3.3,2.7e-13,-5.762e-11,0.25,-2.9e-13,2.86202
1.2,0.0,3.3,1.49e-12,-5.672e-11,0.25,0.0,2.8504
1.25,0.0,3.3,-2.54e-12,-5.597e-11,0.25,-1e-14,2.83906
1.3,0.0,3.3,1.07e-12,-5.492e-11,0.25,1.7e-13,2.82776
1.35,0.0,3.3,-4.4e-13,-5.471e-11,0.25,-1.7e-13,2.81662
1.4,0.0,3.3,-9.2e-13,-5.376e-11,0.25,7e-14,2.80568
1.45,0.0,3.3,-1.06e-12,-5.328e-11,0.25,2.8e-13,2.79512
1.5,0.0,3.3,-8e-14,-5.276e-11,0.25,-6e-14,2.78448
1.55,0.0,3.3,1.12e-12,-5.291e-11,0.25,-2.3e-13,2.77436
1.6,0.0,3.3,5.9e-13,-5.191e-11,0.25,1.2e-13,2.76454
1.65,0.0,3.3,-1.41e-12,-5.178e-11,0.25,-9e-14,2.755
1.7,0.0,3.3,-8e-14,-5.122e-11,0.25,1e-14,2.74552
1.75,0.0,3.3,-5.7e-13,-5.054e-11,0.25,1.9e-13,2.73578
1.8,0.0,3.3,8.9e-13,-5.027e-11,0.25,-2e-14,2.72594
1.85,0.0,3.3,5.1e-13,-4.991e-11,0.25,-3e-14,2.71632
1.9,0.0,3.3,8.2e-13,-4.961e-11,0.25,-9e-14,2.70682
1.95,0.0,3.3,-4.5e-13,-4.926e-11,0.25,-3e-14,2.69744
2.0,0.0,3.3,-8.5e-13,-4.865e-11,0.25,7e-14,2.68818
2.05,0.0,3.3,4e-13,-4.854e-11,0.25,-4e-14,2.67944
2.1,0.0,3.3,3.7e-13,-4.812e-11,0.25,0.0,2.67072
2.15,0.0,3.3,-1.8e-13,-4.797e-11,0.25,-6e-14,2.6622
2.2,0.0,3.3,-8.4e-13,-4.757e-11,0.25,-5e-14,2.65356
2.25,0.0,3.3,5.9e-13,-4.715e-11,0.25,4e-14,2.64508
2.3,0.0,3.3,6.62e-12,-4.698e-11,0.25,1e-14,2.63718
2.35,0.0,3.3,4.45e-11,-4.666e-11,0.25,0.0,2.6323
2.4,0.0,3.3,1.4222e-10,-4.616e-11,0.25,2e-14,2.64112
2.45,0.0,3.3,2.1162e-10,-4.614e-11,0.25,-1.1e-13,2.6734
2.5,0.0,3.3,2.2844e-10,-4.588e-11,0.25,3e-14,2.71886
2.55,0.0,3.3,2.3282e-10,-4.542e-11,0.25,7e-14,2.7678
2.6,0.0,3.3,2.3288e-10,-4.532e-11,0.25,-1.1e-13,2.81788
2.65,0.0,3.3,2.3135e-10,-4.507e-11,0.25,2e-14,2.86764
2.7,0.0,3.3,2.3516e-10,-4.478e-11,0.25,9e-14,2.91726
2.75,0.0,3.3,2.3442e-10,-4.455e-11,0.25,-7e-14,2.96746
2.8,0.0,3.3,2.3449e-10,-4.429e-11,0.25,-9e-14,3.01758
2.85,0.0,3.3,2.3269e-10,-4.399e-11,0.25,7e-14,3.06748
2.9,0.0,3.3,2.3351e-10,-4.385e-11,0.25,-3e-14,3.11718
2.95,0.0,3.3,2.3303e-10,-4.369e-11,0.25,-8e-14,3.16724
3.0,0.0,3.3,2.2227e-10,-4.336e-11,0.25,-9e-14,3.21634
0.0,0.0,3.3,7.8e-13,-1.13003e-08,0.5,-1.1e-13,2.63434
0.05,0.0,3.3,8.62231e-09,-8.53132e-09,0.5,3e-14,0.126486
0.1,0.0,3.3,8.79659e-09,-8.77044e-09,0.5,-6e-14,0.175374
0.15,0.0,3.3,8.71228e-09,-8.68901e-09,0.5,-8e-14,0.22537
0.2,0.0,3.3,8.52628e-09,-8.51553e-09,0.5,-9e-14,0.277012
0.25,0.0,3.3,8.34249e-09,-8.3285e-09,0.5,-2e-14,0.328344
0.3,0.0,3.3,8.17029e-09,-8.16884e-09,0.5,-1e-14,0.379704
0.35,0.0,3.3,8.03647e-09,-8.02682e-09,0.5,5e-14,0.430218
0.4,0.0,3.3,7.89887e-09,-7.90164e-09,0.5,5e-14,0.481332
0.45,0.0,3.3,7.79248e-09,-7.79545e-09,0.5,-6e-14,0.532372
0.5,0.0,3.3,7.6822e-09,-7.68993e-09,0.5,-3e-14,0.582608
0.55,0.0,3.3,7.58519e-09,-7.59118e-09,0.5,-8e-14,0.633468
0.6,0.0,3.3,7.50328e-09,-7.50217e-09,0.5,-2e-14,0.684404
0.65,0.0,3.3,7.41429e-09,-7.41734e-09,0.5,-1.1e-13,0.734382
0.7,0.0,3.3,7.33848e-09,-7.33866e-09,0.5,-3e-14,0.785246
0.75,0.0,3.3,7.27087e-09,-7.2709e-09,0.5,-2e-14,0.83592
0.8,0.0,3.3,7.19563e-09,-7.20233e-09,0.5,-1e-14,0.886742
0.85,0.0,3.3,7.13267e-09,-7.14128e-09,0.5,-1e-14,0.93662
0.9,0.0,3.3,7.08135e-09,-7.08783e-09,0.5,3e-14,0.987296
0.95,0.0,3.3,7.01838e-09,-7.02461e-09,0.5,3e-14,1.038094
1.0,0.0,3.3,6.96483e-09,-6.96785e-09,0.5,3e-14,1.087838
1.05,0.0,3.3,6.91288e-09,-6.92045e-09,0.5,-2e-14,1.138556
1.1,0.0,3.3,6.86342e-09,-6.87249e-09,0.5,1e-14,1.189052
1.15,0.0,3.3,6.81132e-09,-6.82086e-09,0.5,0.0,1.238904
1.2,0.0,3.3,6.76425e-09,-6.7692e-09,0.5,3e-14,1.28943
1.25,0.0,3.3,6.71646e-09,-6.72867e-09,0.5,-1e-14,1.340032
1.3,0.0,3.3,6.6852e-09,-6.69456e-09,0.5,-8e-14,1.390562
1.35,0.0,3.3,6.64559e-09,-6.66077e-09,0.5,-1e-14,1.440276
1.4,0.0,3.3,6.60802e-09,-6.61666e-09,0.5,1e-14,1.490684
1.45,0.0,3.3,6.56104e-09,-6.57168e-09,0.5,1e-14,1.541336
1.5,0.0,3.3,6.51966e-09,-6.54165e-09,0.5,-2e-14,1.591038
1.55,0.0,3.3,6.48978e-09,-6.49978e-09,0.5,-2e-14,1.641644
1.6,0.0,3.3,6.45653e-09,-6.47028e-09,0.5,0.0,1.692092
1.65,0.0,3.3,6.44154e-09,-6.44886e-09,0.5,3e-14,1.74117
1.7,0.0,3.3,6.40788e-09,-6.41746e-09,0.5,4e-14,1.792118
1.75,0.0,3.3,6.38378e-09,-6.39674e-09,0.5,5e-14,1.842018
1.8,0.0,3.3,6.36296e-09,-6.37901e-09,0.5,-1e-14,1.892328
1.85,0.0,3.3,6.34327e-09,-6.35783e-09,0.5,2e-14,1.942008
1.9,0.0,3.3,6.33272e-09,-6.33316e-09,0.5,-4e-14,1.992298
1.95,0.0,3.3,6.29923e-09,-6.30857e-09,0.5,-2e-14,2.042706
2.0,0.0,3.3,6.28576e-09,-6.29147e-09,0.5,0.0,2.092236
2.05,0.0,3.3,6.26923e-09,-6.27692e-09,0.5,-2e-14,2.142596
2.1,0.0,3.3,6.24889e-09,-6.2558e-09,0.5,-8e-14,2.192994
2.15,0.0,3.3,6.23491e-09,-6.2425e-09,0.5,-1.2e-13,2.24254
2.2,0.0,3.3,6.21952e-09,-6.22667e-09,0.5,-5e-14,2.29294
2.25,0.0,3.3,6.20675e-09,-6.21382e-09,0.5,-1.2e-13,2.34318
2.3,0.0,3.3,6.18492e-09,-6.19839e-09,0.5,-2e-14,2.39362
2.35,0.0,3.3,6.16624e-09,-6.17446e-09,0.5,-1e-14,2.44308
2.4,0.0,3.3,6.15015e-09,-6.16487e-09,0.5,7e-14,2.49346
2.45,0.0,3.3,6.13617e-09,-6.14872e-09,0.5,-1e-14,2.54374
2.5,0.0,3.3,6.12425e-09,-6.13334e-09,0.5,-2e-14,2.59346
2.55,0.0,3.3,6.1049e-09,-6.11573e-09,0.5,5e-14,2.64374
2.6,0.0,3.3,6.08978e-09,-6.10231e-09,0.5,-2e-14,2.69406
2.65,0.0,3.3,6.07564e-09,-6.08394e-09,0.5,4e-14,2.74362
2.7,0.0,3.3,6.06028e-09,-6.06865e-09,0.5,4e-14,2.79386
2.75,0.0,3.3,6.04173e-09,-6.06237e-09,0.5,3e-14,2.84416
2.8,0.0,3.3,6.03422e-09,-6.04263e-09,0.5,1e-14,2.89454
2.85,0.0,3.3,6.01385e-09,-6.02414e-09,0.5,3e-14,2.94406
2.9,0.0,3.3,6.00378e-09,-6.01575e-09,0.5,-5e-14,2.99442
2.95,0.0,3.3,5.98825e-09,-5.99985e-09,0.5,4e-14,3.04466
3.0,0.0,3.3,5.97962e-09,-5.99117e-09,0.5,1e-14,3.09412
0.0,0.0,3.3,1.80559e-08,-1.80364e-08,0.75,-2e-14,0.026892
0.05,0.0,3.3,2.75723e-08,-2.75649e-08,0.75,0.0,0.04389
0.1,0.0,3.3,3.83322e-08,-3.83296e-08,0.75,-1.1e-13,0.06513
0.15,0.0,3.3,4.92839e-08,-4.92686e-08,0.75,-1.4e-13,0.090278
0.2,0.0,3.3,5.99588e-08,-5.99518e-08,0.75,-1.2e-13,0.12019
0.25,0.0,3.3,6.94353e-08,-6.94043e-08,0.75,-1.4e-13,0.154134
0.3,0.0,3.3,7.71846e-08,-7.71565e-08,0.75,-1.1e-13,0.192174
0.35,0.0,3.3,8.28247e-08,-8.2799e-08,0.75,2e-14,0.23313
0.4,0.0,3.3,8.65458e-08,-8.65271e-08,0.75,-1e-14,0.277926
0.45,0.0,3.3,8.86064e-08,-8.85993e-08,0.75,7e-14,0.325182
0.5,0.0,3.3,8.94887e-08,-8.94494e-08,0.75,8e-14,0.373414
0.55,0.0,3.3,8.96945e-08,-8.96956e-08,0.75,1e-13,0.423234
0.6,0.0,3.3,8.97263e-08,-8.97278e-08,0.75,7e-14,0.473382
0.65,0.0,3.3,8.95914e-08,-8.95279e-08,0.75,1e-14,0.52299
0.7,0.0,3.3,8.94008e-08,-8.93656e-08,0.75,-1e-14,0.573512
0.75,0.0,3.3,8.91853e-08,-8.91791e-08,0.75,4e-14,0.62387
0.8,0.0,3.3,8.90417e-08,-8.89931e-08,0.75,3e-14,0.674242
0.85,0.0,3.3,8.88076e-08,-8.88135e-08,0.75,-3e-14,0.723896
0.9,0.0,3.3,8.86467e-08,-8.8629e-08,0.75,-3e-14,0.77434
0.95,0.0,3.3,8.84357e-08,-8.84364e-08,0.75,-2e-14,0.824866
1.0,0.0,3.3,8.82852e-08,-8.82372e-08,0.75,-5e-14,0.874394
1.05,0.0,3.3,8.81226e-08,-8.81135e-08,0.75,-4e-14,0.924886
1.1,0.0,3.3,8.79663e-08,-8.79268e-08,0.75,3e-14,0.975246
1.15,0.0,3.3,8.77804e-08,-8.77401e-08,0.75,2e-14,1.024848
1.2,0.0,3.3,8.75816e-08,-8.75538e-08,0.75,-4e-14,1.075266
1.25,0.0,3.3,8.74311e-08,-8.74041e-08,0.75,-2e-14,1.125742
1.3,0.0,3.3,8.72563e-08,-8.72534e-08,0.75,-2e-14,1.176088
1.35,0.0,3.3,8.70819e-08,-8.70877e-08,0.75,-1e-13,1.225834
1.4,0.0,3.3,8.69993e-08,-8.6981e-08,0.75,-1e-14,1.276086
1.45,0.0,3.3,8.68326e-08,-8.67916e-08,0.75,-3e-14,1.326576
1.5,0.0,3.3,8.66353e-08,-8.66183e-08,0.75,-6e-14,1.376164
1.55,0.0,3.3,8.65384e-08,-8.64978e-08,0.75,-1e-14,1.426616
1.6,0.0,3.3,8.64032e-08,-8.64028e-08,0.75,-1e-14,1.476926
1.65,0.0,3.3,8.6264e-08,-8.62362e-08,0.75,-4e-14,1.526548
1.7,0.0,3.3,8.61328e-08,-8.61549e-08,0.75,-5e-14,1.576856
1.75,0.0,3.3,8.59668e-08,-8.59154e-08,0.75,-1e-14,1.62733
1.8,0.0,3.3,8.58122e-08,-8.57915e-08,0.75,1e-14,1.677644
1.85,0.0,3.3,8.5686e-08,-8.5668e-08,0.75,0.0,1.727356
1.9,0.0,3.3,8.55515e-08,-8.5512e-08,0.75,1e-14,1.777662
1.95,0.0,3.3,8.54074e-08,-8.54291e-08,0.75,4e-14,1.828064
2.0,0.0,3.3,8.52804e-08,-8.52437e-08,0.75,6e-14,1.877568
2.05,0.0,3.3,8.51881e-08,-8.51623e-08,0.75,-1e-14,1.927864
2.1,0.0,3.3,8.50693e-08,-8.50532e-08,0.75,1e-14,1.978208
2.15,0.0,3.3,8.49191e-08,-8.48943e-08,0.75,6e-14,2.027872
2.2,0.0,3.3,8.48702e-08,-8.48516e-08,0.75,0.0,2.078228
2.25,0.0,3.3,8.47261e-08,-8.47085e-08,0.75,0.0,2.128506
2.3,0.0,3.3,8.45909e-08,-8.45665e-08,0.75,1e-14,2.178942
2.35,0.0,3.3,8.44712e-08,-8.44838e-08,0.75,-3e-14,2.22834
2.4,0.0,3.3,8.44001e-08,-8.43847e-08,0.75,3e-14,2.27874
2.45,0.0,3.3,8.42772e-08,-8.4318e-08,0.75,0.0,2.32902
2.5,0.0,3.3,8.41571e-08,-8.41767e-08,0.75,-5e-14,2.3787
2.55,0.0,3.3,8.40658e-08,-8.40579e-08,0.75,-2e-14,2.42896
2.6,0.0,3.3,8.39787e-08,-8.39647e-08,0.75,-2e-14,2.47934
2.65,0.0,3.3,8.38099e-08,-8.37956e-08,0.75,-3e-14,2.5289
2.7,0.0,3.3,8.37587e-08,-8.37359e-08,0.75,1e-14,2.5792
2.75,0.0,3.3,8.3699e-08,-8.36751e-08,0.75,-4e-14,2.62942
2.8,0.0,3.3,8.35987e-08,-8.35693e-08,0.75,0.0,2.67968
2.85,0.0,3.3,8.35204e-08,-8.35629e-08,0.75,4e-14,2.72928
2.9,0.0,3.3,8.34328e-08,-8.34138e-08,0.75,-8e-14,2.77964
2.95,0.0,3.3,8.33599e-08,-8.33548e-08,0.75,-6e-14,2.82984
3.0,0.0,3.3,8.32603e-08,-8.32401e-08,0.75,-2e-14,2.87936
0.0,0.0,3.3,2.14211e-08,-2.1438e-08,1.0,-9e-14,0.012512
0.05,0.0,3.3,3.53005e-08,-3.53168e-08,1.0,-8e-14,0.02096
0.1,0.0,3.3,5.30078e-08,-5.30193e-08,1.0,-4e-14,0.032078
0.15,0.0,3.3,7.36926e-08,-7.37113e-08,1.0,-1e-14,0.045612
0.2,0.0,3.3,9.74835e-08,-9.75002e-08,1.0,-5e-14,0.06203
0.25,0.0,3.3,1.23289e-07,-1.23277e-07,1.0,-6e-14,0.081042
0.3,0.0,3.3,1.50564e-07,-1.50573e-07,1.0,-2e-13,0.102632
0.35,0.0,3.3,1.78079e-07,-1.78071e-07,1.0,-1e-13,0.126328
0.4,0.0,3.3,2.05944e-07,-2.05917e-07,1.0,0.0,0.15288
0.45,0.0,3.3,2.33023e-07,-2.32997e-07,1.0,-1e-13,0.181912
0.5,0.0,3.3,2.58364e-07,-2.58333e-07,1.0,-6e-14,0.212978
0.55,0.0,3.3,2.8198e-07,-2.82005e-07,1.0,-5e-14,0.24694
0.6,0.0,3.3,3.0316e-07,-3.03122e-07,1.0,0.0,0.283402
0.65,0.0,3.3,3.20949e-07,-3.20899e-07,1.0,-9e-14,0.321642
0.7,0.0,3.3,3.35781e-07,-3.35731e-07,1.0,4e-14,0.36285
0.75,0.0,3.3,3.47246e-07,-3.47172e-07,1.0,0.0,0.40628
0.8,0.0,3.3,3.55409e-07,-3.55409e-07,1.0,9e-14,0.451614
0.85,0.0,3.3,3.60718e-07,-3.60667e-07,1.0,-1e-14,0.497946
0.9,0.0,3.3,3.63928e-07,-3.6398e-07,1.0,-3e-14,0.546228
0.95,0.0,3.3,3.6557e-07,-3.65595e-07,1.0,-3e-14,0.59557
1.0,0.0,3.3,3.6643e-07,-3.66414e-07,1.0,3e-14,0.644424
1.05,0.0,3.3,3.66669e-07,-3.66622e-07,1.0,4e-14,0.694526
1.1,0.0,3.3,3.66672e-07,-3.66627e-07,1.0,-5e-14,0.744636
1.15,0.0,3.3,3.66583e-07,-3.66521e-07,1.0,0.0,0.79418
1.2,0.0,3.3,3.66279e-07,-3.66247e-07,1.0,-3e-14,0.84432
1.25,0.0,3.3,3.66113e-07,-3.65991e-07,1.0,-3e-14,0.894682
1.3,0.0,3.3,3.65765e-07,-3.65741e-07,1.0,-3e-14,0.944994
1.35,0.0,3.3,3.65569e-07,-3.65521e-07,1.0,2e-14,0.994622
1.4,0.0,3.3,3.65332e-07,-3.65271e-07,1.0,4e-14,1.044866
1.45,0.0,3.3,3.65051e-07,-3.65042e-07,1.0,-1e-14,1.095182
1.5,0.0,3.3,3.64791e-07,-3.64729e-07,1.0,1e-14,1.144722
1.55,0.0,3.3,3.64576e-07,-3.64585e-07,1.0,2e-14,1.19514
1.6,0.0,3.3,3.64367e-07,-3.64316e-07,1.0,0.0,1.245392
1.65,0.0,3.3,3.64169e-07,-3.64103e-07,1.0,2e-14,1.294986
1.7,0.0,3.3,3.63786e-07,-3.63802e-07,1.0,-5e-14,1.345236
1.75,0.0,3.3,3.63669e-07,-3.63677e-07,1.0,-4e-14,1.395548
1.8,0.0,3.3,3.63372e-07,-3.63362e-07,1.0,-3e-14,1.445732
1.85,0.0,3.3,3.63283e-07,-3.63195e-07,1.0,-6e-14,1.495386
1.9,0.0,3.3,3.63086e-07,-3.62962e-07,1.0,-1e-14,1.545656
1.95,0.0,3.3,3.62854e-07,-3.62787e-07,1.0,1e-14,1.595886
2.0,0.0,3.3,3.62712e-07,-3.62652e-07,1.0,0.0,1.64536
2.05,0.0,3.3,3.62509e-07,-3.62519e-07,1.0,1e-14,1.695678
2.1,0.0,3.3,3.62201e-07,-3.62199e-07,1.0,-6e-14,1.745938
2.15,0.0,3.3,3.62048e-07,-3.61938e-07,1.0,-1e-14,1.795556
2.2,0.0,3.3,3.61781e-07,-3.61773e-07,1.0,-4e-14,1.845804
2.25,0.0,3.3,3.61623e-07,-3.6166e-07,1.0,-3e-14,1.896034
2.3,0.0,3.3,3.61496e-07,-3.61474e-07,1.0,1e-14,1.946314
2.35,0.0,3.3,3.61314e-07,-3.61246e-07,1.0,5e-14,1.995784
2.4,0.0,3.3,3.61043e-07,-3.60964e-07,1.0,2e-14,2.046126
2.45,0.0,3.3,3.60787e-07,-3.60832e-07,1.0,2e-14,2.096308
2.5,0.0,3.3,3.60636e-07,-3.60622e-07,1.0,2e-14,2.14592
2.55,0.0,3.3,3.60422e-07,-3.60426e-07,1.0,1e-14,2.196096
2.6,0.0,3.3,3.60257e-07,-3.60184e-07,1.0,2e-14,2.24642
2.65,0.0,3.3,3.59967e-07,-3.59972e-07,1.0,6e-14,2.29598
2.7,0.0,3.3,3.59857e-07,-3.59901e-07,1.0,2e-14,2.3462
2.75,0.0,3.3,3.59688e-07,-3.59708e-07,1.0,-1e-14,2.39632
2.8,0.0,3.3,3.59493e-07,-3.59456e-07,1.0,2e-14,2.44662
2.85,0.0,3.3,3.5933e-07,-3.59272e-07,1.0,3e-14,2.4961
2.9,0.0,3.3,3.59008e-07,-3.5895e-07,1.0,5e-14,2.5465
2.95,0.0,3.3,3.58867e-07,-3.58889e-07,1.0,7e-14,2.59662
3.0,0.0,3.3,3.5878e-07,-3.58758e-07,1.0,-1e-14,2.64608
0.0,0.0,3.3,2.25029e-08,-2.25115e-08,1.25,0.0,0.007276
0.05,0.0,3.3,3.81527e-08,-3.81798e-08,1.25,2e-14,0.01243
0.1,0.0,3.3,5.89961e-08,-5.90176e-08,1.25,0.0,0.01937
0.15,0.0,3.3,8.44849e-08,-8.45078e-08,1.25,0.0,0.027996
0.2,0.0,3.3,1.15242e-07,-1.15271e-07,1.25,3e-14,0.038654
0.25,0.0,3.3,1.50368e-07,-1.50386e-07,1.25,-8e-14,0.051132
0.3,0.0,3.3,1.89527e-07,-1.8956e-07,1.25,-1.1e-13,0.06547
0.35,0.0,3.3,2.31416e-07,-2.31429e-07,1.25,0.0,0.081336
0.4,0.0,3.3,2.76805e-07,-2.76827e-07,1.25,-7e-14,0.09924
0.45,0.0,3.3,3.24386e-07,-3.24377e-07,1.25,-3e-14,0.118856
0.5,0.0,3.3,3.73036e-07,-3.73046e-07,1.25,2e-14,0.139932
0.55,0.0,3.3,4.23341e-07,-4.23354e-07,1.25,-1e-14,0.163006
0.6,0.0,3.3,4.74138e-07,-4.74137e-07,1.25,0.0,0.187836
0.65,0.0,3.3,5.23931e-07,-5.23883e-07,1.25,3e-14,0.213886
0.7,0.0,3.3,5.73678e-07,-5.73666e-07,1.25,2e-14,0.242084
0.75,0.0,3.3,6.22024e-07,-6.21978e-07,1.25,4e-14,0.27197
0.8,0.0,3.3,6.68518e-07,-6.68453e-07,1.25,2e-14,0.303562
0.85,0.0,3.3,7.11602e-07,-7.11527e-07,1.25,3e-14,0.336342
0.9,0.0,3.3,7.52514e-07,-7.52432e-07,1.25,3e-14,0.371394
0.95,0.0,3.3,7.89758e-07,-7.89706e-07,1.25,2e-14,0.40826
1.0,0.0,3.3,8.2253e-07,-8.22481e-07,1.25,0.0,0.446112
1.05,0.0,3.3,8.51749e-07,-8.51676e-07,1.25,4e-14,0.486318
1.1,0.0,3.3,8.76366e-07,-8.76393e-07,1.25,1e-14,0.52814
1.15,0.0,3.3,8.96472e-07,-8.96245e-07,1.25,-3e-14,0.57099
1.2,0.0,3.3,9.12399e-07,-9.12344e-07,1.25,-2e-14,0.615782
1.25,0.0,3.3,9.24427e-07,-9.24326e-07,1.25,-2e-14,0.662124
1.3,0.0,3.3,9.32699e-07,-9.3284e-07,1.25,-2e-14,0.709564
1.35,0.0,3.3,9.3825e-07,-9.38142e-07,1.25,-5e-14,0.757342
1.4,0.0,3.3,9.4173e-07,-9.41653e-07,1.25,0.0,0.80629
1.45,0.0,3.3,9.43732e-07,-9.43624e-07,1.25,-4e-14,0.855858
1.5,0.0,3.3,9.44794e-07,-9.4486e-07,1.25,-5e-14,0.904966
1.55,0.0,3.3,9.45084e-07,-9.44973e-07,1.25,-7e-14,0.955062
1.6,0.0,3.3,9.45337e-07,-9.45437e-07,1.25,-5e-14,1.005182
1.65,0.0,3.3,9.45469e-07,-9.45329e-07,1.25,-2e-14,1.054534
1.7,0.0,3.3,9.45231e-07,-9.45137e-07,1.25,4e-14,1.104724
1.75,0.0,3.3,9.45001e-07,-9.45079e-07,1.25,1.2e-13,1.15493
1.8,0.0,3.3,9.45028e-07,-9.44822e-07,1.25,7e-14,1.205158
1.85,0.0,3.3,9.44665e-07,-9.44652e-07,1.25,6e-14,1.254646
1.9,0.0,3.3,9.44483e-07,-9.44351e-07,1.25,4e-14,1.30485
1.95,0.0,3.3,9.44114e-07,-9.4403e-07,1.25,2e-14,1.355138
2.0,0.0,3.3,9.4378e-07,-9.43842e-07,1.25,6e-14,1.404592
2.05,0.0,3.3,9.43597e-07,-9.43508e-07,1.25,7e-14,1.45483
2.1,0.0,3.3,9.43483e-07,-9.43202e-07,1.25,-5e-14,1.5051
2.15,0.0,3.3,9.43059e-07,-9.43095e-07,1.25,2e-14,1.55461
2.2,0.0,3.3,9.4295e-07,-9.42814e-07,1.25,-1e-13,1.604886
2.25,0.0,3.3,9.42633e-07,-9.42596e-07,1.25,-4e-14,1.655034
2.3,0.0,3.3,9.42237e-07,-9.42337e-07,1.25,-6e-14,1.705388
2.35,0.0,3.3,9.42147e-07,-9.42008e-07,1.25,-8e-14,1.754738
2.4,0.0,3.3,9.41845e-07,-9.41871e-07,1.25,-4e-14,1.804934
2.45,0.0,3.3,9.41459e-07,-9.41436e-07,1.25,-1.3e-13,1.85524
2.5,0.0,3.3,9.41119e-07,-9.41118e-07,1.25,-1.7e-13,1.904786
2.55,0.0,3.3,9.40793e-07,-9.40792e-07,1.25,-1e-14,1.954946
2.6,0.0,3.3,9.4073e-07,-9.40732e-07,1.25,-7e-14,2.005182
2.65,0.0,3.3,9.40485e-07,-9.40475e-07,1.25,-9e-14,2.054628
2.7,0.0,3.3,9.40241e-07,-9.40179e-07,1.25,2e-14,2.104914
2.75,0.0,3.3,9.40001e-07,-9.39978e-07,1.25,-7e-14,2.155012
2.8,0.0,3.3,9.39841e-07,-9.39758e-07,1.25,-4e-14,2.20516
2.85,0.0,3.3,9.39568e-07,-9.39508e-07,1.25,0.0,2.2546
2.9,0.0,3.3,9.39399e-07,-9.39361e-07,1.25,2e-14,2.30488
2.95,0.0,3.3,9.39246e-07,-9.39154e-07,1.25,0.0,2.355
