VIN,VSS,VDD,IDD,ISS,VREF,IIN,VOUT
0.0,0.0,3.3,5.7e-13,3e-14,0.0,2.5e-13,0.043272
0.05,0.0,3.3,1.65e-12,4e-14,0.0,7e-14,0.054676
0.1,0.0,3.3,5.8e-13,6e-14,0.0,1.1e-13,0.059462
0.15,0.0,3.3,-1.58e-12,6e-14,0.0,-2e-13,0.064036
0.2,0.0,3.3,1.2e-13,7e-14,0.0,-2.4e-13,0.068596
0.25,0.0,3.3,8.5e-13,6e-14,0.0,1.6e-13,0.07335
0.3,0.0,3.3,5e-14,6e-14,0.0,1.8e-13,0.078154
0.35,0.0,3.3,4.1e-13,6e-14,0.0,-1.2e-13,0.083176
0.4,0.0,3.3,6.53e-12,2e-14,0.0,-1.2e-13,0.088358
0.45,0.0,3.3,2.678e-11,5e-14,0.0,1.3e-13,0.095542
0.5,0.0,3.3,7.263e-11,8e-14,0.0,2.4e-13,0.10949
0.55,0.0,3.3,1.3219e-10,5e-14,0.0,-1.2e-13,0.137034
0.6,0.0,3.3,1.6482e-10,9e-14,0.0,2e-14,0.177334
0.65,0.0,3.3,1.7425e-10,6e-14,0.0,1.4e-13,0.224136
0.7,0.0,3.3,1.7695e-10,4e-14,0.0,-9e-14,0.27304
0.75,0.0,3.3,1.8014e-10,5e-14,0.0,-6e-14,0.322674
0.8,0.0,3.3,1.7835e-10,5e-14,0.0,6e-14,0.372776
0.85,0.0,3.3,1.7839e-10,8e-14,0.0,1.2e-13,0.422464
0.9,0.0,3.3,1.7702e-10,9e-14,0.0,-6e-14,0.472134
0.95,0.0,3.3,1.7937e-10,5e-14,0.0,-1.3e-13,0.52205
1.0,0.0,3.3,1.7724e-10,6e-14,0.0,9e-14,0.571854
1.05,0.0,3.3,1.7787e-10,3e-14,0.0,1e-14,0.621636
1.1,0.0,3.3,1.7811e-10,1.1e-13,0.0,-1.8e-13,0.671692
1.15,0.0,3.3,1.7715e-10,1.1e-13,0.0,-1e-14,0.72137
1.2,0.0,3.3,1.7829e-10,8e-14,0.0,2.4e-13,0.770884
1.25,0.0,3.3,1.7689e-10,5e-14,0.0,-1.8e-13,0.820908
1.3,0.0,3.3,1.7778e-10,9e-14,0.0,-2e-13,0.87117
1.35,0.0,3.3,1.7498e-10,6e-14,0.0,1.8e-13,0.92133
1.4,0.0,3.3,1.7422e-10,8e-14,0.0,5e-14,0.971352
1.45,0.0,3.3,1.7623e-10,9e-14,0.0,-1e-13,1.020866
1.5,0.0,3.3,1.7543e-10,7e-14,0.0,0.0,1.070652
1.55,0.0,3.3,1.822e-10,7e-14,0.0,1.4e-13,1.12034
1.6,0.0,3.3,1.7664e-10,5e-14,0.0,8e-14,1.170382
1.65,0.0,3.3,1.7549e-10,4e-14,0.0,-1e-14,1.220174
1.7,0.0,3.3,1.7619e-10,7e-14,0.0,8e-14,1.269866
1.75,0.0,3.3,1.7657e-10,4e-14,0.0,-3e-14,1.319754
1.8,0.0,3.3,1.7922e-10,1e-13,0.0,1e-14,1.369702
1.85,0.0,3.3,1.748e-10,6e-14,0.0,7e-14,1.41996
1.9,0.0,3.3,1.7581e-10,7e-14,0.0,7e-14,1.469626
1.95,0.0,3.3,1.8068e-10,8e-14,0.0,-2e-14,1.519694
2.0,0.0,3.3,1.7329e-10,7e-14,0.0,0.0,1.569532
2.05,0.0,3.3,1.7438e-10,7e-14,0.0,1.5e-13,1.61957
2.1,0.0,3.3,1.7542e-10,6e-14,0.0,1.1e-13,1.66918
2.15,0.0,3.3,1.7394e-10,6e-14,0.0,-2.9e-13,1.718912
2.2,0.0,3.3,1.75e-10,7e-14,0.0,2e-14,1.768922
2.25,0.0,3.3,1.7616e-10,9e-14,0.0,3.4e-13,1.818688
2.3,0.0,3.3,1.7556e-10,6e-14,0.0,3e-14,1.86865
2.35,0.0,3.3,1.7356e-10,7e-14,0.0,-2.5e-13,1.918854
2.4,0.0,3.3,1.7613e-10,6e-14,0.0,1.6e-13,1.968056
2.45,0.0,3.3,1.7587e-10,7e-14,0.0,1.4e-13,2.017896
2.5,0.0,3.3,1.7563e-10,6e-14,0.0,-2.4e-13,2.067628
2.55,0.0,3.3,1.7857e-10,8e-14,0.0,5e-14,2.117306
2.6,0.0,3.3,1.7838e-10,6e-14,0.0,1.6e-13,2.167282
2.65,0.0,3.3,1.7292e-10,5e-14,0.0,-4e-14,2.21724
2.7,0.0,3.3,1.7674e-10,7e-14,0.0,-1.7e-13,2.26686
2.75,0.0,3.3,1.7661e-10,7e-14,0.0,1.2e-13,2.31682
2.8,0.0,3.3,1.77e-10,7e-14,0.0,1.4e-13,2.36678
2.85,0.0,3.3,1.7293e-10,9e-14,0.0,-1.9e-13,2.41696
2.9,0.0,3.3,1.7759e-10,5e-14,0.0,0.0,2.46626
2.95,0.0,3.3,1.7681e-10,6e-14,0.0,2.1e-13,2.51616
3.0,0.0,3.3,1.757e-10,8e-14,0.0,-8e-14,2.56604
0.0,0.0,3.3,-3.7e-13,-2.5e-13,0.25,1.3e-13,2.60354
0.05,0.0,3.3,-4.7e-13,-2.3e-13,0.25,-1.2e-13,2.6104
0.1,0.0,3.3,2.9e-13,-2.3e-13,0.25,-1.1e-13,2.6154
0.15,0.0,3.3,5e-13,-2.1e-13,0.25,1e-13,2.62038
0.2,0.0,3.3,-3.6e-13,-2.4e-13,0.25,1e-13,2.62538
0.25,0.0,3.3,-3.2e-13,-2.2e-13,0.25,-1.2e-13,2.63022
0.3,0.0,3.3,4.8e-13,-2.5e-13,0.25,-1e-13,2.63474
0.35,0.0,3.3,2.6e-13,-2.4e-13,0.25,1.1e-13,2.6392
0.4,0.0,3.3,-2.1e-13,-2.1e-13,0.25,1e-13,2.64386
0.45,0.0,3.3,-2.8e-13,-2.3e-13,0.25,-1.7e-13,2.64848
0.5,0.0,3.3,4e-14,-2.1e-13,0.25,1e-14,2.65314
0.55,0.0,3.3,4.3e-13,-2.4e-13,0.25,1.2e-13,2.658
0.6,0.0,3.3,-3.9e-13,-2.2e-13,0.25,6e-14,2.66286
0.65,0.0,3.3,-3e-13,-2.4e-13,0.25,-7e-14,2.66766
0.7,0.0,3.3,8.9e-13,-2.1e-13,0.25,-3e-14,2.67262
0.75,0.0,3.3,2.2e-13,-2.2e-13,0.25,1.3e-13,2.6776
0.8,0.0,3.3,-3e-13,-2.3e-13,0.25,0.0,2.68274
0.85,0.0,3.3,-5e-14,-2.4e-13,0.25,-1.1e-13,2.68778
0.9,0.0,3.3,-1.2e-13,-2.2e-13,0.25,-2e-14,2.69252
0.95,0.0,3.3,4e-13,-2.4e-13,0.25,1.4e-13,2.6971
1.0,0.0,3.3,2.1e-13,-2.1e-13,0.25,4e-14,2.70162
1.05,0.0,3.3,-5.6e-13,-2.1e-13,0.25,-5e-14,2.70594
1.1,0.0,3.3,-1.4e-13,-2e-13,0.25,-5e-14,2.7102
1.15,0.0,3.3,1.18e-12,-2.2e-13,0.25,1e-13,2.71438
1.2,0.0,3.3,-9.6e-13,-2.3e-13,0.25,6e-14,2.71866
1.25,0.0,3.3,5e-14,-2.3e-13,0.25,-1e-13,2.72288
1.3,0.0,3.3,6.3e-13,-2e-13,0.25,2e-14,2.72728
1.35,0.0,3.3,-1.4e-13,-2.2e-13,0.25,8e-14,2.73172
1.4,0.0,3.3,1.2e-13,-2.1e-13,0.25,4e-14,2.73632
1.45,0.0,3.3,5.2e-13,-2.2e-13,0.25,-2e-14,2.74146
1.5,0.0,3.3,2.8e-13,-2.5e-13,0.25,1e-14,2.74618
1.55,0.0,3.3,3.9e-13,-2.1e-13,0.25,7e-14,2.75058
1.6,0.0,3.3,-3e-14,-2e-13,0.25,5e-14,2.75506
1.65,0.0,3.3,-7e-14,-1.9e-13,0.25,-1e-13,2.75944
1.7,0.0,3.3,5.8e-13,-2.3e-13,0.25,-1e-14,2.76408
1.75,0.0,3.3,-5e-13,-1.9e-13,0.25,1.1e-13,2.76862
1.8,0.0,3.3,-1e-13,-2.2e-13,0.25,4e-14,2.77332
1.85,0.0,3.3,2.6e-13,-2.1e-13,0.25,-1e-14,2.77786
1.9,0.0,3.3,5e-14,-2.4e-13,0.25,7e-14,2.7827
1.95,0.0,3.3,-3.7e-13,-2.3e-13,0.25,6e-14,2.7876
2.0,0.0,3.3,9e-14,-2.1e-13,0.25,6e-14,2.79274
2.05,0.0,3.3,-2e-13,-2.1e-13,0.25,-1e-14,2.79772
2.1,0.0,3.3,2.5e-13,-2.2e-13,0.25,4e-14,2.8028
2.15,0.0,3.3,9e-13,-2.2e-13,0.25,5e-14,2.8074
2.2,0.0,3.3,-6.7e-13,-2.3e-13,0.25,5e-14,2.81196
2.25,0.0,3.3,4.6e-13,-2.1e-13,0.25,1e-14,2.81646
2.3,0.0,3.3,6.7e-13,-1.9e-13,0.25,2e-14,2.82112
2.35,0.0,3.3,-2e-13,-2.1e-13,0.25,8e-14,2.82586
2.4,0.0,3.3,-5.7e-13,-2.4e-13,0.25,2e-14,2.83078
2.45,0.0,3.3,6.7e-13,-2e-13,0.25,-2e-14,2.83574
2.5,0.0,3.3,-3e-13,-2.2e-13,0.25,1e-14,2.84042
2.55,0.0,3.3,5.8e-13,-2.1e-13,0.25,3e-14,2.84502
2.6,0.0,3.3,-7.6e-13,-2.1e-13,0.25,2e-14,2.84956
2.65,0.0,3.3,-3.5e-13,-2.4e-13,0.25,-4e-14,2.85408
2.7,0.0,3.3,9.3e-13,-2.2e-13,0.25,0.0,2.85864
2.75,0.0,3.3,-4.4e-13,-2.2e-13,0.25,6e-14,2.86334
2.8,0.0,3.3,-5e-14,-1.9e-13,0.25,0.0,2.86778
2.85,0.0,3.3,5.2e-13,-2.1e-13,0.25,-4e-14,2.87234
2.9,0.0,3.3,-5.5e-13,-2.3e-13,0.25,3e-14,2.87692
2.95,0.0,3.3,-1.8e-13,-2.2e-13,0.25,1e-14,2.88134
3.0,0.0,3.3,-1.2e-13,-2.2e-13,0.25,-3e-14,2.8856
0.0,0.0,3.3,2e-14,-1.00668e-09,0.5,3e-14,2.84676
0.05,0.0,3.3,1.9e-13,-9.7722e-10,0.5,-3e-14,2.47092
0.1,0.0,3.3,-2.5e-13,-9.5687e-10,0.5,-3e-14,2.20702
0.15,0.0,3.3,2.4e-13,-9.3819e-10,0.5,4e-14,1.953476
0.2,0.0,3.3,-3.8e-13,-9.1935e-10,0.5,2e-14,1.70593
0.25,0.0,3.3,5.5e-13,-9.0181e-10,0.5,-1e-14,1.463542
0.3,0.0,3.3,-1.8e-13,-8.8272e-10,0.5,4e-14,1.226226
0.35,0.0,3.3,4.1e-13,-8.6525e-10,0.5,-1e-14,0.993646
0.4,0.0,3.3,-9.4e-13,-8.4569e-10,0.5,1e-14,0.76566
0.45,0.0,3.3,4.2e-13,-8.2337e-10,0.5,0.0,0.542858
0.5,0.0,3.3,6e-13,-7.897e-10,0.5,3e-14,0.326196
0.55,0.0,3.3,4.8798e-10,-7.2442e-10,0.5,6e-14,0.123014
0.6,0.0,3.3,7.5591e-10,-7.7077e-10,0.5,-3e-14,0.12797
0.65,0.0,3.3,7.7346e-10,-7.865e-10,0.5,4e-14,0.176052
0.7,0.0,3.3,7.843e-10,-7.9545e-10,0.5,4e-14,0.225384
0.75,0.0,3.3,8.0035e-10,-8.0097e-10,0.5,-2e-14,0.274998
0.8,0.0,3.3,7.9373e-10,-8.058e-10,0.5,-2e-14,0.324892
0.85,0.0,3.3,8.0012e-10,-8.1025e-10,0.5,1e-14,0.373948
0.9,0.0,3.3,8.0579e-10,-8.1712e-10,0.5,1e-14,0.423808
0.95,0.0,3.3,8.1018e-10,-8.2057e-10,0.5,3e-14,0.473638
1.0,0.0,3.3,8.128e-10,-8.2399e-10,0.5,1e-14,0.522972
1.05,0.0,3.3,8.1501e-10,-8.2804e-10,0.5,7e-14,0.572904
1.1,0.0,3.3,8.2224e-10,-8.3216e-10,0.5,3e-14,0.622702
1.15,0.0,3.3,8.2453e-10,-8.3388e-10,0.5,0.0,0.671922
1.2,0.0,3.3,8.277e-10,-8.3848e-10,0.5,7e-14,0.721682
1.25,0.0,3.3,8.329e-10,-8.4236e-10,0.5,1e-14,0.771684
1.3,0.0,3.3,8.3592e-10,-8.438e-10,0.5,0.0,0.821546
1.35,0.0,3.3,8.3593e-10,-8.4699e-10,0.5,-2e-14,0.870968
1.4,0.0,3.3,8.4321e-10,-8.5762e-10,0.5,1e-14,0.920768
1.45,0.0,3.3,8.4495e-10,-8.5386e-10,0.5,1e-14,0.970704
1.5,0.0,3.3,8.4844e-10,-8.5558e-10,0.5,8e-14,1.019864
1.55,0.0,3.3,8.4722e-10,-8.6013e-10,0.5,2e-14,1.06991
1.6,0.0,3.3,8.5282e-10,-8.6102e-10,0.5,2e-14,1.119766
1.65,0.0,3.3,8.5506e-10,-8.6642e-10,0.5,5e-14,1.169076
1.7,0.0,3.3,8.6085e-10,-8.7035e-10,0.5,2e-14,1.218956
1.75,0.0,3.3,8.5899e-10,-8.7169e-10,0.5,0.0,1.268904
1.8,0.0,3.3,8.6215e-10,-8.756e-10,0.5,3e-14,1.318886
1.85,0.0,3.3,8.6676e-10,-8.7886e-10,0.5,-2e-14,1.368084
1.9,0.0,3.3,8.7238e-10,-8.8254e-10,0.5,4e-14,1.417976
1.95,0.0,3.3,8.7349e-10,-8.8492e-10,0.5,5e-14,1.467778
2.0,0.0,3.3,8.7756e-10,-8.8878e-10,0.5,4e-14,1.517006
2.05,0.0,3.3,8.7823e-10,-8.9038e-10,0.5,0.0,1.567028
2.1,0.0,3.3,8.8232e-10,-8.934e-10,0.5,1e-14,1.616946
2.15,0.0,3.3,8.8467e-10,-8.9554e-10,0.5,-1e-14,1.666222
2.2,0.0,3.3,8.8502e-10,-8.9934e-10,0.5,2e-14,1.71625
2.25,0.0,3.3,8.8763e-10,-9.0066e-10,0.5,1e-14,1.766124
2.3,0.0,3.3,8.9267e-10,-9.0655e-10,0.5,-1e-14,1.816096
2.35,0.0,3.3,8.933e-10,-9.0882e-10,0.5,1e-14,1.865226
2.4,0.0,3.3,8.9724e-10,-9.0912e-10,0.5,2e-14,1.91512
2.45,0.0,3.3,8.9943e-10,-9.1281e-10,0.5,2e-14,1.965122
2.5,0.0,3.3,9.0157e-10,-9.1482e-10,0.5,3e-14,2.014492
2.55,0.0,3.3,9.0364e-10,-9.1701e-10,0.5,0.0,2.064334
2.6,0.0,3.3,9.0542e-10,-9.1928e-10,0.5,1e-14,2.114448
2.65,0.0,3.3,9.0888e-10,-9.2205e-10,0.5,0.0,2.163654
2.7,0.0,3.3,9.1213e-10,-9.2795e-10,0.5,3e-14,2.21352
2.75,0.0,3.3,9.1643e-10,-9.293e-10,0.5,1e-14,2.2632
2.8,0.0,3.3,9.198e-10,-9.3284e-10,0.5,1e-14,2.31328
2.85,0.0,3.3,9.2092e-10,-9.3363e-10,0.5,4e-14,2.36242
2.9,0.0,3.3,9.2466e-10,-9.3757e-10,0.5,0.0,2.41242
2.95,0.0,3.3,9.2205e-10,-9.3823e-10,0.5,0.0,2.46232
3.0,0.0,3.3,9.2862e-10,-9.4082e-10,0.5,-1e-14,2.51156
0.0,0.0,3.3,0.0,-1.963e-11,0.75,4e-14,0.936114
0.05,0.0,3.3,-1.3e-13,-1.712e-11,0.75,-3e-14,7.2e-05
0.1,0.0,3.3,-1.02e-12,-1.94e-11,0.75,-8e-14,6.8e-05
0.15,0.0,3.3,-5.4e-13,-1.929e-11,0.75,1e-14,6.4e-05
0.2,0.0,3.3,3e-14,-1.797e-11,0.75,9e-14,6.2e-05
0.25,0.0,3.3,8.9e-13,-1.489e-11,0.75,-3e-14,0.000116
0.3,0.0,3.3,3.89e-12,-2.114e-11,0.75,-2e-14,0.000422
0.35,0.0,3.3,2.154e-11,-4.039e-11,0.75,-9e-14,0.000146
0.4,0.0,3.3,1.1199e-10,-1.3092e-10,0.75,1e-14,0.000468
0.45,0.0,3.3,4.8045e-10,-4.9891e-10,0.75,-4e-14,0.001838
0.5,0.0,3.3,1.4838e-09,-1.49836e-09,0.75,7e-14,0.006178
0.55,0.0,3.3,3.49582e-09,-3.51881e-09,0.75,-1e-14,0.01291
0.6,0.0,3.3,6.60061e-09,-6.60647e-09,0.75,-1e-14,0.025152
0.65,0.0,3.3,1.047246e-08,-1.04865e-08,0.75,9e-14,0.042006
0.7,0.0,3.3,1.49188e-08,-1.49187e-08,0.75,2e-14,0.065096
0.75,0.0,3.3,1.94079e-08,-1.94271e-08,0.75,1e-14,0.090846
0.8,0.0,3.3,2.35734e-08,-2.35838e-08,0.75,3e-14,0.122534
0.85,0.0,3.3,2.69285e-08,-2.69514e-08,0.75,4e-14,0.158286
0.9,0.0,3.3,2.94025e-08,-2.9428e-08,0.75,-1e-14,0.199362
0.95,0.0,3.3,3.09084e-08,-3.0942e-08,0.75,2e-14,0.243968
1.0,0.0,3.3,3.17088e-08,-3.17206e-08,0.75,1e-14,0.290312
1.05,0.0,3.3,3.21711e-08,-3.21948e-08,0.75,3e-14,0.338824
1.1,0.0,3.3,3.24608e-08,-3.24703e-08,0.75,5e-14,0.387696
1.15,0.0,3.3,3.26918e-08,-3.27111e-08,0.75,-4e-14,0.43626
1.2,0.0,3.3,3.28858e-08,-3.28967e-08,0.75,3e-14,0.48546
1.25,0.0,3.3,3.30853e-08,-3.31215e-08,0.75,-2e-14,0.534884
1.3,0.0,3.3,3.32588e-08,-3.33018e-08,0.75,-3e-14,0.584366
1.35,0.0,3.3,3.33903e-08,-3.34249e-08,0.75,-1e-14,0.63312
1.4,0.0,3.3,3.35295e-08,-3.35623e-08,0.75,-2e-14,0.682798
1.45,0.0,3.3,3.36682e-08,-3.36608e-08,0.75,2e-14,0.732252
1.5,0.0,3.3,3.37624e-08,-3.38146e-08,0.75,1e-14,0.781204
1.55,0.0,3.3,3.39217e-08,-3.39368e-08,0.75,-6e-14,0.830742
1.6,0.0,3.3,3.40097e-08,-3.40362e-08,0.75,1e-14,0.88027
1.65,0.0,3.3,3.41075e-08,-3.41289e-08,0.75,2e-14,0.929336
1.7,0.0,3.3,3.42152e-08,-3.42315e-08,0.75,2e-14,0.978996
1.75,0.0,3.3,3.43369e-08,-3.4303e-08,0.75,4e-14,1.028774
1.8,0.0,3.3,3.437e-08,-3.43653e-08,0.75,3e-14,1.078534
1.85,0.0,3.3,3.44407e-08,-3.4476e-08,0.75,0.0,1.127542
1.9,0.0,3.3,3.45461e-08,-3.45481e-08,0.75,-4e-14,1.177304
1.95,0.0,3.3,3.46276e-08,-3.46365e-08,0.75,-2e-14,1.226896
2.0,0.0,3.3,3.47061e-08,-3.4759e-08,0.75,8e-14,1.275942
2.05,0.0,3.3,3.47887e-08,-3.48041e-08,0.75,-3e-14,1.32557
2.1,0.0,3.3,3.48656e-08,-3.49004e-08,0.75,2e-14,1.375274
2.15,0.0,3.3,3.49569e-08,-3.49884e-08,0.75,1e-14,1.424404
2.2,0.0,3.3,3.50596e-08,-3.50379e-08,0.75,2e-14,1.474058
2.25,0.0,3.3,3.50936e-08,-3.51037e-08,0.75,9e-14,1.523814
2.3,0.0,3.3,3.51812e-08,-3.52171e-08,0.75,-1e-14,1.573606
2.35,0.0,3.3,3.52534e-08,-3.52896e-08,0.75,-6e-14,1.622418
2.4,0.0,3.3,3.53167e-08,-3.53466e-08,0.75,2e-14,1.672326
2.45,0.0,3.3,3.54009e-08,-3.54e-08,0.75,-9e-14,1.722062
2.5,0.0,3.3,3.54928e-08,-3.55021e-08,0.75,-5e-14,1.77096
2.55,0.0,3.3,3.5552e-08,-3.55583e-08,0.75,5e-14,1.820702
2.6,0.0,3.3,3.56438e-08,-3.56629e-08,0.75,8e-14,1.870404
2.65,0.0,3.3,3.5687e-08,-3.56929e-08,0.75,4e-14,1.919388
2.7,0.0,3.3,3.57107e-08,-3.5744e-08,0.75,0.0,1.969264
2.75,0.0,3.3,3.58075e-08,-3.58443e-08,0.75,-6e-14,2.018786
2.8,0.0,3.3,3.59026e-08,-3.59317e-08,0.75,-4e-14,2.068626
2.85,0.0,3.3,3.59784e-08,-3.59685e-08,0.75,1e-14,2.117524
2.9,0.0,3.3,3.60072e-08,-3.60045e-08,0.75,4e-14,2.16718
2.95,0.0,3.3,3.60437e-08,-3.60783e-08,0.75,1e-13,2.21698
3.0,0.0,3.3,3.61255e-08,-3.61337e-08,0.75,1e-14,2.26596
0.0,0.0,3.3,-1.7e-13,-1.891e-11,1.0,-2e-14,3.2e-05
0.05,0.0,3.3,-6e-14,-2.031e-11,1.0,-1e-14,1e-05
0.1,0.0,3.3,-2.9e-13,-1.984e-11,1.0,-2e-14,1.2e-05
0.15,0.0,3.3,2.2e-13,-1.936e-11,1.0,0.0,3.2e-05
0.2,0.0,3.3,9.4e-13,-1.887e-11,1.0,9e-14,1.4e-05
0.25,0.0,3.3,1.8e-13,-1.992e-11,1.0,4e-14,1.2e-05
0.3,0.0,3.3,2.44e-12,-2.241e-11,1.0,-3.2e-13,1.4e-05
0.35,0.0,3.3,2.466e-11,-3.916e-11,1.0,6.8e-13,5.8e-05
0.4,0.0,3.3,1.0692e-10,-1.2909e-10,1.0,6.5e-13,0.000154
0.45,0.0,3.3,4.8561e-10,-5.0143e-10,1.0,-7.3e-13,0.000622
0.5,0.0,3.3,1.56476e-09,-1.58272e-09,1.0,-5.5e-13,0.00212
0.55,0.0,3.3,3.96099e-09,-3.97099e-09,1.0,-7.5e-13,0.005082
0.6,0.0,3.3,8.08069e-09,-8.09258e-09,1.0,4.8e-13,0.010476
0.65,0.0,3.3,1.39806e-08,-1.4019e-08,1.0,8e-13,0.018386
0.7,0.0,3.3,2.18325e-08,-2.18559e-08,1.0,-1e-14,0.029082
0.75,0.0,3.3,3.13391e-08,-3.13864e-08,1.0,-3.1e-13,0.042608
0.8,0.0,3.3,4.21635e-08,-4.22007e-08,1.0,7.4e-13,0.058824
0.85,0.0,3.3,5.38901e-08,-5.38984e-08,1.0,-4.8e-13,0.077388
0.9,0.0,3.3,6.64822e-08,-6.653e-08,1.0,1.7e-13,0.09885
0.95,0.0,3.3,7.94413e-08,-7.94249e-08,1.0,1.2e-13,0.122876
1.0,0.0,3.3,9.21919e-08,-9.2168e-08,1.0,-3.6e-13,0.149012
1.05,0.0,3.3,1.04723e-07,-1.047356e-07,1.0,5.6e-13,0.177994
1.1,0.0,3.3,1.16544e-07,-1.16591e-07,1.0,2.3e-13,0.209526
1.15,0.0,3.3,1.27261e-07,-1.27274e-07,1.0,-5.5e-13,0.2431
1.2,0.0,3.3,1.36857e-07,-1.36841e-07,1.0,4.2e-13,0.279768
1.25,0.0,3.3,1.44848e-07,-1.44803e-07,1.0,-2.8e-13,0.318922
1.3,0.0,3.3,1.51035e-07,-1.51094e-07,1.0,2e-14,0.360892
1.35,0.0,3.3,1.55586e-07,-1.55705e-07,1.0,3.9e-13,0.404248
1.4,0.0,3.3,1.58733e-07,-1.58749e-07,1.0,-4.7e-13,0.450242
1.45,0.0,3.3,1.60948e-07,-1.60842e-07,1.0,4.3e-13,0.497516
1.5,0.0,3.3,1.62352e-07,-1.62348e-07,1.0,-9e-14,0.54509
1.55,0.0,3.3,1.63517e-07,-1.63546e-07,1.0,-9e-14,0.593644
1.6,0.0,3.3,1.64427e-07,-1.64436e-07,1.0,4e-13,0.642322
1.65,0.0,3.3,1.65254e-07,-1.65158e-07,1.0,-4.7e-13,0.6907
1.7,0.0,3.3,1.65901e-07,-1.65913e-07,1.0,3.2e-13,0.73983
1.75,0.0,3.3,1.6655e-07,-1.66507e-07,1.0,-7e-14,0.788986
1.8,0.0,3.3,1.67083e-07,-1.67169e-07,1.0,-1.4e-13,0.838214
1.85,0.0,3.3,1.6762e-07,-1.67652e-07,1.0,4.1e-13,0.886774
1.9,0.0,3.3,1.68031e-07,-1.6817e-07,1.0,-3.6e-13,0.936178
1.95,0.0,3.3,1.68592e-07,-1.686e-07,1.0,1.5e-13,0.985402
2.0,0.0,3.3,1.68955e-07,-1.69048e-07,1.0,1.1e-13,1.034196
2.05,0.0,3.3,1.69472e-07,-1.69411e-07,1.0,-2.5e-13,1.083546
2.1,0.0,3.3,1.69793e-07,-1.69809e-07,1.0,2.8e-13,1.133202
2.15,0.0,3.3,1.70234e-07,-1.70333e-07,1.0,-2.6e-13,1.181742
2.2,0.0,3.3,1.7056e-07,-1.70568e-07,1.0,1.2e-13,1.231334
2.25,0.0,3.3,1.70888e-07,-1.70897e-07,1.0,2.3e-13,1.28084
2.3,0.0,3.3,1.71246e-07,-1.71409e-07,1.0,-2e-13,1.330234
2.35,0.0,3.3,1.71631e-07,-1.71719e-07,1.0,3e-13,1.378804
2.4,0.0,3.3,1.71976e-07,-1.71998e-07,1.0,-1.8e-13,1.428436
2.45,0.0,3.3,1.72311e-07,-1.72374e-07,1.0,1e-14,1.477854
2.5,0.0,3.3,1.72535e-07,-1.72609e-07,1.0,2.6e-13,1.526606
2.55,0.0,3.3,1.72862e-07,-1.72871e-07,1.0,-2.1e-13,1.576164
2.6,0.0,3.3,1.73108e-07,-1.732e-07,1.0,2.2e-13,1.625816
2.65,0.0,3.3,1.7349e-07,-1.73586e-07,1.0,-2e-14,1.674474
2.7,0.0,3.3,1.7376e-07,-1.73763e-07,1.0,-6e-14,1.72401
2.75,0.0,3.3,1.74039e-07,-1.74065e-07,1.0,2.3e-13,1.773506
2.8,0.0,3.3,1.74272e-07,-1.74298e-07,1.0,-1.9e-13,1.8232
2.85,0.0,3.3,1.74486e-07,-1.74543e-07,1.0,2.2e-13,1.871808
2.9,0.0,3.3,1.74747e-07,-1.74784e-07,1.0,3e-14,1.921572
2.95,0.0,3.3,1.75114e-07,-1.75095e-07,1.0,-9e-14,1.970962
3.0,0.0,3.3,1.75354e-07,-1.75307e-07,1.0,2.3e-13,2.019836
0.0,0.0,3.3,-4.5e-13,-1.954e-11,1.25,-4e-14,-6e-06
0.05,0.0,3.3,-2e-14,-1.834e-11,1.25,1.6e-13,-1.2e-05
0.1,0.0,3.3,-4.9e-13,-1.88e-11,1.25,2.1e-13,-6e-06
0.15,0.0,3.3,-8.4e-13,-1.929e-11,1.25,-2e-14,-4e-06
0.2,0.0,3.3,-2.4e-13,-1.985e-11,1.25,-1.8e-13,-8e-06
0.25,0.0,3.3,1.35e-12,-1.971e-11,1.25,2e-14,-8e-06
0.3,0.0,3.3,4.07e-12,-2.318e-11,1.25,1.7e-13,-4e-06
0.35,0.0,3.3,2.009e-11,-3.975e-11,1.25,1e-14,8e-06
0.4,0.0,3.3,1.1144e-10,-1.3058e-10,1.25,-1.3e-13,6.8e-05
0.45,0.0,3.3,4.8453e-10,-5.0181e-10,1.25,7e-14,0.000334
0.5,0.0,3.3,1.59192e-09,-1.60524e-09,1.25,2e-14,0.001112
0.55,0.0,3.3,4.09417e-09,-4.11374e-09,1.25,1.2e-13,0.002854
0.6,0.0,3.3,8.58273e-09,-8.58022e-09,1.25,-3e-14,0.006
0.65,0.0,3.3,1.52347e-08,-1.52523e-08,1.25,-7e-14,0.01078
0.7,0.0,3.3,2.45155e-08,-2.45372e-08,1.25,-8e-14,0.017402
0.75,0.0,3.3,3.62566e-08,-3.62727e-08,1.25,9e-14,0.025956
0.8,0.0,3.3,5.03734e-08,-5.03753e-08,1.25,4e-14,0.03645
0.85,0.0,3.3,6.63694e-08,-6.64032e-08,1.25,2e-14,0.048626
0.9,0.0,3.3,8.4553e-08,-8.45364e-08,1.25,8e-14,0.062838
0.95,0.0,3.3,1.043914e-07,-1.044464e-07,1.25,-1.1e-13,0.078888
1.0,0.0,3.3,1.25267e-07,-1.25285e-07,1.25,-4e-14,0.09645
1.05,0.0,3.3,1.47645e-07,-1.47672e-07,1.25,5e-14,0.116092
1.1,0.0,3.3,1.7077e-07,-1.70704e-07,1.25,3e-14,0.137276
1.15,0.0,3.3,1.94051e-07,-1.94009e-07,1.25,-1e-14,0.159842
1.2,0.0,3.3,2.17868e-07,-2.17911e-07,1.25,1.6e-13,0.184428
1.25,0.0,3.3,2.41802e-07,-2.41765e-07,1.25,-6e-14,0.210736
1.3,0.0,3.3,2.65347e-07,-2.65358e-07,1.25,5e-14,0.23871
1.35,0.0,3.3,2.87966e-07,-2.87926e-07,1.25,4e-14,0.267948
1.4,0.0,3.3,3.09927e-07,-3.0989e-07,1.25,-5e-14,0.299168
1.45,0.0,3.3,3.30786e-07,-3.30779e-07,1.25,1.3e-13,0.33224
1.5,0.0,3.3,3.49864e-07,-3.49918e-07,1.25,-8e-14,0.366346
1.55,0.0,3.3,3.67833e-07,-3.67743e-07,1.25,5e-14,0.402846
1.6,0.0,3.3,3.83519e-07,-3.83513e-07,1.25,9e-14,0.440992
1.65,0.0,3.3,3.97011e-07,-3.9699e-07,1.25,-9e-14,0.480428
1.7,0.0,3.3,4.08677e-07,-4.08507e-07,1.25,1.2e-13,0.522154
1.75,0.0,3.3,4.18053e-07,-4.18019e-07,1.25,3e-14,0.565672
1.8,0.0,3.3,4.25137e-07,-4.25042e-07,1.25,-3e-14,0.610488
1.85,0.0,3.3,4.30436e-07,-4.30565e-07,1.25,1.3e-13,0.656042
1.9,0.0,3.3,4.34615e-07,-4.34524e-07,1.25,-1e-14,0.702938
1.95,0.0,3.3,4.37601e-07,-4.37552e-07,1.25,1e-13,0.750902
2.0,0.0,3.3,4.40145e-07,-4.40357e-07,1.25,5e-14,0.798252
2.05,0.0,3.3,4.42247e-07,-4.42292e-07,1.25,-6e-14,0.846728
2.1,0.0,3.3,4.44056e-07,-4.44105e-07,1.25,9e-14,0.895354
2.15,0.0,3.3,4.45551e-07,-4.45686e-07,1.25,-4e-14,0.94352
2.2,0.0,3.3,4.47276e-07,-4.47278e-07,1.25,2e-14,0.992062
2.25,0.0,3.3,4.48383e-07,-4.48387e-07,1.25,6e-14,1.041256
2.3,0.0,3.3,4.49742e-07,-4.49608e-07,1.25,-2e-14,1.090264
2.35,0.0,3.3,4.50589e-07,-4.50864e-07,1.25,1e-13,1.138554
2.4,0.0,3.3,4.5185e-07,-4.51907e-07,1.25,0.0,1.18752
2.45,0.0,3.3,4.52615e-07,-4.52688e-07,1.25,1e-14,1.23683
2.5,0.0,3.3,4.53624e-07,-4.53529e-07,1.25,7e-14,1.28543
2.55,0.0,3.3,4.54594e-07,-4.547e-07,1.25,-2e-14,1.334624
2.6,0.0,3.3,4.55685e-07,-4.55582e-07,1.25,5e-14,1.383626
2.65,0.0,3.3,4.56305e-07,-4.56444e-07,1.25,1e-14,1.432276
2.7,0.0,3.3,4.57308e-07,-4.57271e-07,1.25,0.0,1.481508
2.75,0.0,3.3,4.58106e-07,-4.57885e-07,1.25,5e-14,1.530778
2.8,0.0,3.3,4.58825e-07,-4.58775e-07,1.25,-6e-14,1.580168
2.85,0.0,3.3,4.59657e-07,-4.5936e-07,1.25,0.0,1.62856
2.9,0.0,3.3,4.60145e-07,-4.60108e-07,1.25,1e-14,1.678102
2.95,0.0,3.3,4.60756e-07,-4.60847e-07,1.25,4e-14,1.727394
3.0,0.0,3.3,4.61401e-07,-4.61556e-07,1.25,1e-14,1.775824
0.0,0.0,3.3,3.7e-13,-1.982e-11,1.5,0.0,-8e-06
0.05,0.0,3.3,-2.6e-13,-2.014e-11,1.5,-4e-14,-8e-06
0.1,0.0,3.3,1.1e-13,-1.992e-11,1.5,1e-14,-1e-05
0.15,0.0,3.3,6e-14,-1.949e-11,1.5,0.0,-8e-06
0.2,0.0,3.3,6.3e-13,-1.973e-11,1.5,1e-14,-6e-06
0.25,0.0,3.3,3.3e-13,-1.947e-11,1.5,5e-14,-8e-06
0.3,0.0,3.3,4.25e-12,-2.217e-11,1.5,7e-14,-8e-06
