VIN,VSS,VDD,IDD,ISS,VREF,VOUT,@TIME
2.0,0.0,3.3,7.565e-11,-6.76384e-07,0.5,1.995166,0.0
2.0,0.0,3.3,7.427e-11,-6.75187e-07,0.5,1.995802,1.0
2.0,0.0,3.3,7.475e-11,-6.74293e-07,0.5,1.995802,2.0
2.0,0.0,3.3,7.48e-11,-6.73612e-07,0.5,1.995806,3.0
2.0,0.0,3.3,7.382e-11,-6.72994e-07,0.5,1.995812,4.0
2.0,0.0,3.3,7.487e-11,-6.72511e-07,0.5,1.995814,5.0
2.0,0.0,3.3,7.405e-11,-6.71875e-07,0.5,1.995818,6.0
2.0,0.0,3.3,7.479e-11,-6.71491e-07,0.5,1.99582,7.0
2.0,0.0,3.3,7.455e-11,-6.71082e-07,0.5,1.995826,8.0
2.0,0.0,3.3,7.498e-11,-6.70652e-07,0.5,1.995828,9.0
2.0,0.0,3.3,7.579e-11,-6.70275e-07,0.5,1.99583,10.0
2.0,0.0,3.3,7.425e-11,-6.69833e-07,0.5,1.995832,11.0
2.0,0.0,3.3,7.471e-11,-6.69511e-07,0.5,1.995836,12.0
2.0,0.0,3.3,7.439e-11,-6.69169e-07,0.5,1.995834,13.0
2.0,0.0,3.3,7.447e-11,-6.68761e-07,0.5,1.995836,14.0
2.0,0.0,3.3,7.446e-11,-6.68456e-07,0.5,1.995842,15.0
2.0,0.0,3.3,7.346e-11,-6.68047e-07,0.5,1.995844,16.0
2.0,0.0,3.3,7.442e-11,-6.67768e-07,0.5,1.995848,17.0
2.0,0.0,3.3,7.463e-11,-6.67354e-07,0.5,1.995848,18.0
2.0,0.0,3.3,7.473e-11,-6.67107e-07,0.5,1.995852,19.0
2.0,0.0,3.3,7.469e-11,-6.66841e-07,0.5,1.99585,20.0
2.0,0.0,3.3,7.391e-11,-6.66528e-07,0.5,1.995856,21.0
2.0,0.0,3.3,7.432e-11,-6.66147e-07,0.5,1.995856,22.0
2.0,0.0,3.3,7.514e-11,-6.65876e-07,0.5,1.99586,23.0
2.0,0.0,3.3,7.549e-11,-6.65641e-07,0.5,1.995864,24.0
2.0,0.0,3.3,7.403e-11,-6.65405e-07,0.5,1.995862,25.0
2.0,0.0,3.3,7.5e-11,-6.65124e-07,0.5,1.995868,26.0
2.0,0.0,3.3,7.448e-11,-6.64847e-07,0.5,1.995866,27.0
2.0,0.0,3.3,7.391e-11,-6.64629e-07,0.5,1.995864,28.0
2.0,0.0,3.3,7.456e-11,-6.64428e-07,0.5,1.995866,29.0
2.0,0.0,3.3,7.551e-11,-6.6419e-07,0.5,1.995876,30.0
2.0,0.0,3.3,7.607e-11,-6.63858e-07,0.5,1.995876,31.0
2.0,0.0,3.3,7.556e-11,-6.63583e-07,0.5,1.99588,32.0
2.0,0.0,3.3,7.594e-11,-6.63369e-07,0.5,1.995878,33.0
2.0,0.0,3.3,7.602e-11,-6.63109e-07,0.5,1.995882,34.0
2.0,0.0,3.3,7.509e-11,-6.62927e-07,0.5,1.99588,35.0
2.0,0.0,3.3,7.642e-11,-6.62667e-07,0.5,1.995884,36.0
2.0,0.0,3.3,7.581e-11,-6.62473e-07,0.5,1.995886,37.0
2.0,0.0,3.3,7.604e-11,-6.62206e-07,0.5,1.99589,38.0
2.0,0.0,3.3,7.661e-11,-6.61974e-07,0.5,1.995892,39.0
2.0,0.0,3.3,7.683e-11,-6.61781e-07,0.5,1.995892,40.0
2.0,0.0,3.3,7.524e-11,-6.61543e-07,0.5,1.995888,41.0
2.0,0.0,3.3,7.684e-11,-6.61269e-07,0.5,1.995896,42.0
2.0,0.0,3.3,7.73e-11,-6.61159e-07,0.5,1.995894,43.0
2.0,0.0,3.3,7.748e-11,-6.60972e-07,0.5,1.995898,44.0
2.0,0.0,3.3,7.625e-11,-6.60693e-07,0.5,1.9959,45.0
2.0,0.0,3.3,7.703e-11,-6.60516e-07,0.5,1.995902,46.0
2.0,0.0,3.3,7.67e-11,-6.60329e-07,0.5,1.995904,47.0
2.0,0.0,3.3,7.744e-11,-6.60089e-07,0.5,1.995906,48.0
2.0,0.0,3.3,7.629e-11,-6.59807e-07,0.5,1.995906,49.0
2.0,0.0,3.3,7.562e-11,-6.59636e-07,0.5,1.995904,50.0
2.0,0.0,3.3,7.62e-11,-6.59429e-07,0.5,1.995912,51.0
2.0,0.0,3.3,7.637e-11,-6.59195e-07,0.5,1.995914,52.0
2.0,0.0,3.3,7.486e-11,-6.59006e-07,0.5,1.995912,53.0
2.0,0.0,3.3,7.395e-11,-6.58817e-07,0.5,1.995918,54.0
2.0,0.0,3.3,7.642e-11,-6.58558e-07,0.5,1.99592,55.0
2.0,0.0,3.3,7.551e-11,-6.58361e-07,0.5,1.995916,56.0
2.0,0.0,3.3,7.644e-11,-6.58197e-07,0.5,1.995918,57.0
2.0,0.0,3.3,7.714e-11,-6.57966e-07,0.5,1.995918,58.0
2.0,0.0,3.3,7.698e-11,-6.57807e-07,0.5,1.99592,59.0
2.0,0.0,3.3,7.736e-11,-6.57582e-07,0.5,1.995928,60.0
2.0,0.0,3.3,7.754e-11,-6.57384e-07,0.5,1.99593,61.0
2.0,0.0,3.3,7.762e-11,-6.57174e-07,0.5,1.995928,62.0
2.0,0.0,3.3,7.801e-11,-6.56979e-07,0.5,1.995928,63.0
2.0,0.0,3.3,7.832e-11,-6.56858e-07,0.5,1.995932,64.0
2.0,0.0,3.3,7.76e-11,-6.56594e-07,0.5,1.995932,65.0
2.0,0.0,3.3,7.749e-11,-6.56363e-07,0.5,1.995932,66.0
2.0,0.0,3.3,7.689e-11,-6.56262e-07,0.5,1.995938,67.0
2.0,0.0,3.3,7.757e-11,-6.5604e-07,0.5,1.995938,68.0
2.0,0.0,3.3,7.844e-11,-6.5582e-07,0.5,1.995934,69.0
2.0,0.0,3.3,7.893e-11,-6.55697e-07,0.5,1.995938,70.0
2.0,0.0,3.3,7.9e-11,-6.55476e-07,0.5,1.995938,71.0
2.0,0.0,3.3,7.902e-11,-6.55259e-07,0.5,1.99594,72.0
2.0,0.0,3.3,7.84e-11,-6.55092e-07,0.5,1.995944,73.0
2.0,0.0,3.3,7.987e-11,-6.54852e-07,0.5,1.995942,74.0
2.0,0.0,3.3,7.903e-11,-6.54708e-07,0.5,1.995946,75.0
2.0,0.0,3.3,7.927e-11,-6.54517e-07,0.5,1.995946,76.0
2.0,0.0,3.3,7.937e-11,-6.54363e-07,0.5,1.995944,77.0
2.0,0.0,3.3,7.836e-11,-6.54204e-07,0.5,1.995942,78.0
2.0,0.0,3.3,7.996e-11,-6.54006e-07,0.5,1.995946,79.0
2.0,0.0,3.3,8.009e-11,-6.53886e-07,0.5,1.99595,80.0
2.0,0.0,3.3,7.877e-11,-6.5368e-07,0.5,1.99595,81.0
2.0,0.0,3.3,7.958e-11,-6.53541e-07,0.5,1.995952,82.0
2.0,0.0,3.3,8.055e-11,-6.53384e-07,0.5,1.99596,83.0
2.0,0.0,3.3,7.998e-11,-6.53132e-07,0.5,1.995956,84.0
2.0,0.0,3.3,7.975e-11,-6.53036e-07,0.5,1.995956,85.0
2.0,0.0,3.3,7.884e-11,-6.52905e-07,0.5,1.995962,86.0
2.0,0.0,3.3,7.924e-11,-6.52675e-07,0.5,1.995962,87.0
2.0,0.0,3.3,7.825e-11,-6.52551e-07,0.5,1.995958,88.0
2.0,0.0,3.3,7.989e-11,-6.52315e-07,0.5,1.995962,89.0
2.0,0.0,3.3,8.089e-11,-6.52211e-07,0.5,1.995964,90.0
2.0,0.0,3.3,7.964e-11,-6.52089e-07,0.5,1.995964,91.0
2.0,0.0,3.3,8.125e-11,-6.5193e-07,0.5,1.995964,92.0
2.0,0.0,3.3,8.01e-11,-6.51699e-07,0.5,1.995964,93.0
2.0,0.0,3.3,8.08e-11,-6.51557e-07,0.5,1.99597,94.0
2.0,0.0,3.3,8.081e-11,-6.51398e-07,0.5,1.995972,95.0
2.0,0.0,3.3,7.969e-11,-6.51133e-07,0.5,1.995976,96.0
2.0,0.0,3.3,7.9e-11,-6.51093e-07,0.5,1.99598,97.0
2.0,0.0,3.3,7.934e-11,-6.50924e-07,0.5,1.995978,98.0
2.0,0.0,3.3,7.991e-11,-6.50691e-07,0.5,1.99598,99.0
2.0,0.0,3.3,8.034e-11,-6.50559e-07,0.5,1.995978,100.0
2.0,0.0,3.3,7.997e-11,-6.50394e-07,0.5,1.995984,101.0
2.0,0.0,3.3,7.934e-11,-6.50238e-07,0.5,1.99598,102.0
2.0,0.0,3.3,7.936e-11,-6.50126e-07,0.5,1.995982,103.0
2.0,0.0,3.3,8.098e-11,-6.49942e-07,0.5,1.995986,104.0
2.0,0.0,3.3,7.985e-11,-6.49801e-07,0.5,1.995988,105.0
2.0,0.0,3.3,8.093e-11,-6.49655e-07,0.5,1.995988,106.0
2.0,0.0,3.3,8.05e-11,-6.49453e-07,0.5,1.995984,107.0
2.0,0.0,3.3,8.249e-11,-6.4934e-07,0.5,1.995988,108.0
2.0,0.0,3.3,8.075e-11,-6.49167e-07,0.5,1.995984,109.0
2.0,0.0,3.3,8.048e-11,-6.49034e-07,0.5,1.995988,110.0
2.0,0.0,3.3,8.161e-11,-6.48923e-07,0.5,1.99599,111.0
2.0,0.0,3.3,8.009e-11,-6.48769e-07,0.5,1.995994,112.0
2.0,0.0,3.3,8.088e-11,-6.48584e-07,0.5,1.995996,113.0
2.0,0.0,3.3,8.126e-11,-6.48471e-07,0.5,1.995994,114.0
2.0,0.0,3.3,8.044e-11,-6.48395e-07,0.5,1.995992,115.0
2.0,0.0,3.3,8.172e-11,-6.48159e-07,0.5,1.99599,116.0
2.0,0.0,3.3,8.161e-11,-6.48025e-07,0.5,1.995992,117.0
2.0,0.0,3.3,8.185e-11,-6.47848e-07,0.5,1.995996,118.0
2.0,0.0,3.3,8.088e-11,-6.47769e-07,0.5,1.995996,119.0
2.0,0.0,3.3,8.184e-11,-6.47589e-07,0.5,1.996002,120.0
2.0,0.0,3.3,8.322e-11,-6.47392e-07,0.5,1.996002,121.0
2.0,0.0,3.3,8.236e-11,-6.47169e-07,0.5,1.996002,122.0
2.0,0.0,3.3,8.317e-11,-6.47075e-07,0.5,1.996,123.0
2.0,0.0,3.3,8.078e-11,-6.46906e-07,0.5,1.996002,124.0
2.0,0.0,3.3,8.25e-11,-6.46852e-07,0.5,1.996006,125.0
2.0,0.0,3.3,8.168e-11,-6.46779e-07,0.5,1.996004,126.0
2.0,0.0,3.3,8.177e-11,-6.46534e-07,0.5,1.996006,127.0
2.0,0.0,3.3,8.362e-11,-6.46349e-07,0.5,1.99601,128.0
2.0,0.0,3.3,8.258e-11,-6.46149e-07,0.5,1.996008,129.0
2.0,0.0,3.3,8.386e-11,-6.46104e-07,0.5,1.996006,130.0
2.0,0.0,3.3,8.352e-11,-6.46015e-07,0.5,1.996004,131.0
2.0,0.0,3.3,8.336e-11,-6.45778e-07,0.5,1.996006,132.0
2.0,0.0,3.3,8.296e-11,-6.45656e-07,0.5,1.996008,133.0
2.0,0.0,3.3,8.304e-11,-6.45553e-07,0.5,1.99601,134.0
2.0,0.0,3.3,8.314e-11,-6.45394e-07,0.5,1.996012,135.0
2.0,0.0,3.3,8.336e-11,-6.45251e-07,0.5,1.996012,136.0
2.0,0.0,3.3,8.344e-11,-6.44984e-07,0.5,1.996014,137.0
2.0,0.0,3.3,8.264e-11,-6.44891e-07,0.5,1.996008,138.0
2.0,0.0,3.3,8.323e-11,-6.44707e-07,0.5,1.996018,139.0
2.0,0.0,3.3,8.395e-11,-6.44659e-07,0.5,1.996018,140.0
2.0,0.0,3.3,8.286e-11,-6.44446e-07,0.5,1.996016,141.0
2.0,0.0,3.3,8.431e-11,-6.44301e-07,0.5,1.996016,142.0
2.0,0.0,3.3,8.436e-11,-6.44184e-07,0.5,1.996018,143.0
2.0,0.0,3.3,8.435e-11,-6.44067e-07,0.5,1.996024,144.0
2.0,0.0,3.3,8.538e-11,-6.43859e-07,0.5,1.996024,145.0
2.0,0.0,3.3,8.494e-11,-6.43727e-07,0.5,1.996024,146.0
2.0,0.0,3.3,8.426e-11,-6.43581e-07,0.5,1.996024,147.0
2.0,0.0,3.3,8.468e-11,-6.43438e-07,0.5,1.996026,148.0
2.0,0.0,3.3,8.585e-11,-6.43286e-07,0.5,1.996028,149.0
2.0,0.0,3.3,8.708e-11,-6.43134e-07,0.5,1.996022,150.0
2.0,0.0,3.3,8.557e-11,-6.43022e-07,0.5,1.996024,151.0
2.0,0.0,3.3,8.528e-11,-6.4285e-07,0.5,1.996024,152.0
2.0,0.0,3.3,8.554e-11,-6.42699e-07,0.5,1.996028,153.0
2.0,0.0,3.3,8.631e-11,-6.42603e-07,0.5,1.996028,154.0
2.0,0.0,3.3,8.684e-11,-6.42458e-07,0.5,1.996028,155.0
2.0,0.0,3.3,8.62e-11,-6.42349e-07,0.5,1.996028,156.0
2.0,0.0,3.3,8.612e-11,-6.42159e-07,0.5,1.996028,157.0
2.0,0.0,3.3,8.53e-11,-6.42057e-07,0.5,1.996028,158.0
2.0,0.0,3.3,8.614e-11,-6.41915e-07,0.5,1.996034,159.0
2.0,0.0,3.3,8.584e-11,-6.41722e-07,0.5,1.996036,160.0
2.0,0.0,3.3,8.585e-11,-6.41612e-07,0.5,1.996034,161.0
2.0,0.0,3.3,8.477e-11,-6.41416e-07,0.5,1.99603,162.0
2.0,0.0,3.3,8.632e-11,-6.41272e-07,0.5,1.99604,163.0
2.0,0.0,3.3,8.625e-11,-6.41117e-07,0.5,1.996038,164.0
2.0,0.0,3.3,8.642e-11,-6.40994e-07,0.5,1.996038,165.0
2.0,0.0,3.3,8.644e-11,-6.4091e-07,0.5,1.996036,166.0
2.0,0.0,3.3,8.558e-11,-6.40835e-07,0.5,1.996038,167.0
2.0,0.0,3.3,8.631e-11,-6.40665e-07,0.5,1.996038,168.0
2.0,0.0,3.3,8.664e-11,-6.40501e-07,0.5,1.996042,169.0
2.0,0.0,3.3,8.645e-11,-6.40427e-07,0.5,1.996036,170.0
2.0,0.0,3.3,8.6e-11,-6.40282e-07,0.5,1.99604,171.0
2.0,0.0,3.3,8.646e-11,-6.40138e-07,0.5,1.996038,172.0
2.0,0.0,3.3,8.666e-11,-6.4e-07,0.5,1.996044,173.0
2.0,0.0,3.3,8.714e-11,-6.39849e-07,0.5,1.996042,174.0
2.0,0.0,3.3,8.707e-11,-6.39732e-07,0.5,1.996044,175.0
2.0,0.0,3.3,8.748e-11,-6.39574e-07,0.5,1.996044,176.0
2.0,0.0,3.3,8.712e-11,-6.39412e-07,0.5,1.996044,177.0
2.0,0.0,3.3,8.612e-11,-6.39332e-07,0.5,1.996044,178.0
2.0,0.0,3.3,8.666e-11,-6.3917e-07,0.5,1.996046,179.0
2.0,0.0,3.3,8.695e-11,-6.39142e-07,0.5,1.99605,180.0
2.0,0.0,3.3,8.682e-11,-6.38972e-07,0.5,1.99605,181.0
2.0,0.0,3.3,8.722e-11,-6.38828e-07,0.5,1.996054,182.0
2.0,0.0,3.3,8.74e-11,-6.38672e-07,0.5,1.996054,183.0
2.0,0.0,3.3,8.762e-11,-6.38552e-07,0.5,1.996054,184.0
2.0,0.0,3.3,8.728e-11,-6.38471e-07,0.5,1.996052,185.0
2.0,0.0,3.3,8.699e-11,-6.38307e-07,0.5,1.996056,186.0
2.0,0.0,3.3,8.727e-11,-6.38152e-07,0.5,1.99606,187.0
2.0,0.0,3.3,8.787e-11,-6.38055e-07,0.5,1.996056,188.0
2.0,0.0,3.3,8.824e-11,-6.37832e-07,0.5,1.99606,189.0
2.0,0.0,3.3,8.836e-11,-6.37852e-07,0.5,1.996066,190.0
2.0,0.0,3.3,8.713e-11,-6.37667e-07,0.5,1.996062,191.0
2.0,0.0,3.3,8.778e-11,-6.37533e-07,0.5,1.996062,192.0
2.0,0.0,3.3,8.755e-11,-6.37364e-07,0.5,1.99606,193.0
2.0,0.0,3.3,8.767e-11,-6.37277e-07,0.5,1.99606,194.0
2.0,0.0,3.3,8.815e-11,-6.37062e-07,0.5,1.996068,195.0
2.0,0.0,3.3,8.865e-11,-6.36968e-07,0.5,1.996064,196.0
2.0,0.0,3.3,8.727e-11,-6.36763e-07,0.5,1.996068,197.0
2.0,0.0,3.3,8.808e-11,-6.36646e-07,0.5,1.996068,198.0
2.0,0.0,3.3,8.903e-11,-6.3656e-07,0.5,1.996068,199.0
2.0,0.0,3.3,8.983e-11,-6.36424e-07,0.5,1.996078,200.0
2.0,0.0,3.3,8.929e-11,-6.36299e-07,0.5,1.99607,201.0
2.0,0.0,3.3,9.06e-11,-6.36219e-07,0.5,1.996072,202.0
2.0,0.0,3.3,8.962e-11,-6.36011e-07,0.5,1.996074,203.0
2.0,0.0,3.3,8.897e-11,-6.35895e-07,0.5,1.996076,204.0
2.0,0.0,3.3,9.006e-11,-6.35798e-07,0.5,1.996072,205.0
2.0,0.0,3.3,8.951e-11,-6.35607e-07,0.5,1.996078,206.0
2.0,0.0,3.3,8.975e-11,-6.35457e-07,0.5,1.996078,207.0
2.0,0.0,3.3,8.887e-11,-6.35324e-07,0.5,1.996082,208.0
2.0,0.0,3.3,8.899e-11,-6.35244e-07,0.5,1.996078,209.0
2.0,0.0,3.3,8.91e-11,-6.35075e-07,0.5,1.996078,210.0
2.0,0.0,3.3,8.989e-11,-6.34945e-07,0.5,1.996078,211.0
2.0,0.0,3.3,8.949e-11,-6.34883e-07,0.5,1.996082,212.0
2.0,0.0,3.3,8.972e-11,-6.34735e-07,0.5,1.996082,213.0
2.0,0.0,3.3,8.794e-11,-6.34561e-07,0.5,1.996082,214.0
2.0,0.0,3.3,8.739e-11,-6.34395e-07,0.5,1.996088,215.0
2.0,0.0,3.3,8.871e-11,-6.34334e-07,0.5,1.996086,216.0
2.0,0.0,3.3,8.886e-11,-6.34221e-07,0.5,1.996088,217.0
2.0,0.0,3.3,8.903e-11,-6.3413e-07,0.5,1.996084,218.0
2.0,0.0,3.3,8.871e-11,-6.33941e-07,0.5,1.99609,219.0
2.0,0.0,3.3,8.883e-11,-6.33867e-07,0.5,1.996092,220.0
2.0,0.0,3.3,8.802e-11,-6.33736e-07,0.5,1.996094,221.0
2.0,0.0,3.3,8.872e-11,-6.33697e-07,0.5,1.996092,222.0
2.0,0.0,3.3,8.913e-11,-6.33538e-07,0.5,1.996092,223.0
2.0,0.0,3.3,8.937e-11,-6.33412e-07,0.5,1.996096,224.0
2.0,0.0,3.3,8.922e-11,-6.33325e-07,0.5,1.996096,225.0
2.0,0.0,3.3,8.726e-11,-6.33236e-07,0.5,1.996096,226.0
2.0,0.0,3.3,8.969e-11,-6.32999e-07,0.5,1.9961,227.0
2.0,0.0,3.3,8.807e-11,-6.3288e-07,0.5,1.9961,228.0
2.0,0.0,3.3,8.817e-11,-6.32714e-07,0.5,1.9961,229.0
2.0,0.0,3.3,8.947e-11,-6.32636e-07,0.5,1.9961,230.0
2.0,0.0,3.3,8.972e-11,-6.32519e-07,0.5,1.996104,231.0
2.0,0.0,3.3,9.02e-11,-6.32446e-07,0.5,1.996102,232.0
2.0,0.0,3.3,8.931e-11,-6.32287e-07,0.5,1.996104,233.0
2.0,0.0,3.3,8.935e-11,-6.32238e-07,0.5,1.996108,234.0
2.0,0.0,3.3,8.867e-11,-6.32035e-07,0.5,1.996114,235.0
2.0,0.0,3.3,8.866e-11,-6.31909e-07,0.5,1.996114,236.0
2.0,0.0,3.3,8.889e-11,-6.31824e-07,0.5,1.996112,237.0
2.0,0.0,3.3,8.931e-11,-6.31729e-07,0.5,1.99611,238.0
2.0,0.0,3.3,8.967e-11,-6.31533e-07,0.5,1.99611,239.0
2.0,0.0,3.3,8.81e-11,-6.31448e-07,0.5,1.99611,240.0
2.0,0.0,3.3,8.908e-11,-6.31317e-07,0.5,1.996114,241.0
2.0,0.0,3.3,8.949e-11,-6.31253e-07,0.5,1.996114,242.0
2.0,0.0,3.3,8.86e-11,-6.31013e-07,0.5,1.996118,243.0
2.0,0.0,3.3,9.013e-11,-6.30966e-07,0.5,1.996118,244.0
2.0,0.0,3.3,9.007e-11,-6.30809e-07,0.5,1.996118,245.0
2.0,0.0,3.3,8.934e-11,-6.30729e-07,0.5,1.99612,246.0
2.0,0.0,3.3,8.9e-11,-6.30684e-07,0.5,1.996118,247.0
2.0,0.0,3.3,8.886e-11,-6.30528e-07,0.5,1.99612,248.0
2.0,0.0,3.3,8.98e-11,-6.30369e-07,0.5,1.99612,249.0
2.0,0.0,3.3,8.932e-11,-6.30298e-07,0.5,1.99612,250.0
2.0,0.0,3.3,8.915e-11,-6.3018e-07,0.5,1.996124,251.0
2.0,0.0,3.3,8.968e-11,-6.3007e-07,0.5,1.996122,252.0
2.0,0.0,3.3,8.798e-11,-6.29986e-07,0.5,1.996126,253.0
2.0,0.0,3.3,8.983e-11,-6.29849e-07,0.5,1.996124,254.0
2.0,0.0,3.3,9.027e-11,-6.29777e-07,0.5,1.996128,255.0
2.0,0.0,3.3,8.924e-11,-6.29649e-07,0.5,1.996128,256.0
2.0,0.0,3.3,8.944e-11,-6.29536e-07,0.5,1.99613,257.0
2.0,0.0,3.3,9.04e-11,-6.29378e-07,0.5,1.996128,258.0
2.0,0.0,3.3,9.102e-11,-6.29193e-07,0.5,1.996132,259.0
2.0,0.0,3.3,9.083e-11,-6.29107e-07,0.5,1.996132,260.0
2.0,0.0,3.3,9.123e-11,-6.29043e-07,0.5,1.996134,261.0
2.0,0.0,3.3,9.049e-11,-6.2889e-07,0.5,1.996134,262.0
2.0,0.0,3.3,9.033e-11,-6.2876e-07,0.5,1.996138,263.0
2.0,0.0,3.3,9.054e-11,-6.28624e-07,0.5,1.996138,264.0
2.0,0.0,3.3,9.065e-11,-6.28511e-07,0.5,1.99614,265.0
2.0,0.0,3.3,9.101e-11,-6.28442e-07,0.5,1.996136,266.0
2.0,0.0,3.3,9.125e-11,-6.28255e-07,0.5,1.996142,267.0
2.0,0.0,3.3,8.975e-11,-6.28192e-07,0.5,1.996138,268.0
2.0,0.0,3.3,9.14e-11,-6.28037e-07,0.5,1.99614,269.0
2.0,0.0,3.3,9.126e-11,-6.27932e-07,0.5,1.99614,270.0
2.0,0.0,3.3,9.07e-11,-6.27736e-07,0.5,1.996142,271.0
2.0,0.0,3.3,9.063e-11,-6.27669e-07,0.5,1.996144,272.0
2.0,0.0,3.3,9.127e-11,-6.27495e-07,0.5,1.996148,273.0
2.0,0.0,3.3,9.274e-11,-6.27409e-07,0.5,1.996148,274.0
2.0,0.0,3.3,9.092e-11,-6.27331e-07,0.5,1.996148,275.0
2.0,0.0,3.3,9.199e-11,-6.27179e-07,0.5,1.99615,276.0
2.0,0.0,3.3,9.152e-11,-6.27128e-07,0.5,1.99615,277.0
2.0,0.0,3.3,9.239e-11,-6.26978e-07,0.5,1.996154,278.0
2.0,0.0,3.3,9.282e-11,-6.26889e-07,0.5,1.99615,279.0
2.0,0.0,3.3,9.221e-11,-6.26756e-07,0.5,1.996154,280.0
2.0,0.0,3.3,9.256e-11,-6.26625e-07,0.5,1.996156,281.0
2.0,0.0,3.3,9.185e-11,-6.26557e-07,0.5,1.996162,282.0
2.0,0.0,3.3,9.181e-11,-6.26438e-07,0.5,1.99616,283.0
2.0,0.0,3.3,9.208e-11,-6.26259e-07,0.5,1.996156,284.0
2.0,0.0,3.3,9.275e-11,-6.26223e-07,0.5,1.996158,285.0
2.0,0.0,3.3,9.21e-11,-6.26105e-07,0.5,1.99616,286.0
2.0,0.0,3.3,9.298e-11,-6.2599e-07,0.5,1.996162,287.0
2.0,0.0,3.3,9.267e-11,-6.25906e-07,0.5,1.996162,288.0
2.0,0.0,3.3,9.279e-11,-6.25805e-07,0.5,1.996164,289.0
2.0,0.0,3.3,9.281e-11,-6.25736e-07,0.5,1.996164,290.0
2.0,0.0,3.3,9.239e-11,-6.25581e-07,0.5,1.99617,291.0
2.0,0.0,3.3,9.306e-11,-6.25489e-07,0.5,1.996166,292.0
2.0,0.0,3.3,9.271e-11,-6.25411e-07,0.5,1.996168,293.0
2.0,0.0,3.3,9.343e-11,-6.2525e-07,0.5,1.996164,294.0
2.0,0.0,3.3,9.43e-11,-6.25087e-07,0.5,1.996168,295.0
2.0,0.0,3.3,9.439e-11,-6.25031e-07,0.5,1.99617,296.0
2.0,0.0,3.3,9.273e-11,-6.24866e-07,0.5,1.996174,297.0
2.0,0.0,3.3,9.286e-11,-6.24787e-07,0.5,1.996176,298.0
2.0,0.0,3.3,9.241e-11,-6.247e-07,0.5,1.996178,299.0
2.0,0.0,3.3,9.183e-11,-6.24521e-07,0.5,1.99618,300.0
2.0,0.0,3.3,9.154e-11,-6.24473e-07,0.5,1.996178,301.0
2.0,0.0,3.3,9.26e-11,-6.24219e-07,0.5,1.996178,302.0
2.0,0.0,3.3,9.267e-11,-6.24244e-07,0.5,1.996176,303.0
2.0,0.0,3.3,9.28e-11,-6.2409e-07,0.5,1.99618,304.0
2.0,0.0,3.3,9.392e-11,-6.24008e-07,0.5,1.996182,305.0
2.0,0.0,3.3,9.254e-11,-6.23855e-07,0.5,1.99618,306.0
2.0,0.0,3.3,9.264e-11,-6.23764e-07,0.5,1.99618,307.0
2.0,0.0,3.3,9.468e-11,-6.23554e-07,0.5,1.996184,308.0
2.0,0.0,3.3,9.419e-11,-6.23524e-07,0.5,1.996182,309.0
2.0,0.0,3.3,9.447e-11,-6.23347e-07,0.5,1.996186,310.0
2.0,0.0,3.3,9.599e-11,-6.2329e-07,0.5,1.996184,311.0
2.0,0.0,3.3,9.521e-11,-6.23175e-07,0.5,1.996188,312.0
2.0,0.0,3.3,9.45e-11,-6.23122e-07,0.5,1.996192,313.0
2.0,0.0,3.3,9.589e-11,-6.23015e-07,0.5,1.996188,314.0
2.0,0.0,3.3,9.474e-11,-6.22874e-07,0.5,1.99619,315.0
2.0,0.0,3.3,9.453e-11,-6.22747e-07,0.5,1.99619,316.0
2.0,0.0,3.3,9.619e-11,-6.22697e-07,0.5,1.99619,317.0
2.0,0.0,3.3,9.532e-11,-6.22509e-07,0.5,1.996192,318.0
2.0,0.0,3.3,9.685e-11,-6.22444e-07,0.5,1.99619,319.0
2.0,0.0,3.3,9.64e-11,-6.22351e-07,0.5,1.996194,320.0
2.0,0.0,3.3,9.689e-11,-6.22262e-07,0.5,1.99619,321.0
2.0,0.0,3.3,9.54e-11,-6.22148e-07,0.5,1.996196,322.0
2.0,0.0,3.3,9.669e-11,-6.22068e-07,0.5,1.996198,323.0
2.0,0.0,3.3,9.724e-11,-6.21882e-07,0.5,1.996196,324.0
2.0,0.0,3.3,9.718e-11,-6.21842e-07,0.5,1.996198,325.0
2.0,0.0,3.3,9.606e-11,-6.21754e-07,0.5,1.996196,326.0
2.0,0.0,3.3,9.738e-11,-6.21605e-07,0.5,1.996196,327.0
2.0,0.0,3.3,9.879e-11,-6.21465e-07,0.5,1.996202,328.0
2.0,0.0,3.3,9.632e-11,-6.21331e-07,0.5,1.996198,329.0
2.0,0.0,3.3,9.634e-11,-6.21261e-07,0.5,1.996202,330.0
2.0,0.0,3.3,9.779e-11,-6.21127e-07,0.5,1.996202,331.0
2.0,0.0,3.3,9.715e-11,-6.20949e-07,0.5,1.996196,332.0
2.0,0.0,3.3,9.811e-11,-6.20872e-07,0.5,1.996198,333.0
2.0,0.0,3.3,9.723e-11,-6.20783e-07,0.5,1.996198,334.0
2.0,0.0,3.3,9.707e-11,-6.20734e-07,0.5,1.996194,335.0
2.0,0.0,3.3,9.715e-11,-6.20646e-07,0.5,1.996196,336.0
2.0,0.0,3.3,9.683e-11,-6.20514e-07,0.5,1.996202,337.0
2.0,0.0,3.3,9.768e-11,-6.2039e-07,0.5,1.996204,338.0
2.0,0.0,3.3,9.657e-11,-6.20236e-07,0.5,1.996206,339.0
2.0,0.0,3.3,9.669e-11,-6.20187e-07,0.5,1.996208,340.0
2.0,0.0,3.3,9.78e-11,-6.20013e-07,0.5,1.99621,341.0
2.0,0.0,3.3,9.642e-11,-6.19978e-07,0.5,1.99621,342.0
2.0,0.0,3.3,9.692e-11,-6.19891e-07,0.5,1.99621,343.0
2.0,0.0,3.3,9.704e-11,-6.19722e-07,0.5,1.99621,344.0
2.0,0.0,3.3,9.822e-11,-6.19556e-07,0.5,1.996212,345.0
2.0,0.0,3.3,9.867e-11,-6.19521e-07,0.5,1.99621,346.0
2.0,0.0,3.3,9.878e-11,-6.19414e-07,0.5,1.996216,347.0
2.0,0.0,3.3,9.709e-11,-6.19324e-07,0.5,1.996216,348.0
2.0,0.0,3.3,9.819e-11,-6.19185e-07,0.5,1.996218,349.0
2.0,0.0,3.3,9.783e-11,-6.19124e-07,0.5,1.996216,350.0
2.0,0.0,3.3,9.701e-11,-6.19027e-07,0.5,1.996216,351.0
2.0,0.0,3.3,9.755e-11,-6.18973e-07,0.5,1.996216,352.0
2.0,0.0,3.3,9.842e-11,-6.18833e-07,0.5,1.996216,353.0
2.0,0.0,3.3,9.796e-11,-6.18713e-07,0.5,1.996212,354.0
2.0,0.0,3.3,9.928e-11,-6.18567e-07,0.5,1.996214,355.0
2.0,0.0,3.3,9.637e-11,-6.18438e-07,0.5,1.996222,356.0
2.0,0.0,3.3,9.923e-11,-6.18357e-07,0.5,1.996218,357.0
2.0,0.0,3.3,9.999e-11,-6.18248e-07,0.5,1.996228,358.0
2.0,0.0,3.3,9.952e-11,-6.18111e-07,0.5,1.996228,359.0
2.0,0.0,3.3,9.946e-11,-6.18009e-07,0.5,1.996226,360.0
2.0,0.0,3.3,9.765e-11,-6.17892e-07,0.5,1.996228,361.0
2.0,0.0,3.3,1.0033e-10,-6.17842e-07,0.5,1.996228,362.0
2.0,0.0,3.3,9.804e-11,-6.17718e-07,0.5,1.99623,363.0
2.0,0.0,3.3,9.834e-11,-6.17681e-07,0.5,1.996228,364.0
2.0,0.0,3.3,9.931e-11,-6.17494e-07,0.5,1.996232,365.0
2.0,0.0,3.3,9.97e-11,-6.17381e-07,0.5,1.996236,366.0
2.0,0.0,3.3,9.969e-11,-6.17306e-07,0.5,1.996236,367.0
2.0,0.0,3.3,1.0007e-10,-6.17212e-07,0.5,1.996234,368.0
2.0,0.0,3.3,9.856e-11,-6.17149e-07,0.5,1.996234,369.0
2.0,0.0,3.3,9.918e-11,-6.17061e-07,0.5,1.996234,370.0
2.0,0.0,3.3,9.902e-11,-6.16944e-07,0.5,1.996236,371.0
2.0,0.0,3.3,9.947e-11,-6.168e-07,0.5,1.996236,372.0
2.0,0.0,3.3,1.0096e-10,-6.16743e-07,0.5,1.996238,373.0
