
SetupTitle, I/V List Sweep - Step Marking (ISRC)_PGMVG=-4V
PrimitiveTest, I/V List Sweep
TestParameter, Channel.UnitType, SMU, SMU, SMU, SMU
TestParameter, Channel.Unit, SMU1:HR, SMU4:HR, SMU3:HR, SMU2:HR
TestParameter, Channel.IName, IG_PGM, ID_PGM, ID_READ, IS_READ
TestParameter, Channel.VName, VG_PGM, VD_PGM, VD_READ, VS_READ
TestParameter, Channel.Mode, V, V, V, COMMON
TestParameter, Channel.Func, VAR1, VAR1, CONST, CONST
TestParameter, Channel.Index, index
TestParameter, Channel.Time, time
TestParameter, Measurement.Port.Unit, SMU1:HR, SMU4:HR, SMU3:HR, SMU2:HR
TestParameter, Measurement.Port.SeriesResistor, NONE, NONE, NONE, NONE
TestParameter, Measurement.Port.Filter, ON, ON, ON, ON
TestParameter, Measurement.Port.OutputVoltageComparison, 0, 0, 0, 0
TestParameter, Measurement.Primary.Sources
TestParameter, Measurement.Primary.Compliance, 0.1, 0.1
TestParameter, Measurement.Primary.PowerCompliance, 0, 0
TestParameter, Measurement.Aborting.Condition, CONTINUE AT ANY
TestParameter, Measurement.PostOutput.Retention, OFF
TestParameter, Measurement.Bias.Source, 2, 1.5, 0.1, 0
TestParameter, Measurement.Bias.Compliance, 0.1, 0.1, 0.1, 0.1
TestParameter, Measurement.Pulse.Period, 
TestParameter, Measurement.Pulse.MeasurementDelay, 0
TestParameter, Measurement.Pulse.AveragingCount, 1
TestParameter, Measurement.Monitor.Unit, SMU4:HR, SMU1:HR, SMU3:HR, SMU2:HR
TestParameter, Measurement.Monitor.Adc, HR ADC, HR ADC, HR ADC, HR ADC
TestParameter, Measurement.Monitor.Measurement, Compliance Side, Compliance Side, Compliance Side, Compliance Side
TestParameter, Measurement.Monitor.RangingMode, LIMITED, LIMITED, LIMITED, LIMITED
TestParameter, Measurement.Monitor.RangeBoundary, 1nA, 1nA, 1nA, 1nA
TestParameter, Measurement.Monitor.RangeRating, BY FULL RANGE, BY FULL RANGE, BY FULL RANGE, BY FULL RANGE
TestParameter, Measurement.Monitor.RangeRatingCoeff, 50, 50, 50, 50
TestParameter, Measurement.Timing.Hold, 0
TestParameter, Measurement.Timing.Delay
TestParameter, Measurement.Adc.HighSpeed.Mode, PLC
TestParameter, Measurement.Adc.HighSpeed.Coeff, 10
TestParameter, Measurement.Adc.HighResolution.AutoZero, OFF
TestParameter, Measurement.Adc.HighResolution.Mode, PLC
TestParameter, Measurement.Adc.HighResolution.Coeff, 10
TestParameter, Measurement.WaitTime.Source.Coeff, 1
TestParameter, Measurement.WaitTime.Source.Offset, 0
TestParameter, Measurement.WaitTime.Monitor.Coeff, 1
TestParameter, Measurement.WaitTime.Monitor.Offset, 0
TestParameter, Output.Graph.Enabled, true
TestParameter, Output.Graph.AutoScaling, false
TestParameter, Output.Graph.XAxis.Data, time
TestParameter, Output.Graph.XAxis.Scale, Linear
TestParameter, Output.Graph.XAxis.Left, 0
TestParameter, Output.Graph.XAxis.Right, 500
TestParameter, Output.Graph.XAxis.RunTimeAutoScale, true
TestParameter, Output.Graph.YAxis.Data, ID_READ, ID_READ
TestParameter, Output.Graph.YAxis.Scale, Log, Linear
TestParameter, Output.Graph.YAxis.Bottom, 0, 0
TestParameter, Output.Graph.YAxis.Top, 0.1, 0.1
TestParameter, Output.Graph.YAxis.Group, , 
TestParameter, Output.Graph.YAxis.RunTimeAutoScale, false, true
TestParameter, Output.List.Data, VD_PGM, VG_PGM, VD_READ, VS_READ, time, ID_PGM, IG_PGM, ID_READ, IS_READ
TestParameter, AutoAnalysis.Interpolation, false
TestParameter, AutoAnalysis.Var2StepCount, 1
TestParameter, AutoAnalysis.Var2StepScript, 
TestParameter, AutoAnalysis.Line1.Enabled, false
TestParameter, AutoAnalysis.Line1.Type, 1
TestParameter, AutoAnalysis.Line1.Fix, True
TestParameter, AutoAnalysis.Line1.YAxis, 0
TestParameter, AutoAnalysis.Line1.Point1.Type, 0
TestParameter, AutoAnalysis.Line1.Point1.XY.X, 
TestParameter, AutoAnalysis.Line1.Point1.XY.Y, 
TestParameter, AutoAnalysis.Line1.Point1.Data.Var, 
TestParameter, AutoAnalysis.Line1.Point1.Data.Condition, 
TestParameter, AutoAnalysis.Line1.Point1.Data.Start, false
TestParameter, AutoAnalysis.Line1.Point1.Data.StartVar, 
TestParameter, AutoAnalysis.Line1.Point1.Data.StartCondition, 
TestParameter, AutoAnalysis.Line1.Point2.Type, 0
TestParameter, AutoAnalysis.Line1.Point2.XY.X, 
TestParameter, AutoAnalysis.Line1.Point2.XY.Y, 
TestParameter, AutoAnalysis.Line1.Point2.Data.Var, 
TestParameter, AutoAnalysis.Line1.Point2.Data.Condition, 
TestParameter, AutoAnalysis.Line1.Point2.Data.Start, false
TestParameter, AutoAnalysis.Line1.Point2.Data.StartVar, 
TestParameter, AutoAnalysis.Line1.Point2.Data.StartCondition, 
TestParameter, AutoAnalysis.Line1.GradientExpr, 0
TestParameter, AutoAnalysis.Line2.Enabled, false
TestParameter, AutoAnalysis.Line2.Type, 1
TestParameter, AutoAnalysis.Line2.Fix, True
TestParameter, AutoAnalysis.Line2.YAxis, 0
TestParameter, AutoAnalysis.Line2.Point1.Type, 0
TestParameter, AutoAnalysis.Line2.Point1.XY.X, 
TestParameter, AutoAnalysis.Line2.Point1.XY.Y, 
TestParameter, AutoAnalysis.Line2.Point1.Data.Var, 
TestParameter, AutoAnalysis.Line2.Point1.Data.Condition, 
TestParameter, AutoAnalysis.Line2.Point1.Data.Start, false
TestParameter, AutoAnalysis.Line2.Point1.Data.StartVar, 
TestParameter, AutoAnalysis.Line2.Point1.Data.StartCondition, 
TestParameter, AutoAnalysis.Line2.Point2.Type, 0
TestParameter, AutoAnalysis.Line2.Point2.XY.X, 
TestParameter, AutoAnalysis.Line2.Point2.XY.Y, 
TestParameter, AutoAnalysis.Line2.Point2.Data.Var, 
TestParameter, AutoAnalysis.Line2.Point2.Data.Condition, 
TestParameter, AutoAnalysis.Line2.Point2.Data.Start, false
TestParameter, AutoAnalysis.Line2.Point2.Data.StartVar, 
TestParameter, AutoAnalysis.Line2.Point2.Data.StartCondition, 
TestParameter, AutoAnalysis.Line2.GradientExpr, 0
TestParameter, AutoAnalysis.Marker.Enabled, false
TestParameter, AutoAnalysis.Marker.Data.Var, 
TestParameter, AutoAnalysis.Marker.Data.Condition, 
TestParameter, AutoAnalysis.Marker.Data.Start, false
TestParameter, AutoAnalysis.Marker.Data.StartVar, 
TestParameter, AutoAnalysis.Marker.Data.StartCondition, 
MetaData, TestRecord.EntryPoint, true
MetaData, TestRecord.RecordTime, 11/11/2025 15:15:57
MetaData, TestRecord.TestTarget, 
MetaData, TestRecord.IterationIndex, 2
MetaData, TestRecord.Preservation, true
MetaData, TestRecord.Flag, 
MetaData, TestRecord.Remarks, 
MetaData, TestRecord.LinkKey, 365a27d0-7a67-4ea4-9201-fe206093714a
MetaData, TestRecord.Parameters, 
Dimension1, 200, 200, 200, 200, 200, 200, 200, 200, 200
Dimension2, 1, 1, 1, 1, 1, 1, 1, 1, 1
DataName, VG_PGM, VD_PGM, VD_READ, VS_READ, time, ID_PGM, IG_PGM, ID_READ, IS_READ
DataValue, 2, 1.5, 0.1, 0, 0.09424, 4.1060000000000005E-12, 1.205E-12, 1.54076E-06, -1.69E-13
DataValue, 2, 1.5, 0.1, 0, 1.1244, 1.2880000000000002E-12, 6.4200000000000009E-13, 1.5372800000000002E-06, -9.5000000000000012E-14
DataValue, 2, 1.5, 0.1, 0, 2.0359000000000003, 8.7500000000000011E-13, 4.71E-13, 1.5349700000000002E-06, -8.3000000000000012E-14
DataValue, 2, 1.5, 0.1, 0, 2.9476000000000004, 6.9900000000000005E-13, 3.77E-13, 1.53305E-06, -5.8E-14
DataValue, 2, 1.5, 0.1, 0, 3.8593200000000003, 5.7400000000000008E-13, 2.9900000000000004E-13, 1.5312800000000001E-06, -5.8E-14
DataValue, -4, 1.5, 0.1, 0, 4.7752700000000008, 1.2880000000000002E-12, -4.3000000000000007E-12, 1.4302100000000002E-06, 4.4900000000000006E-13
DataValue, -4, 1.5, 0.1, 0, 5.68702, 4.73E-13, -2.4040000000000003E-12, 1.4191700000000001E-06, 3.3300000000000005E-13
DataValue, -4, 1.5, 0.1, 0, 6.59876, 4.11E-13, -1.854E-12, 1.41013E-06, 2.73E-13
DataValue, -4, 1.5, 0.1, 0, 7.51022, 3.6100000000000003E-13, -1.5410000000000002E-12, 1.4020700000000001E-06, 2.6E-13
DataValue, -4, 1.5, 0.1, 0, 8.4220700000000015, 3.54E-13, -1.358E-12, 1.39452E-06, 2.58E-13
DataValue, -4, 0, 0.1, 0, 9.3369100000000014, -1.9030000000000003E-12, -1.176E-12, 1.3873200000000002E-06, 2.37E-13
DataValue, -4, 0, 0.1, 0, 10.24854, -5.85E-13, -1.118E-12, 1.38045E-06, 2.2700000000000002E-13
DataValue, -4, 0, 0.1, 0, 11.159960000000002, -3.3600000000000003E-13, -1.04E-12, 1.3738900000000002E-06, 2.3900000000000004E-13
DataValue, -4, 0, 0.1, 0, 12.07178, -1.93E-13, -9.75E-13, 1.3675800000000001E-06, 2.0300000000000002E-13
DataValue, -4, 0, 0.1, 0, 12.983530000000002, -1.42E-13, -9.28E-13, 1.36151E-06, 2.0200000000000002E-13
DataValue, -4, 0, 0.1, 0, 13.89535, -6.9000000000000009E-14, -9.0300000000000009E-13, 1.3556600000000002E-06, 1.89E-13
DataValue, -4, 0, 0.1, 0, 14.806930000000001, -1.6E-14, -8.8800000000000005E-13, 1.3499900000000001E-06, 1.7900000000000002E-13
DataValue, -4, 0, 0.1, 0, 15.71855, 8E-15, -8.24E-13, 1.3444700000000002E-06, 1.83E-13
DataValue, -4, 0, 0.1, 0, 16.630010000000002, 3.3000000000000005E-14, -8.1400000000000007E-13, 1.3391500000000001E-06, 1.81E-13
DataValue, -4, 0, 0.1, 0, 17.54135, 5.700000000000001E-14, -8.1700000000000005E-13, 1.3339200000000002E-06, 1.59E-13
DataValue, -4, 0, 0.1, 0, 18.453190000000003, 5.6E-14, -7.6600000000000007E-13, 1.3289700000000001E-06, 1.7E-13
DataValue, -4, 0, 0.1, 0, 19.364690000000003, 1.0100000000000001E-13, -7.340000000000001E-13, 1.3241000000000002E-06, 1.6100000000000002E-13
DataValue, -4, 0, 0.1, 0, 20.276310000000002, 7.8000000000000008E-14, -7.6300000000000008E-13, 1.3192900000000002E-06, 1.58E-13
DataValue, -4, 0, 0.1, 0, 21.18768, 7.7E-14, -7.27E-13, 1.3146800000000002E-06, 1.17E-13
DataValue, -4, 0, 0.1, 0, 22.099050000000002, 1.1500000000000002E-13, -7.1300000000000009E-13, 1.3101900000000001E-06, 1.46E-13
DataValue, -4, 0, 0.1, 0, 23.01066, 1.0700000000000001E-13, -6.7500000000000005E-13, 1.3057600000000002E-06, 1.5000000000000002E-13
DataValue, -4, 0, 0.1, 0, 23.922050000000002, 1.03E-13, -7.09E-13, 1.3014600000000001E-06, 1.3E-13
DataValue, -4, 0, 0.1, 0, 24.833380000000002, 1.1100000000000001E-13, -7.01E-13, 1.29727E-06, 1.46E-13
DataValue, -4, 0, 0.1, 0, 25.744970000000002, 1.09E-13, -6.79E-13, 1.2931400000000002E-06, 1.3300000000000001E-13
DataValue, -4, 0, 0.1, 0, 26.65631, 1.09E-13, -6.58E-13, 1.2890500000000002E-06, 1.1300000000000001E-13
DataValue, -4, 0, 0.1, 0, 27.567950000000003, 1.28E-13, -6.7500000000000005E-13, 1.28514E-06, 1.3E-13
DataValue, -4, 0, 0.1, 0, 28.479550000000003, 1.0100000000000001E-13, -6.58E-13, 1.2812100000000002E-06, 1.2000000000000002E-13
DataValue, -4, 0, 0.1, 0, 29.39091, 9.6000000000000007E-14, -6.7100000000000007E-13, 1.2774200000000002E-06, 1.0400000000000001E-13
DataValue, -4, 0, 0.1, 0, 30.30224, 1.35E-13, -6.6700000000000009E-13, 1.2736700000000002E-06, 1.3100000000000002E-13
DataValue, -4, 0, 0.1, 0, 31.213980000000003, 9.6000000000000007E-14, -6.79E-13, 1.2699700000000001E-06, 1.0800000000000001E-13
DataValue, -4, 0, 0.1, 0, 32.125690000000006, 1.24E-13, -6.53E-13, 1.2663500000000002E-06, 1.0400000000000001E-13
DataValue, -4, 0, 0.1, 0, 33.03708, 1.46E-13, -6.400000000000001E-13, 1.2628600000000002E-06, 8.9000000000000012E-14
DataValue, -4, 0, 0.1, 0, 33.948800000000006, 9.4E-14, -6.2600000000000006E-13, 1.2593600000000001E-06, 1.18E-13
DataValue, -4, 0, 0.1, 0, 34.86063, 1.16E-13, -6.14E-13, 1.2559500000000002E-06, 1.0500000000000001E-13
DataValue, -4, 0, 0.1, 0, 35.77234, 1.4900000000000002E-13, -6.38E-13, 1.25257E-06, 1.12E-13
DataValue, -4, 0, 0.1, 0, 36.68404, 1.2000000000000002E-13, -6.06E-13, 1.2493E-06, 9.9000000000000007E-14
DataValue, -4, 0, 0.1, 0, 37.59552, 1.03E-13, -6.1800000000000009E-13, 1.2460200000000001E-06, 8.1000000000000008E-14
DataValue, -4, 0, 0.1, 0, 38.507200000000005, 1.1500000000000002E-13, -6.0400000000000005E-13, 1.2427600000000002E-06, 9.2000000000000012E-14
DataValue, -4, 0, 0.1, 0, 39.41883, 1.1100000000000001E-13, -6.32E-13, 1.23959E-06, 1.0100000000000001E-13
DataValue, -4, 0, 0.1, 0, 40.33055, 1.09E-13, -6.2100000000000008E-13, 1.2365700000000002E-06, 1.0100000000000001E-13
DataValue, -4, 0, 0.1, 0, 41.24219, 9.7E-14, -6.07E-13, 1.2335100000000002E-06, 1.2000000000000002E-13
DataValue, -4, 0, 0.1, 0, 42.15382, 9.4E-14, -6.05E-13, 1.2305000000000001E-06, 8.4000000000000008E-14
DataValue, -4, 0, 0.1, 0, 43.0655, 1.28E-13, -6.05E-13, 1.2275100000000002E-06, 8.0000000000000013E-14
DataValue, -4, 0, 0.1, 0, 43.97684, 1.2100000000000002E-13, -6.06E-13, 1.22459E-06, 8.6000000000000012E-14
DataValue, -4, 0, 0.1, 0, 44.888230000000007, 8.9000000000000012E-14, -5.9700000000000008E-13, 1.2216700000000001E-06, 9.7E-14
DataValue, -4, 0, 0.1, 0, 45.799600000000005, 1.0400000000000001E-13, -5.93E-13, 1.21879E-06, 7.6E-14
DataValue, -4, 0, 0.1, 0, 46.71097, 9.4E-14, -6.0100000000000006E-13, 1.216E-06, 6.9000000000000009E-14
DataValue, -4, 0, 0.1, 0, 47.622580000000006, 1.0200000000000001E-13, -5.7100000000000009E-13, 1.2131700000000001E-06, 8.4000000000000008E-14
DataValue, -4, 0, 0.1, 0, 48.534270000000006, 9.4E-14, -5.9800000000000008E-13, 1.21043E-06, 8.4000000000000008E-14
DataValue, -4, 0, 0.1, 0, 49.4457, 1.0200000000000001E-13, -5.5600000000000005E-13, 1.2077700000000001E-06, 9.9000000000000007E-14
DataValue, -4, 0, 0.1, 0, 50.357020000000006, 1E-13, -5.58E-13, 1.2050500000000002E-06, 6.8E-14
DataValue, -4, 0, 0.1, 0, 51.26865, 9.4E-14, -5.92E-13, 1.2024700000000002E-06, 9.0000000000000008E-14
DataValue, -4, 0, 0.1, 0, 52.180330000000005, 1.1500000000000002E-13, -5.85E-13, 1.1998700000000002E-06, 7.3E-14
DataValue, -4, 0, 0.1, 0, 53.091950000000004, 1.28E-13, -5.61E-13, 1.1972400000000002E-06, 4.8000000000000004E-14
DataValue, -4, 0, 0.1, 0, 54.00334, 1.0400000000000001E-13, -5.7300000000000008E-13, 1.19468E-06, 5.6E-14
DataValue, -4, 0, 0.1, 0, 54.915050000000008, 7.8000000000000008E-14, -5.5000000000000008E-13, 1.1921200000000001E-06, 5.700000000000001E-14
DataValue, -4, 0, 0.1, 0, 55.826780000000007, 9.7E-14, -5.7200000000000009E-13, 1.1896300000000002E-06, 7.3E-14
DataValue, -4, 0, 0.1, 0, 56.7385, 9.7E-14, -5.41E-13, 1.18714E-06, 5.3E-14
DataValue, -4, 0, 0.1, 0, 57.650110000000005, 1.19E-13, -5.4900000000000008E-13, 1.1847E-06, 4.9000000000000006E-14
DataValue, -4, 0, 0.1, 0, 58.56175, 1.1000000000000001E-13, -5.64E-13, 1.18226E-06, 4.7E-14
DataValue, -4, 0, 0.1, 0, 59.47319, 1.16E-13, -5.7500000000000007E-13, 1.1799100000000002E-06, 7.2000000000000009E-14
DataValue, -4, 0, 0.1, 0, 60.384580000000007, 5.4000000000000003E-14, -5.5600000000000005E-13, 1.1775600000000001E-06, 5.9E-14
DataValue, -4, 0, 0.1, 0, 61.295950000000005, 8.6000000000000012E-14, -5.45E-13, 1.1752300000000002E-06, 5.700000000000001E-14
DataValue, -4, 0, 0.1, 0, 62.207650000000008, 7.1E-14, -5.7700000000000007E-13, 1.1728800000000001E-06, 4.8000000000000004E-14
DataValue, -4, 0, 0.1, 0, 63.11941, 1.1000000000000001E-13, -5.4E-13, 1.1705800000000002E-06, 4.2000000000000004E-14
DataValue, -4, 0, 0.1, 0, 64.03107, 9.7E-14, -5.62E-13, 1.16833E-06, 4.6000000000000006E-14
DataValue, -4, 0, 0.1, 0, 64.942820000000012, 9.2000000000000012E-14, -5.46E-13, 1.1661600000000001E-06, 4.9000000000000006E-14
DataValue, -4, 0, 0.1, 0, 65.85455, 8.0000000000000013E-14, -5.41E-13, 1.1639600000000002E-06, 4.8000000000000004E-14
DataValue, -4, 0, 0.1, 0, 66.76622, 7.1E-14, -5.5600000000000005E-13, 1.16171E-06, 5.6E-14
DataValue, -4, 0, 0.1, 0, 67.677910000000011, 8.9000000000000012E-14, -5.3300000000000005E-13, 1.15956E-06, 7.3E-14
DataValue, -4, 0, 0.1, 0, 68.58934, 8.6000000000000012E-14, -5.5100000000000008E-13, 1.1573800000000002E-06, 4.6000000000000006E-14
DataValue, -4, 0, 0.1, 0, 69.50076, 7.4E-14, -5.2800000000000007E-13, 1.1553000000000002E-06, 2.0000000000000003E-14
DataValue, -4, 0, 0.1, 0, 70.41239, 8.9000000000000012E-14, -5.2900000000000007E-13, 1.1531900000000002E-06, 4.3000000000000006E-14
DataValue, -4, 0, 0.1, 0, 71.3241, 8.2E-14, -5.41E-13, 1.15109E-06, 5.8E-14
DataValue, -4, 0, 0.1, 0, 72.235520000000008, 8.8E-14, -5.3100000000000006E-13, 1.1490300000000001E-06, 1.4E-14
DataValue, -4, 0, 0.1, 0, 73.14686, 6.4E-14, -5.45E-13, 1.14695E-06, 2.7000000000000002E-14
DataValue, -4, 0, 0.1, 0, 74.05857, 7.1E-14, -5.2600000000000008E-13, 1.14494E-06, 2.3000000000000003E-14
DataValue, -4, 0, 0.1, 0, 74.969940000000008, 7.1E-14, -5.2600000000000008E-13, 1.14299E-06, 3.3000000000000005E-14
DataValue, -4, 0, 0.1, 0, 75.881520000000009, 7.7E-14, -5.16E-13, 1.1409300000000002E-06, 3.9000000000000004E-14
DataValue, -4, 0, 0.1, 0, 76.79319000000001, 6.2E-14, -5.2800000000000007E-13, 1.13901E-06, 3.2E-14
DataValue, -4, 0, 0.1, 0, 77.70469, 7.3E-14, -5.0400000000000007E-13, 1.1370700000000001E-06, 2.9E-14
DataValue, -4, 0, 0.1, 0, 78.616080000000011, 7.6E-14, -5.16E-13, 1.13518E-06, 4.2000000000000004E-14
DataValue, -4, 0, 0.1, 0, 79.52770000000001, 6.7E-14, -5.2500000000000009E-13, 1.13324E-06, 4.3000000000000006E-14
DataValue, -4, 0, 0.1, 0, 80.439410000000009, 5.2000000000000006E-14, -5.3100000000000006E-13, 1.13137E-06, 5.4000000000000003E-14
DataValue, -4, 0, 0.1, 0, 81.35107, 7.1E-14, -5.39E-13, 1.1294600000000001E-06, 3.2E-14
DataValue, -4, 0, 0.1, 0, 82.262430000000009, 8.3000000000000012E-14, -5.2900000000000007E-13, 1.1276200000000001E-06, 3.1E-14
DataValue, -4, 0, 0.1, 0, 83.17413, 1.0100000000000001E-13, -5.34E-13, 1.1257400000000001E-06, 3.4E-14
DataValue, -4, 0, 0.1, 0, 84.08556, 7.4E-14, -5.13E-13, 1.1238700000000002E-06, 3.7E-14
DataValue, -4, 0, 0.1, 0, 84.99729, 6.2E-14, -5.38E-13, 1.1220900000000002E-06, 4.7E-14
DataValue, -4, 0, 0.1, 0, 85.908920000000009, 8.4000000000000008E-14, -5.2E-13, 1.12029E-06, 3.2E-14
DataValue, -4, 0, 0.1, 0, 86.82035, 7.9E-14, -5.0700000000000006E-13, 1.1185000000000002E-06, 3.5E-14
DataValue, -4, 0, 0.1, 0, 87.73205, 6.1E-14, -4.9E-13, 1.1166600000000002E-06, 2.5E-14
DataValue, -4, 0, 0.1, 0, 88.643430000000009, 9.9000000000000007E-14, -5E-13, 1.11495E-06, 3.4E-14
DataValue, -4, 0, 0.1, 0, 89.555060000000012, 8.1000000000000008E-14, -4.8100000000000007E-13, 1.11324E-06, 1.5000000000000002E-14
DataValue, -4, 0, 0.1, 0, 90.466500000000011, 8.2E-14, -5.12E-13, 1.11146E-06, 2.8E-14
DataValue, -4, 0, 0.1, 0, 91.37805, 6.7E-14, -4.98E-13, 1.10975E-06, 2.4000000000000002E-14
DataValue, -4, 0, 0.1, 0, 92.289790000000011, 7E-14, -4.86E-13, 1.10811E-06, 2.7000000000000002E-14
DataValue, -4, 0, 0.1, 0, 93.201540000000008, 8.3000000000000012E-14, -5.15E-13, 1.10646E-06, 1.8000000000000002E-14
DataValue, -4, 0, 0.1, 0, 94.11301, 4.8000000000000004E-14, -5.16E-13, 1.1047300000000002E-06, 1.4E-14
DataValue, -4, 0, 0.1, 0, 95.024400000000014, 5.8E-14, -4.8500000000000005E-13, 1.10309E-06, 1.3000000000000001E-14
DataValue, -4, 0, 0.1, 0, 95.93574000000001, 3.9000000000000004E-14, -5.11E-13, 1.1014600000000001E-06, 1.5000000000000002E-14
DataValue, -4, 0, 0.1, 0, 96.84743, 4.6000000000000006E-14, -5.0200000000000008E-13, 1.09974E-06, 2.7000000000000002E-14
DataValue, -4, 0, 0.1, 0, 97.7591, 3.7E-14, -4.97E-13, 1.09825E-06, 1.5000000000000002E-14
DataValue, -4, 0, 0.1, 0, 98.67081, 7.2000000000000009E-14, -5E-13, 1.0966200000000001E-06, 3.5E-14
DataValue, -4, 0, 0.1, 0, 99.582470000000015, 6.0000000000000009E-14, -5.0700000000000006E-13, 1.09503E-06, 1.9E-14
DataValue, -4, 0, 0.1, 0, 100.49395000000001, 3.7E-14, -4.8400000000000006E-13, 1.09341E-06, 9.0000000000000011E-15
DataValue, -4, 0, 0.1, 0, 101.40566000000001, 4.6000000000000006E-14, -5.0100000000000009E-13, 1.0918800000000002E-06, 4E-15
DataValue, -4, 0, 0.1, 0, 102.31702000000001, 2.4000000000000002E-14, -4.91E-13, 1.0903000000000002E-06, 2E-15
DataValue, -4, 0, 0.1, 0, 103.22865, 5.8E-14, -4.8300000000000006E-13, 1.0887800000000001E-06, -7E-15
DataValue, -4, 0, 0.1, 0, 104.14008000000001, 5.6E-14, -4.75E-13, 1.08729E-06, 2.0000000000000003E-14
DataValue, -4, 0, 0.1, 0, 105.05172, 3.0000000000000005E-14, -4.8100000000000007E-13, 1.08574E-06, 9.0000000000000011E-15
DataValue, -4, 0, 0.1, 0, 105.96336000000001, 5.700000000000001E-14, -4.91E-13, 1.0842300000000001E-06, -8E-15
DataValue, -4, 0, 0.1, 0, 106.87506, 5.4000000000000003E-14, -5.0100000000000009E-13, 1.0827800000000001E-06, 2.0000000000000003E-14
DataValue, -4, 0, 0.1, 0, 107.78671000000001, 6.7E-14, -4.66E-13, 1.08129E-06, 4E-15
DataValue, -4, 0, 0.1, 0, 108.69809000000001, 4.7E-14, -4.77E-13, 1.07981E-06, -1.9E-14
DataValue, -4, 0, 0.1, 0, 109.60978000000002, 4.9000000000000006E-14, -4.99E-13, 1.0783800000000002E-06, 6.0000000000000005E-15
DataValue, -4, 0, 0.1, 0, 110.52119, 5.3E-14, -4.7E-13, 1.0769300000000002E-06, -4E-15
