
SetupTitle, I/V Sweep - Unit (transfer)
PrimitiveTest, I/V Sweep
TestParameter, Context.MainFrame, B1500A
TestParameter, Channel.UnitType, SMU, SMU, SMU
TestParameter, Channel.Unit, SMU3:HR, SMU1:HR, SMU2:HR
TestParameter, Channel.IName, IG, ID, IS
TestParameter, Channel.VName, VG, VD, VS
TestParameter, Channel.Mode, V, V, COMMON
TestParameter, Channel.Func, VAR1, VAR2, CONST
TestParameter, Channel.Index, 
TestParameter, Channel.Time, 
TestParameter, Measurement.Port.Unit, SMU3:HR, SMU1:HR, SMU2:HR
TestParameter, Measurement.Port.SeriesResistor, NONE, NONE, NONE
TestParameter, Measurement.Port.Filter, ON, ON, ON
TestParameter, Measurement.Port.OutputVoltageComparison, 0, 0, 0
TestParameter, Measurement.Primary.Locus, Single
TestParameter, Measurement.Primary.Scale, LINEAR
TestParameter, Measurement.Primary.Start, -3
TestParameter, Measurement.Primary.Stop, 3
TestParameter, Measurement.Primary.Step, 0.06
TestParameter, Measurement.Primary.Compliance, 0.1
TestParameter, Measurement.Primary.PowerCompliance, 0
TestParameter, Measurement.Aborting.Condition, CONTINUE AT ANY
TestParameter, Measurement.PostOutput.Value, START
TestParameter, Measurement.PostOutput.Retention, OFF
TestParameter, Measurement.Secondary.Start, 0.1
TestParameter, Measurement.Secondary.Count, 5
TestParameter, Measurement.Secondary.Step, 0.70000000000000007
TestParameter, Measurement.Secondary.Compliance, 0.1
TestParameter, Measurement.Secondary.PowerCompliance, 0
TestParameter, Measurement.Bias.Source, -3, 0.1, 0
TestParameter, Measurement.Bias.Compliance, 0.1, 0.1, 0.1
TestParameter, Measurement.Monitor.Unit, SMU3:HR, SMU1:HR, SMU2:HR
TestParameter, Measurement.Monitor.Adc, HR ADC, HR ADC, HR ADC
TestParameter, Measurement.Monitor.Measurement, Compliance Side, Compliance Side, Compliance Side
TestParameter, Measurement.Monitor.RangingMode, LIMITED, LIMITED, LIMITED
TestParameter, Measurement.Monitor.RangeBoundary, 1nA, 1nA, 1nA
TestParameter, Measurement.Monitor.RangeRating, BY FULL RANGE, BY FULL RANGE, BY FULL RANGE
TestParameter, Measurement.Monitor.RangeRatingCoeff, 50, 50, 50
TestParameter, Measurement.Timing.Hold, 0
TestParameter, Measurement.Timing.Delay, 0
TestParameter, Measurement.Adc.HighSpeed.Mode, PLC
TestParameter, Measurement.Adc.HighSpeed.Coeff, 5
TestParameter, Measurement.Adc.HighResolution.AutoZero, OFF
TestParameter, Measurement.Adc.HighResolution.Mode, PLC
TestParameter, Measurement.Adc.HighResolution.Coeff, 5
TestParameter, Measurement.WaitTime.Source.Coeff, 1
TestParameter, Measurement.WaitTime.Source.Offset, 0
TestParameter, Measurement.WaitTime.Monitor.Coeff, 1
TestParameter, Measurement.WaitTime.Monitor.Offset, 0
TestParameter, Function.User.Name, SS
TestParameter, Function.User.Unit, mV/dec
TestParameter, Function.User.Definition, diff(VG,log(ID))*1000
TestParameter, Output.Graph.Enabled, true
TestParameter, Output.Graph.AutoScaling, false
TestParameter, Output.Graph.XAxis.Data, VG
TestParameter, Output.Graph.XAxis.Scale, Linear
TestParameter, Output.Graph.XAxis.Left, -3
TestParameter, Output.Graph.XAxis.Right, 3
TestParameter, Output.Graph.XAxis.RunTimeAutoScale, true
TestParameter, Output.Graph.YAxis.Data, ID, IG
TestParameter, Output.Graph.YAxis.Scale, Log, Log
TestParameter, Output.Graph.YAxis.Bottom, 0, 1E-15
TestParameter, Output.Graph.YAxis.Top, 0.0001, 1E-12
TestParameter, Output.Graph.YAxis.Group, , 
TestParameter, Output.Graph.YAxis.RunTimeAutoScale, true, true
TestParameter, Output.List.Data, VG, VD, VS, IG, ID, IS, SS
TestParameter, Output.Scalar.Data, SS
TestParameter, AutoAnalysis.Interpolation, false
TestParameter, AutoAnalysis.Var2StepCount, 1
TestParameter, AutoAnalysis.Var2StepScript, 
TestParameter, AutoAnalysis.Line1.Enabled, false
TestParameter, AutoAnalysis.Line1.Type, 1
TestParameter, AutoAnalysis.Line1.Fix, True
TestParameter, AutoAnalysis.Line1.YAxis, 0
TestParameter, AutoAnalysis.Line1.Point1.Type, 0
TestParameter, AutoAnalysis.Line1.Point1.XY.X, 
TestParameter, AutoAnalysis.Line1.Point1.XY.Y, 
TestParameter, AutoAnalysis.Line1.Point1.Data.Var, 
TestParameter, AutoAnalysis.Line1.Point1.Data.Condition, 
TestParameter, AutoAnalysis.Line1.Point1.Data.Start, false
TestParameter, AutoAnalysis.Line1.Point1.Data.StartVar, 
TestParameter, AutoAnalysis.Line1.Point1.Data.StartCondition, 
TestParameter, AutoAnalysis.Line1.Point2.Type, 0
TestParameter, AutoAnalysis.Line1.Point2.XY.X, 
TestParameter, AutoAnalysis.Line1.Point2.XY.Y, 
TestParameter, AutoAnalysis.Line1.Point2.Data.Var, 
TestParameter, AutoAnalysis.Line1.Point2.Data.Condition, 
TestParameter, AutoAnalysis.Line1.Point2.Data.Start, false
TestParameter, AutoAnalysis.Line1.Point2.Data.StartVar, 
TestParameter, AutoAnalysis.Line1.Point2.Data.StartCondition, 
TestParameter, AutoAnalysis.Line1.GradientExpr, 0
TestParameter, AutoAnalysis.Line2.Enabled, false
TestParameter, AutoAnalysis.Line2.Type, 1
TestParameter, AutoAnalysis.Line2.Fix, True
TestParameter, AutoAnalysis.Line2.YAxis, 0
TestParameter, AutoAnalysis.Line2.Point1.Type, 0
TestParameter, AutoAnalysis.Line2.Point1.XY.X, 
TestParameter, AutoAnalysis.Line2.Point1.XY.Y, 
TestParameter, AutoAnalysis.Line2.Point1.Data.Var, 
TestParameter, AutoAnalysis.Line2.Point1.Data.Condition, 
TestParameter, AutoAnalysis.Line2.Point1.Data.Start, false
TestParameter, AutoAnalysis.Line2.Point1.Data.StartVar, 
TestParameter, AutoAnalysis.Line2.Point1.Data.StartCondition, 
TestParameter, AutoAnalysis.Line2.Point2.Type, 0
TestParameter, AutoAnalysis.Line2.Point2.XY.X, 
TestParameter, AutoAnalysis.Line2.Point2.XY.Y, 
TestParameter, AutoAnalysis.Line2.Point2.Data.Var, 
TestParameter, AutoAnalysis.Line2.Point2.Data.Condition, 
TestParameter, AutoAnalysis.Line2.Point2.Data.Start, false
TestParameter, AutoAnalysis.Line2.Point2.Data.StartVar, 
TestParameter, AutoAnalysis.Line2.Point2.Data.StartCondition, 
TestParameter, AutoAnalysis.Line2.GradientExpr, 0
TestParameter, AutoAnalysis.Marker.Enabled, false
TestParameter, AutoAnalysis.Marker.Data.Var, 
TestParameter, AutoAnalysis.Marker.Data.Condition, 
TestParameter, AutoAnalysis.Marker.Data.Start, false
TestParameter, AutoAnalysis.Marker.Data.StartVar, 
TestParameter, AutoAnalysis.Marker.Data.StartCondition, 
MetaData, TestRecord.EntryPoint, true
MetaData, TestRecord.RecordTime, 01/16/2026 10:33:07
MetaData, TestRecord.TestTarget, 251203_ALD_#4_R00
MetaData, TestRecord.IterationIndex, 4
MetaData, TestRecord.Preservation, true
MetaData, TestRecord.Flag, 
MetaData, TestRecord.Remarks, 
MetaData, TestRecord.LinkKey, bdb040df-5ef6-464d-86bb-9a3e71b76c39
MetaData, TestRecord.Parameters, 
Dimension1, 101, 101, 101, 101, 101, 101, 101
Dimension2, 5, 5, 5, 5, 5, 5, 5
DataName, VG, VD, VS, IG, ID, IS, SS
DataValue, -3, 0.1, 0, -2.11E-13, -5.5000000000000005E-14, -3.1E-14, -335.77368284206892
DataValue, -2.94, 0.1, 0, -7.5000000000000009E-14, -4.6000000000000006E-14, -3.5E-14, -137.6400966521276
DataValue, -2.88, 0.1, 0, -9.9000000000000007E-14, -2.3000000000000003E-14, -2.7000000000000002E-14, -120.55115355320142
DataValue, -2.82, 0.1, 0, -5.700000000000001E-14, -1.7E-14, -2.2E-14, 127.38268949478012
DataValue, -2.7600000000000002, 0.1, 0, -6.4E-14, -5.9E-14, -6.6000000000000009E-14, 
DataValue, -2.7, 0.1, 0, -6.5E-14, -1.7E-14, -5.5000000000000005E-14, -2299.47816615351
DataValue, -2.64, 0.1, 0, -6.6000000000000009E-14, -5.6E-14, -9.1E-14, 115.60831003317486
DataValue, -2.58, 0.1, 0, -5.9E-14, -4.8000000000000004E-14, -4.0000000000000006E-14, 6779.8230051535984
DataValue, -2.52, 0.1, 0, -7.9E-14, -5.700000000000001E-14, -3.7E-14, 441.28400844513556
DataValue, -2.46, 0.1, 0, -6.9000000000000009E-14, -6.3000000000000009E-14, -4.5000000000000004E-14, -915.83294929000022
DataValue, -2.4, 0.1, 0, -7.4E-14, -5E-14, -9.0000000000000008E-14, -100.10880599000446
DataValue, -2.34, 0.1, 0, -4.7E-14, -1.9E-14, -7.4E-14, -146.16667800164015
DataValue, -2.2800000000000002, 0.1, 0, -6.8E-14, -2.2E-14, -4.8000000000000004E-14, 166.87000078407988
DataValue, -2.22, 0.1, 0, -3.1E-14, -3.9000000000000004E-14, -5.5000000000000005E-14, 119.6050511006073
DataValue, -2.16, 0.1, 0, -3.1E-14, -6.0000000000000009E-14, -6.4E-14, 368.75150524281662
DataValue, -2.1, 0.1, 0, -6.1E-14, -5.4000000000000003E-14, -5.3E-14, -658.1777937296489
DataValue, -2.04, 0.1, 0, -4.7E-14, -5E-14, -2.5E-14, 520.55394540680015
DataValue, -1.98, 0.1, 0, -4.9000000000000006E-14, -6.8E-14, -5.9E-14, -220.2937643100008
DataValue, -1.92, 0.1, 0, -4.9000000000000006E-14, -2.9E-14, -7.5000000000000009E-14, -173.12340490667498
DataValue, -1.86, 0.1, 0, -1E-15, -3.4E-14, -3.6000000000000004E-14, 168.95658836127294
DataValue, -1.8, 0.1, 0, -2.3000000000000003E-14, -5.9E-14, -6.5E-14, 224.68439456685303
DataValue, -1.74, 0.1, 0, -3.6000000000000004E-14, -5.8E-14, -4.9000000000000006E-14, -527.72805874390485
DataValue, -1.68, 0.1, 0, -5.700000000000001E-14, -4.7E-14, -3.0000000000000005E-14, 1451.1731770661238
DataValue, -1.62, 0.1, 0, -6.2E-14, -6.3000000000000009E-14, -6.7E-14, 433.23366752431724
DataValue, -1.56, 0.1, 0, -3.9000000000000004E-14, -6.2E-14, -4.9000000000000006E-14, 336.44079024685317
DataValue, -1.5, 0.1, 0, -4.9000000000000006E-14, -9.0000000000000008E-14, -4.3000000000000006E-14, -55.014976461394269
DataValue, -1.44, 0.1, 0, -6.9000000000000009E-14, -7E-15, -5.9E-14, -184.71141505130964
DataValue, -1.3800000000000001, 0.1, 0, -5.3E-14, -4.7E-14, -6.9000000000000009E-14, 56.750123010800415
DataValue, -1.32, 0.1, 0, -4.9000000000000006E-14, -5.8E-14, -7.3E-14, -339.32809168709497
DataValue, -1.26, 0.1, 0, -4.2000000000000004E-14, -3.3000000000000005E-14, -7.9E-14, 638.12058512118142
DataValue, -1.2, 0.1, 0, -4.7E-14, -7E-14, -5E-14, 288.79792976135559
DataValue, -1.1400000000000001, 0.1, 0, -2.4000000000000002E-14, -5E-14, -3.2E-14, -196.4285741893076
DataValue, -1.08, 0.1, 0, -2.4000000000000002E-14, -3.8E-14, -5.5000000000000005E-14, 157.72749816126236
DataValue, -1.02, 0.1, 0, -6.7E-14, -1.0700000000000001E-13, -4.4E-14, 272.75747182746181
DataValue, -0.96, 0.1, 0, -5.2000000000000006E-14, -5.9E-14, -1.6E-14, -195.9548952860157
DataValue, -0.9, 0.1, 0, -3.3000000000000005E-14, -5.8E-14, -5.2000000000000006E-14, -229.80168506055878
DataValue, -0.84, 0.1, 0, -4.3000000000000006E-14, -3.5E-14, -6.4E-14, -808.51634457481191
DataValue, -0.78, 0.1, 0, -8.1000000000000008E-14, -5E-14, -5E-14, 246.05128372906026
DataValue, -0.72, 0.1, 0, -3.3000000000000005E-14, -5.700000000000001E-14, -6.1E-14, -183.50687115616304
DataValue, -0.66, 0.1, 0, -3.7E-14, -2.6000000000000003E-14, -6.8E-14, 459.745761857897
DataValue, -0.6, 0.1, 0, -4.8000000000000004E-14, -7.4E-14, -4.8000000000000004E-14, -36.83132117161621
DataValue, -0.54, 0.1, 0, -2.7000000000000002E-14, 1E-15, -2.6000000000000003E-14, -148.59622414985827
DataValue, -0.48, 0.1, 0, -3.2E-14, -3.3000000000000005E-14, -6.1E-14, 26.35117348502234
DataValue, -0.42, 0.1, 0, -5.6E-14, -9.5000000000000012E-14, -5.1000000000000004E-14, 148.59622414985827
DataValue, -0.36, 0.1, 0, -3.2E-14, -7.4E-14, -8.2E-14, -219.56158053201705
DataValue, -0.3, 0.1, 0, -4.3000000000000006E-14, -5.5000000000000005E-14, -6.4E-14, -173.12340490667512
DataValue, -0.24, 0.1, 0, -1.9E-14, -3.7E-14, -6.3000000000000009E-14, -97.186100927435973
DataValue, -0.18, 0.1, 0, 9.0000000000000011E-15, -1.6E-14, -6.2E-14, 302.7128576971935
DataValue, -0.12, 0.1, 0, -2.0000000000000003E-14, -5.5000000000000005E-14, -7.2000000000000009E-14, 229.33669508438408
DataValue, -0.06, 0.1, 0, -2.1000000000000002E-14, -2.7000000000000002E-14, -1.28E-13, 87.135725985172968
DataValue, 0, 0.1, 0, 2.0000000000000003E-14, 2.18E-13, -3.3300000000000005E-13, 26.218050713592348
DataValue, 0.06, 0.1, 0, 1E-15, 2.6250000000000002E-12, -2.733E-12, 25.61126241327888
DataValue, 0.12, 0.1, 0, 2.7000000000000002E-14, 2.3622000000000003E-11, -2.3561000000000003E-11, 28.141924300417386
DataValue, 0.18, 0.1, 0, -8E-15, 1.8664000000000001E-10, -1.8482600000000001E-10, 31.00991054817738
DataValue, 0.24, 0.1, 0, -4.0000000000000006E-14, 1.13219E-09, -1.12053E-09, 37.224957646032472
DataValue, 0.3, 0.1, 0, -2.1000000000000002E-14, 4.6883E-09, -4.65979E-09, 48.998518011447061
DataValue, 0.36, 0.1, 0, -2.5E-14, 1.3107799999999998E-08, -1.3061699999999998E-08, 67.708351094555553
DataValue, 0.42, 0.1, 0, -3.4E-14, 2.7587899999999997E-08, -2.75251E-08, 92.612741982202451
DataValue, 0.48, 0.1, 0, -3.6000000000000004E-14, 4.7890899999999996E-08, -4.7813599999999992E-08, 122.32923631428338
DataValue, 0.54, 0.1, 0, -2.5E-14, 7.3577299999999987E-08, -7.3491699999999991E-08, 154.89276339381962
DataValue, 0.6, 0.1, 0, -4.5000000000000004E-14, 1.0392349999999998E-07, -1.0383519999999999E-07, 189.33306272697251
DataValue, 0.66, 0.1, 0, 0, 1.38676E-07, -1.3859E-07, 224.75149270983451
DataValue, 0.72, 0.1, 0, -1.5000000000000002E-14, 1.77253E-07, -1.77153E-07, 261.22394891894783
DataValue, 0.78, 0.1, 0, -7E-15, 2.19536E-07, -2.19448E-07, 298.20458005787248
DataValue, 0.84, 0.1, 0, -1.3000000000000001E-14, 2.65068E-07, -2.64984E-07, 336.19094385264071
DataValue, 0.9, 0.1, 0, -4.1E-14, 3.13706E-07, -3.13604E-07, 374.4663694516675
DataValue, 0.96, 0.1, 0, -1.8000000000000002E-14, 3.65199E-07, -3.6509099999999997E-07, 413.50853385095161
DataValue, 1.02, 0.1, 0, -4E-15, 4.19329E-07, -4.19238E-07, 452.77882118339045
DataValue, 1.08, 0.1, 0, -2.4000000000000002E-14, 4.76026E-07, -4.75911E-07, 493.27767874050375
DataValue, 1.1400000000000001, 0.1, 0, -2.1000000000000002E-14, 5.34818E-07, -5.34709E-07, 534.04682424757232
DataValue, 1.2, 0.1, 0, -1.4E-14, 5.95959E-07, -5.9584E-07, 573.77023343991914
DataValue, 1.26, 0.1, 0, -2.4000000000000002E-14, 6.59228E-07, -6.59125E-07, 614.43426706732919
DataValue, 1.32, 0.1, 0, -2.6000000000000003E-14, 7.24494E-07, -7.2434799999999994E-07, 656.05690858982143
DataValue, 1.3800000000000001, 0.1, 0, -1.9E-14, 7.9154E-07, -7.91389E-07, 698.36087117069928
DataValue, 1.44, 0.1, 0, -3.4E-14, 8.6032E-07, -8.60216E-07, 740.61998466766784
DataValue, 1.5, 0.1, 0, -2.0000000000000003E-14, 9.3076499999999993E-07, -9.30641E-07, 783.06001669251407
DataValue, 1.56, 0.1, 0, -1.0000000000000002E-14, 1.002798E-06, -1.002681E-06, 827.078228573187
DataValue, 1.62, 0.1, 0, -7E-14, 1.076097E-06, -1.075961E-06, 871.47224092538249
DataValue, 1.68, 0.1, 0, -2.5E-14, 1.1508400000000001E-06, -1.1508900000000002E-06, 914.3006277368396
DataValue, 1.74, 0.1, 0, -7.4E-14, 1.2270200000000002E-06, -1.2272400000000001E-06, 958.78001869061291
DataValue, 1.8, 0.1, 0, -9.0000000000000011E-15, 1.30428E-06, -1.30445E-06, 1002.9073804596676
DataValue, 1.86, 0.1, 0, 3.0000000000000002E-15, 1.3829800000000002E-06, -1.38315E-06, 1047.9451419536374
DataValue, 1.92, 0.1, 0, 3.0000000000000002E-15, 1.46252E-06, -1.4626000000000002E-06, 1094.5206979428942
DataValue, 1.98, 0.1, 0, 7E-15, 1.54323E-06, -1.5434200000000003E-06, 1140.6937647431582
DataValue, 2.04, 0.1, 0, 1E-15, 1.6247600000000003E-06, -1.6249200000000002E-06, 1185.7075151996148
DataValue, 2.1, 0.1, 0, -2.0000000000000003E-14, 1.7075900000000001E-06, -1.7077000000000002E-06, 1232.6328398406783
DataValue, 2.16, 0.1, 0, -3.9000000000000004E-14, 1.7908900000000002E-06, -1.7909900000000002E-06, 1281.098268898462
DataValue, 2.22, 0.1, 0, -2.0000000000000003E-14, 1.87527E-06, -1.8754000000000003E-06, 1326.3840033746976
DataValue, 2.2800000000000002, 0.1, 0, -3.0000000000000005E-14, 1.96047E-06, -1.9605700000000004E-06, 1376.3396585335602
DataValue, 2.34, 0.1, 0, 2E-15, 2.04611E-06, -2.0461500000000003E-06, 1426.9288996319358
DataValue, 2.4, 0.1, 0, 0, 2.1324700000000004E-06, -2.1324700000000004E-06, 1475.1797090713646
DataValue, 2.46, 0.1, 0, -9.0000000000000011E-15, 2.2195100000000004E-06, -2.2194300000000003E-06, 1525.4163557100253
DataValue, 2.52, 0.1, 0, -6.0000000000000005E-15, 2.307E-06, -2.3069200000000004E-06, 1576.5067561035485
DataValue, 2.58, 0.1, 0, -1.2000000000000001E-14, 2.39505E-06, -2.39499E-06, 1626.4289680406628
DataValue, 2.64, 0.1, 0, -1.3000000000000001E-14, 2.4836500000000004E-06, -2.4835100000000003E-06, 1680.0267777709653
DataValue, 2.7, 0.1, 0, -3.9000000000000004E-14, 2.5723800000000004E-06, -2.5721800000000004E-06, 1734.9029091233574
DataValue, 2.7600000000000002, 0.1, 0, -3.7E-14, 2.6615200000000004E-06, -2.66134E-06, 1785.2747680320365
DataValue, 2.82, 0.1, 0, -3.0000000000000002E-15, 2.7512300000000004E-06, -2.75096E-06, 1836.7544779813413
DataValue, 2.88, 0.1, 0, -1.1E-14, 2.8412100000000003E-06, -2.8409500000000003E-06, 1890.7716050695658
DataValue, 2.94, 0.1, 0, 0, 2.9315000000000002E-06, -2.9311800000000003E-06, 1944.6204417900472
DataValue, 3, 0.1, 0, -5.0000000000000008E-15, 3.0220600000000004E-06, -3.02162E-06, 1972.0961131591787
DataValue, -3, 0.8, 0, -2.49E-13, -3.5E-14, -1.6E-14, -20.962889222686492
DataValue, -2.94, 0.8, 0, -1.22E-13, -2E-15, -1.4E-14, -356.64160943861663
DataValue, -2.88, 0.8, 0, -1.12E-13, -2.5E-14, -4.6000000000000006E-14, 44.3123247682627
DataValue, -2.82, 0.8, 0, -5.8E-14, -3.0000000000000005E-14, -4.8000000000000004E-14, 1559.2304655512883
DataValue, -2.7600000000000002, 0.8, 0, -7.7E-14, -2.7000000000000002E-14, -2.2E-14, -211.27354301328862
DataValue, -2.7, 0.8, 0, -9.5000000000000012E-14, -1.7E-14, -5.9E-14, 305.31042596975925
DataValue, -2.64, 0.8, 0, -6.8E-14, -4.0000000000000006E-14, -5.5000000000000005E-14, 136.30807182672544
DataValue, -2.58, 0.8, 0, -6.6000000000000009E-14, -4.1E-14, -3.8E-14, -234.91382267654723
DataValue, -2.52, 0.8, 0, -6.7E-14, -2.4000000000000002E-14, -3.9000000000000004E-14, -79.137533343368688
DataValue, -2.46, 0.8, 0, -6.1E-14, -9.0000000000000011E-15, -4.4E-14, 116.88629075846434
DataValue, -2.4, 0.8, 0, -5.1000000000000004E-14, -6.7E-14, -6.5E-14, 62.17907154037453
DataValue, -2.34, 0.8, 0, -4.1E-14, -6.2E-14, -4.8000000000000004E-14, -270.57954531262214
DataValue, -2.2800000000000002, 0.8, 0, -4.5000000000000004E-14, -4.3000000000000006E-14, -6.3000000000000009E-14, -308.11516275981
DataValue, -2.22, 0.8, 0, -4.6000000000000006E-14, -4.2000000000000004E-14, -6.1E-14, -60.931006077974622
DataValue, -2.16, 0.8, 0, -6.2E-14, -6.0000000000000005E-15, -8.4000000000000008E-14, -1619.2589881029733
DataValue, -2.1, 0.8, 0, -4.0000000000000006E-14, -3.9000000000000004E-14, -7.9E-14, 49.732003554221244
DataValue, -2.04, 0.8, 0, -3.2E-14, -6.7E-14, -7.1E-14, -94.8117154160907
DataValue, -1.98, 0.8, 0, -5.5000000000000005E-14, -1.1E-14, -8.0000000000000013E-14, 272.91441774145204
DataValue, -1.92, 0.8, 0, -1.7E-14, -1.0400000000000001E-13, -6.6000000000000009E-14, 76.316621957724593
DataValue, -1.86, 0.8, 0, -5.9E-14, -5.3E-14, -7.9E-14, -135.8709830865113
DataValue, -1.8, 0.8, 0, -5.6E-14, -4.3000000000000006E-14, -7.2000000000000009E-14, -59.277356724179029
DataValue, -1.74, 0.8, 0, -6.0000000000000009E-14, -7E-15, -2.9E-14, 327.92774563763152
DataValue, -1.68, 0.8, 0, -3.7E-14, -6.2E-14, -4.4E-14, 53.848432581057835
DataValue, -1.62, 0.8, 0, -4.4E-14, -6.5E-14, -9.4E-14, -1001.6594173321329
DataValue, -1.56, 0.8, 0, -2.3000000000000003E-14, -5.5000000000000005E-14, -7.3E-14, -718.33023563570532
DataValue, -1.5, 0.8, 0, -7.7E-14, -5.5000000000000005E-14, -5.5000000000000005E-14, -444.99893462675112
DataValue, -1.44, 0.8, 0, -5.6E-14, -4.2000000000000004E-14, -4.0000000000000006E-14, -537.77041412694768
DataValue, -1.3800000000000001, 0.8, 0, -2.3000000000000003E-14, -4.4E-14, -3.8E-14, 898.66508273023248
DataValue, -1.32, 0.8, 0, -2.7000000000000002E-14, -4.8000000000000004E-14, -3.3000000000000005E-14, -692.55386347905164
DataValue, -1.26, 0.8, 0, -2.9E-14, -3.7E-14, -5.3E-14, -513.6659736874692
DataValue, -1.2, 0.8, 0, -7.8000000000000008E-14, -3.8E-14, -6.2E-14, 317.40478512517655
DataValue, -1.1400000000000001, 0.8, 0, -6.5E-14, -5.4000000000000003E-14, -6.1E-14, -202.33913414012588
DataValue, -1.08, 0.8, 0, -2.6000000000000003E-14, -2.1000000000000002E-14, -4.7E-14, -3179.6226056791147
DataValue, -1.02, 0.8, 0, -1.0000000000000002E-14, -5.2000000000000006E-14, -4.3000000000000006E-14, 124.63508567022167
DataValue, -0.96, 0.8, 0, -4.5000000000000004E-14, -5.5000000000000005E-14, -8.3000000000000012E-14, 250.22255197157884
