
SetupTitle, I/V Sweep - Unit (transfer)
PrimitiveTest, I/V Sweep
TestParameter, Context.MainFrame, B1500A
TestParameter, Channel.UnitType, SMU, SMU, SMU
TestParameter, Channel.Unit, SMU3:HR, SMU1:HR, SMU2:HR
TestParameter, Channel.IName, IG, ID, IS
TestParameter, Channel.VName, VG, VD, VS
TestParameter, Channel.Mode, V, V, COMMON
TestParameter, Channel.Func, VAR1, VAR2, CONST
TestParameter, Channel.Index, 
TestParameter, Channel.Time, 
TestParameter, Measurement.Port.Unit, SMU3:HR, SMU1:HR, SMU2:HR
TestParameter, Measurement.Port.SeriesResistor, NONE, NONE, NONE
TestParameter, Measurement.Port.Filter, ON, ON, ON
TestParameter, Measurement.Port.OutputVoltageComparison, 0, 0, 0
TestParameter, Measurement.Primary.Locus, Single
TestParameter, Measurement.Primary.Scale, LINEAR
TestParameter, Measurement.Primary.Start, -3
TestParameter, Measurement.Primary.Stop, 3
TestParameter, Measurement.Primary.Step, 0.06
TestParameter, Measurement.Primary.Compliance, 0.1
TestParameter, Measurement.Primary.PowerCompliance, 0
TestParameter, Measurement.Aborting.Condition, CONTINUE AT ANY
TestParameter, Measurement.PostOutput.Value, START
TestParameter, Measurement.PostOutput.Retention, OFF
TestParameter, Measurement.Secondary.Start, 0.1
TestParameter, Measurement.Secondary.Count, 5
TestParameter, Measurement.Secondary.Step, 0.70000000000000007
TestParameter, Measurement.Secondary.Compliance, 0.1
TestParameter, Measurement.Secondary.PowerCompliance, 0
TestParameter, Measurement.Bias.Source, -3, 0.1, 0
TestParameter, Measurement.Bias.Compliance, 0.1, 0.1, 0.1
TestParameter, Measurement.Monitor.Unit, SMU3:HR, SMU1:HR, SMU2:HR
TestParameter, Measurement.Monitor.Adc, HR ADC, HR ADC, HR ADC
TestParameter, Measurement.Monitor.Measurement, Compliance Side, Compliance Side, Compliance Side
TestParameter, Measurement.Monitor.RangingMode, LIMITED, LIMITED, LIMITED
TestParameter, Measurement.Monitor.RangeBoundary, 1nA, 1nA, 1nA
TestParameter, Measurement.Monitor.RangeRating, BY FULL RANGE, BY FULL RANGE, BY FULL RANGE
TestParameter, Measurement.Monitor.RangeRatingCoeff, 50, 50, 50
TestParameter, Measurement.Timing.Hold, 0
TestParameter, Measurement.Timing.Delay, 0
TestParameter, Measurement.Adc.HighSpeed.Mode, PLC
TestParameter, Measurement.Adc.HighSpeed.Coeff, 5
TestParameter, Measurement.Adc.HighResolution.AutoZero, OFF
TestParameter, Measurement.Adc.HighResolution.Mode, PLC
TestParameter, Measurement.Adc.HighResolution.Coeff, 5
TestParameter, Measurement.WaitTime.Source.Coeff, 1
TestParameter, Measurement.WaitTime.Source.Offset, 0
TestParameter, Measurement.WaitTime.Monitor.Coeff, 1
TestParameter, Measurement.WaitTime.Monitor.Offset, 0
TestParameter, Function.User.Name, SS
TestParameter, Function.User.Unit, mV/dec
TestParameter, Function.User.Definition, diff(VG,log(ID))*1000
TestParameter, Output.Graph.Enabled, true
TestParameter, Output.Graph.AutoScaling, false
TestParameter, Output.Graph.XAxis.Data, VG
TestParameter, Output.Graph.XAxis.Scale, Linear
TestParameter, Output.Graph.XAxis.Left, -3
TestParameter, Output.Graph.XAxis.Right, 3
TestParameter, Output.Graph.XAxis.RunTimeAutoScale, true
TestParameter, Output.Graph.YAxis.Data, ID, IG
TestParameter, Output.Graph.YAxis.Scale, Log, Log
TestParameter, Output.Graph.YAxis.Bottom, 0, 1E-15
TestParameter, Output.Graph.YAxis.Top, 0.0001, 1E-12
TestParameter, Output.Graph.YAxis.Group, , 
TestParameter, Output.Graph.YAxis.RunTimeAutoScale, true, true
TestParameter, Output.List.Data, VG, VD, VS, IG, ID, IS, SS
TestParameter, Output.Scalar.Data, SS
TestParameter, AutoAnalysis.Interpolation, false
TestParameter, AutoAnalysis.Var2StepCount, 1
TestParameter, AutoAnalysis.Var2StepScript, 
TestParameter, AutoAnalysis.Line1.Enabled, false
TestParameter, AutoAnalysis.Line1.Type, 1
TestParameter, AutoAnalysis.Line1.Fix, True
TestParameter, AutoAnalysis.Line1.YAxis, 0
TestParameter, AutoAnalysis.Line1.Point1.Type, 0
TestParameter, AutoAnalysis.Line1.Point1.XY.X, 
TestParameter, AutoAnalysis.Line1.Point1.XY.Y, 
TestParameter, AutoAnalysis.Line1.Point1.Data.Var, 
TestParameter, AutoAnalysis.Line1.Point1.Data.Condition, 
TestParameter, AutoAnalysis.Line1.Point1.Data.Start, false
TestParameter, AutoAnalysis.Line1.Point1.Data.StartVar, 
TestParameter, AutoAnalysis.Line1.Point1.Data.StartCondition, 
TestParameter, AutoAnalysis.Line1.Point2.Type, 0
TestParameter, AutoAnalysis.Line1.Point2.XY.X, 
TestParameter, AutoAnalysis.Line1.Point2.XY.Y, 
TestParameter, AutoAnalysis.Line1.Point2.Data.Var, 
TestParameter, AutoAnalysis.Line1.Point2.Data.Condition, 
TestParameter, AutoAnalysis.Line1.Point2.Data.Start, false
TestParameter, AutoAnalysis.Line1.Point2.Data.StartVar, 
TestParameter, AutoAnalysis.Line1.Point2.Data.StartCondition, 
TestParameter, AutoAnalysis.Line1.GradientExpr, 0
TestParameter, AutoAnalysis.Line2.Enabled, false
TestParameter, AutoAnalysis.Line2.Type, 1
TestParameter, AutoAnalysis.Line2.Fix, True
TestParameter, AutoAnalysis.Line2.YAxis, 0
TestParameter, AutoAnalysis.Line2.Point1.Type, 0
TestParameter, AutoAnalysis.Line2.Point1.XY.X, 
TestParameter, AutoAnalysis.Line2.Point1.XY.Y, 
TestParameter, AutoAnalysis.Line2.Point1.Data.Var, 
TestParameter, AutoAnalysis.Line2.Point1.Data.Condition, 
TestParameter, AutoAnalysis.Line2.Point1.Data.Start, false
TestParameter, AutoAnalysis.Line2.Point1.Data.StartVar, 
TestParameter, AutoAnalysis.Line2.Point1.Data.StartCondition, 
TestParameter, AutoAnalysis.Line2.Point2.Type, 0
TestParameter, AutoAnalysis.Line2.Point2.XY.X, 
TestParameter, AutoAnalysis.Line2.Point2.XY.Y, 
TestParameter, AutoAnalysis.Line2.Point2.Data.Var, 
TestParameter, AutoAnalysis.Line2.Point2.Data.Condition, 
TestParameter, AutoAnalysis.Line2.Point2.Data.Start, false
TestParameter, AutoAnalysis.Line2.Point2.Data.StartVar, 
TestParameter, AutoAnalysis.Line2.Point2.Data.StartCondition, 
TestParameter, AutoAnalysis.Line2.GradientExpr, 0
TestParameter, AutoAnalysis.Marker.Enabled, false
TestParameter, AutoAnalysis.Marker.Data.Var, 
TestParameter, AutoAnalysis.Marker.Data.Condition, 
TestParameter, AutoAnalysis.Marker.Data.Start, false
TestParameter, AutoAnalysis.Marker.Data.StartVar, 
TestParameter, AutoAnalysis.Marker.Data.StartCondition, 
MetaData, TestRecord.EntryPoint, true
MetaData, TestRecord.RecordTime, 01/16/2026 10:37:16
MetaData, TestRecord.TestTarget, 251203_ALD_#5_R00
MetaData, TestRecord.IterationIndex, 5
MetaData, TestRecord.Preservation, true
MetaData, TestRecord.Flag, 
MetaData, TestRecord.Remarks, 
MetaData, TestRecord.LinkKey, dadbc2fd-64eb-4c04-8458-84f18b582899
MetaData, TestRecord.Parameters, 
Dimension1, 101, 101, 101, 101, 101, 101, 101
Dimension2, 5, 5, 5, 5, 5, 5, 5
DataName, VG, VD, VS, IG, ID, IS, SS
DataValue, -3, 0.1, 0, -1.8500000000000002E-13, -2.4000000000000002E-14, -3.1E-14, 67.997207294070009
DataValue, -2.94, 0.1, 0, -1.0500000000000001E-13, -5.8E-14, -7.5000000000000009E-14, 138.72873467542325
DataValue, -2.88, 0.1, 0, -5.3E-14, -5.700000000000001E-14, -5.2000000000000006E-14, -76.164538622412792
DataValue, -2.82, 0.1, 0, -4.9000000000000006E-14, -1.2000000000000001E-14, -6.3000000000000009E-14, -316.21418119653521
DataValue, -2.7600000000000002, 0.1, 0, -2.3000000000000003E-14, -3.9000000000000004E-14, -1.2000000000000001E-14, 90.788325929851879
DataValue, -2.7, 0.1, 0, -5E-14, -4.5000000000000004E-14, -6.5E-14, 447.32057225894783
DataValue, -2.64, 0.1, 0, -6.4E-14, -5.1000000000000004E-14, -6.8E-14, 548.723940050875
DataValue, -2.58, 0.1, 0, -4.3000000000000006E-14, -5.6E-14, -5.3E-14, -30.520173377285097
DataValue, -2.52, 0.1, 0, -6.3000000000000009E-14, 1E-15, -6.4E-14, 1178.9823487535816
DataValue, -2.46, 0.1, 0, -6.3000000000000009E-14, -6.2E-14, -4.1E-14, 33.486637593074875
DataValue, -2.4, 0.1, 0, -4.6000000000000006E-14, -3.6000000000000004E-14, -6.0000000000000009E-14, -0
DataValue, -2.34, 0.1, 0, -7.2000000000000009E-14, 0, -5.8E-14, 537.77041412694666
DataValue, -2.2800000000000002, 0.1, 0, -4.6000000000000006E-14, -4.5000000000000004E-14, -5.3E-14, 0
DataValue, -2.22, 0.1, 0, -7.1E-14, -2.8E-14, -4.4E-14, 394.46256812552508
DataValue, -2.16, 0.1, 0, -5.1000000000000004E-14, -6.1E-14, -2.4000000000000002E-14, 173.12340490667529
DataValue, -2.1, 0.1, 0, -5.700000000000001E-14, -5.6E-14, -4.6000000000000006E-14, 1523.2122727007468
DataValue, -2.04, 0.1, 0, -3.6000000000000004E-14, -6.6000000000000009E-14, -3.5E-14, -156.40168668216509
DataValue, -1.98, 0.1, 0, -3.0000000000000005E-14, -2.6000000000000003E-14, -8.0000000000000013E-14, -465.42456096141046
DataValue, -1.92, 0.1, 0, -6.5E-14, -5.1000000000000004E-14, -6.4E-14, 117.81227540962593
DataValue, -1.86, 0.1, 0, -4.5000000000000004E-14, -7.2000000000000009E-14, -9.4E-14, -958.74869524564713
DataValue, -1.8, 0.1, 0, -4.0000000000000006E-14, -4.5000000000000004E-14, -6.0000000000000009E-14, -329.08889686482763
DataValue, -1.74, 0.1, 0, -2.9E-14, -5E-14, -7.3E-14, 472.8495301098028
DataValue, -1.68, 0.1, 0, -4.7E-14, -5.8E-14, -5E-14, 186.95843802645422
DataValue, -1.62, 0.1, 0, -5.9E-14, -9.5000000000000012E-14, -7.4E-14, -224.6843945668526
DataValue, -1.56, 0.1, 0, -6.2E-14, -3.4E-14, -1.0500000000000001E-13, -134.78371914942466
DataValue, -1.5, 0.1, 0, -4.4E-14, -3.9000000000000004E-14, -8.8E-14, 640.9861200945586
DataValue, -1.44, 0.1, 0, -6.0000000000000009E-14, -4.1E-14, -6.5E-14, 302.35735602336075
DataValue, -1.3800000000000001, 0.1, 0, -3.4E-14, -5.8E-14, -7.2000000000000009E-14, -73.433546563364573
DataValue, -1.32, 0.1, 0, -4.0000000000000006E-14, -8E-15, -9.9000000000000007E-14, -173.1234049066762
DataValue, -1.26, 0.1, 0, -4.3000000000000006E-14, -2.9E-14, -3.9000000000000004E-14, 61.667801084370076
DataValue, -1.2, 0.1, 0, -5.2000000000000006E-14, -5.6E-14, -6.9000000000000009E-14, 165.05083453073061
DataValue, -1.1400000000000001, 0.1, 0, -3.6000000000000004E-14, -6.0000000000000009E-14, -6.8E-14, -214.43283514697231
DataValue, -1.08, 0.1, 0, -2.0000000000000003E-14, -3.2E-14, -5.8E-14, -315.14881303813
DataValue, -1.02, 0.1, 0, -6.4E-14, -4.1E-14, -5.6E-14, 295.95641548517256
DataValue, -0.96, 0.1, 0, -4.3000000000000006E-14, -4.8000000000000004E-14, -8.8E-14, -484.19083845326725
DataValue, -0.9, 0.1, 0, -4.2000000000000004E-14, -3.2E-14, -4.2000000000000004E-14, 1018.8224418844483
DataValue, -0.84, 0.1, 0, -4.1E-14, -5.4000000000000003E-14, -6.1E-14, 281.63434596669373
DataValue, -0.78, 0.1, 0, -2.1000000000000002E-14, -4.9000000000000006E-14, -4.2000000000000004E-14, -147.97820774258614
DataValue, -0.72, 0.1, 0, -4.2000000000000004E-14, -2.4000000000000002E-14, -8.7000000000000008E-14, 301.02412694739473
DataValue, -0.66, 0.1, 0, -3.8E-14, -7.3E-14, -7E-14, 468.87202735689607
DataValue, -0.6, 0.1, 0, -4.1E-14, -3.1E-14, -9.8000000000000012E-14, -1691.2905421634407
DataValue, -0.54, 0.1, 0, -5.4000000000000003E-14, -6.8E-14, -9.2000000000000012E-14, 
DataValue, -0.48, 0.1, 0, -2.4000000000000002E-14, -3.1E-14, -6.1E-14, -1299.0763981396237
DataValue, -0.42, 0.1, 0, -5.8E-14, -6.2E-14, -5.3E-14, 342.65895926035824
DataValue, -0.36, 0.1, 0, -1.2000000000000001E-14, -4.4E-14, -6.3000000000000009E-14, -165.30359995535244
DataValue, -0.3, 0.1, 0, -4.4E-14, -3.0000000000000005E-14, -5.8E-14, -92.358632773389374
DataValue, -0.24, 0.1, 0, -4.5000000000000004E-14, -1.2000000000000001E-14, -1.35E-13, 44.951558857129733
DataValue, -0.18, 0.1, 0, -1.2000000000000001E-14, 4.33E-13, -6.2000000000000008E-13, 19.961834961368488
DataValue, -0.12, 0.1, 0, -7E-15, 4.8970000000000006E-12, -4.9870000000000005E-12, 25.944447540286404
DataValue, -0.06, 0.1, 0, -1.3000000000000001E-14, 4.4179E-11, -4.4065000000000005E-11, 28.108693908673313
DataValue, 0, 0.1, 0, -2.8E-14, 3.4994100000000004E-10, -3.4880800000000004E-10, 31.400601003024104
DataValue, 0.06, 0.1, 0, -3.7E-14, 2.01794E-09, -2.01134E-09, 38.950160088402548
DataValue, 0.12, 0.1, 0, -1.3000000000000001E-14, 7.62071E-09, -7.60586E-09, 52.891545938410971
DataValue, 0.18, 0.1, 0, -1.4E-14, 1.9508899999999997E-08, -1.94855E-08, 74.298453979444673
DataValue, 0.24, 0.1, 0, -3.4E-14, 3.83202E-08, -3.8281E-08, 101.79247411990609
DataValue, 0.3, 0.1, 0, 3.0000000000000002E-15, 6.3417499999999992E-08, -6.3364399999999993E-08, 133.84620835279034
DataValue, 0.36, 0.1, 0, -7.3E-14, 9.3927999999999992E-08, -9.3870099999999985E-08, 168.28505622914983
DataValue, 0.42, 0.1, 0, 1E-15, 1.29388E-07, -1.29326E-07, 204.00669847559976
DataValue, 0.48, 0.1, 0, -3.9000000000000004E-14, 1.69143E-07, -1.69074E-07, 240.69043420784473
DataValue, 0.54, 0.1, 0, 1.6E-14, 2.1301899999999998E-07, -2.12954E-07, 278.15081248653581
DataValue, 0.6, 0.1, 0, -5.2000000000000006E-14, 2.60386E-07, -2.60311E-07, 316.49137562054972
DataValue, 0.66, 0.1, 0, -4.1E-14, 3.11232E-07, -3.1114399999999997E-07, 355.27939065708637
DataValue, 0.72, 0.1, 0, -1.7E-14, 3.65011E-07, -3.64916E-07, 394.69097666895459
DataValue, 0.78, 0.1, 0, -4.5000000000000004E-14, 4.21818E-07, -4.2172099999999997E-07, 434.3441729942565
DataValue, 0.84, 0.1, 0, -6.2E-14, 4.81163E-07, -4.81064E-07, 475.08047682607446
DataValue, 0.9, 0.1, 0, -4.9000000000000006E-14, 5.43029E-07, -5.42925E-07, 515.758666365081
DataValue, 0.96, 0.1, 0, -7E-15, 6.07209E-07, -6.07102E-07, 556.93544041223981
DataValue, 1.02, 0.1, 0, -1.8000000000000002E-14, 6.7359399999999994E-07, -6.73496E-07, 598.67542531890717
DataValue, 1.08, 0.1, 0, -5.8E-14, 7.41975E-07, -7.4187299999999994E-07, 642.04230287089354
DataValue, 1.1400000000000001, 0.1, 0, -3.4E-14, 8.12025E-07, -8.11902E-07, 684.850610256311
DataValue, 1.2, 0.1, 0, -6.0000000000000005E-15, 8.8407E-07, -8.83945E-07, 726.74247536468613
DataValue, 1.26, 0.1, 0, -9.0000000000000011E-15, 9.57812E-07, -9.57702E-07, 769.881211617134
DataValue, 1.32, 0.1, 0, -4.1E-14, 1.033188E-06, -1.033049E-06, 813.470923103489
DataValue, 1.3800000000000001, 0.1, 0, -5.2000000000000006E-14, 1.110058E-06, -1.109924E-06, 858.89351847416913
DataValue, 1.44, 0.1, 0, -4.0000000000000006E-14, 1.1881100000000002E-06, -1.1881800000000002E-06, 904.26001185803534
DataValue, 1.5, 0.1, 0, -4E-15, 1.26759E-06, -1.2677400000000002E-06, 947.64981555769282
DataValue, 1.56, 0.1, 0, -3.4E-14, 1.3485E-06, -1.34866E-06, 993.53592625424938
DataValue, 1.62, 0.1, 0, 4E-15, 1.4303200000000002E-06, -1.4305100000000002E-06, 1038.9785287223308
DataValue, 1.68, 0.1, 0, -3.0000000000000005E-14, 1.5136000000000002E-06, -1.5137600000000002E-06, 1083.3547740326731
DataValue, 1.74, 0.1, 0, -1.2000000000000001E-14, 1.5978600000000002E-06, -1.5980400000000003E-06, 1132.5427161443415
DataValue, 1.8, 0.1, 0, -3.9000000000000004E-14, 1.68278E-06, -1.6829700000000003E-06, 1179.3706701551848
DataValue, 1.86, 0.1, 0, -2.7000000000000002E-14, 1.7690000000000001E-06, -1.7691500000000003E-06, 1226.4704292023405
DataValue, 1.92, 0.1, 0, -1E-15, 1.8557500000000002E-06, -1.8558700000000001E-06, 1275.5636761706735
DataValue, 1.98, 0.1, 0, -3.3000000000000005E-14, 1.9435E-06, -1.94358E-06, 1323.8747469278583
DataValue, 2.04, 0.1, 0, -3.7E-14, 2.0318200000000003E-06, -2.0319100000000003E-06, 1372.9675657879627
DataValue, 2.1, 0.1, 0, -6.0000000000000005E-15, 2.1210100000000004E-06, -2.1210200000000002E-06, 1422.8705886773241
DataValue, 2.16, 0.1, 0, -4.4E-14, 2.2106100000000003E-06, -2.21068E-06, 1471.8572698577639
DataValue, 2.22, 0.1, 0, -1.0000000000000002E-14, 2.3011800000000004E-06, -2.3011500000000004E-06, 1519.8856218783269
DataValue, 2.2800000000000002, 0.1, 0, -7E-15, 2.3922200000000003E-06, -2.3921800000000004E-06, 1573.6699042247294
DataValue, 2.34, 0.1, 0, -6.6000000000000009E-14, 2.48352E-06, -2.4834200000000004E-06, 1627.3317080076674
DataValue, 2.4, 0.1, 0, -1.4E-14, 2.5752900000000003E-06, -2.57522E-06, 1678.1801062660829
DataValue, 2.46, 0.1, 0, -3.0000000000000005E-14, 2.6676100000000004E-06, -2.66751E-06, 1728.6814252312402
DataValue, 2.52, 0.1, 0, -2.5E-14, 2.76041E-06, -2.7602000000000003E-06, 1782.4035601028979
DataValue, 2.58, 0.1, 0, -9.0000000000000011E-15, 2.8533900000000002E-06, -2.8531600000000002E-06, 1837.8663099578348
DataValue, 2.64, 0.1, 0, -5.2000000000000006E-14, 2.9466600000000003E-06, -2.94655E-06, 1894.5408315059974
DataValue, 2.7, 0.1, 0, -1.4E-14, 3.03997E-06, -3.03968E-06, 1949.2786007587224
DataValue, 2.7600000000000002, 0.1, 0, 9.0000000000000011E-15, 3.13376E-06, -3.1333700000000004E-06, 2001.8734408527155
DataValue, 2.82, 0.1, 0, -2.7000000000000002E-14, 3.2277700000000003E-06, -3.22743E-06, 2057.8821268888264
DataValue, 2.88, 0.1, 0, 1.0000000000000002E-14, 3.3219300000000003E-06, -3.3215200000000004E-06, 2114.028192628884
DataValue, 2.94, 0.1, 0, -2.6000000000000003E-14, 3.4162900000000004E-06, -3.4157800000000003E-06, 2171.96263575266
DataValue, 3, 0.1, 0, -5.0000000000000008E-15, 3.5106300000000003E-06, -3.5101100000000003E-06, 2202.6155489692774
DataValue, -3, 0.8, 0, -2.4100000000000003E-13, -9.0000000000000011E-15, -2.7000000000000002E-14, 61.172726869396193
DataValue, -2.94, 0.8, 0, -1.0500000000000001E-13, -2.4000000000000002E-14, -6.8E-14, -477.48949720415646
DataValue, -2.88, 0.8, 0, -9.9000000000000007E-14, -7E-15, -3.1E-14, -295.95641548517256
DataValue, -2.82, 0.8, 0, -7.8000000000000008E-14, -1.6E-14, -6.9000000000000009E-14, 56.29501943885608
DataValue, -2.7600000000000002, 0.8, 0, -8.9000000000000012E-14, -5.9E-14, -6.1E-14, 94.453788044433523
DataValue, -2.7, 0.8, 0, -4.8000000000000004E-14, -5.700000000000001E-14, -6.9000000000000009E-14, 1829.3440742146063
DataValue, -2.64, 0.8, 0, -6.3000000000000009E-14, -6.3000000000000009E-14, -2.4000000000000002E-14, 354.00802459158609
DataValue, -2.58, 0.8, 0, -7.3E-14, -8.0000000000000013E-14, -3.2E-14, -441.28400844513556
DataValue, -2.52, 0.8, 0, -5.6E-14, -4.8000000000000004E-14, -5.700000000000001E-14, -898.66508273023419
DataValue, -2.46, 0.8, 0, -8.4000000000000008E-14, -7E-14, -8.2E-14, -1090.9002128227298
DataValue, -2.4, 0.8, 0, -5.4000000000000003E-14, -4.3000000000000006E-14, -4.7E-14, -153.30382402723447
DataValue, -2.34, 0.8, 0, -5.1000000000000004E-14, -3.2E-14, -5.6E-14, 360.2041134121672
DataValue, -2.2800000000000002, 0.8, 0, -4.5000000000000004E-14, -6.0000000000000009E-14, -6.0000000000000009E-14, 169.33573485050309
DataValue, -2.22, 0.8, 0, -5.4000000000000003E-14, -6.5E-14, -3.4E-14, 3659.6721076477625
DataValue, -2.16, 0.8, 0, -6.0000000000000009E-14, -6.2E-14, -3.6000000000000004E-14, -347.07572593035411
DataValue, -2.1, 0.8, 0, -6.4E-14, -4.6000000000000006E-14, -8.4000000000000008E-14, -290.16183215492492
DataValue, -2.04, 0.8, 0, -5.3E-14, -4.1E-14, -4.5000000000000004E-14, 347.07572593035411
DataValue, -1.98, 0.8, 0, -7E-14, -6.5E-14, -8.8E-14, 408.49517662935904
DataValue, -1.92, 0.8, 0, -8E-15, -5.5000000000000005E-14, -6.9000000000000009E-14, -647.23793817505043
DataValue, -1.86, 0.8, 0, -5.0000000000000008E-15, -5.4000000000000003E-14, -7.2000000000000009E-14, -302.71285769719321
DataValue, -1.8, 0.8, 0, -5.5000000000000005E-14, -3.7E-14, -6.1E-14, -295.95641548517256
DataValue, -1.74, 0.8, 0, -4.4E-14, -3.6000000000000004E-14, -7.7E-14, -678.23161535141332
DataValue, -1.68, 0.8, 0, -5.4000000000000003E-14, -3.1E-14, -4.9000000000000006E-14, 675.36697958519278
DataValue, -1.62, 0.8, 0, -7.4E-14, -4.3000000000000006E-14, -8.0000000000000013E-14, 191.55381567053883
DataValue, -1.56, 0.8, 0, -4.7E-14, -5.8E-14, -5.8E-14, 401.01202756712576
DataValue, -1.5, 0.8, 0, -4.7E-14, -5.8E-14, -4.9000000000000006E-14, -371.77785677638258
DataValue, -1.44, 0.8, 0, -3.8E-14, -4.2000000000000004E-14, -1.0100000000000001E-13, 1799.3331356874578
DataValue, -1.3800000000000001, 0.8, 0, -4.3000000000000006E-14, -6.2E-14, -9.2000000000000012E-14, 179.358891780251
DataValue, -1.32, 0.8, 0, -8.4000000000000008E-14, -8.2E-14, -4.8000000000000004E-14, -3659.6721076477625
DataValue, -1.26, 0.8, 0, -2.7000000000000002E-14, -6.0000000000000009E-14, -6.3000000000000009E-14, -364.54019868558828
DataValue, -1.2, 0.8, 0, -3.5E-14, -5.9E-14, -3.9000000000000004E-14, -451.63180374215773
DataValue, -1.1400000000000001, 0.8, 0, -4.0000000000000006E-14, -4.6000000000000006E-14, -5.2000000000000006E-14, -443.00884289219317
