
SetupTitle, I/V Sweep - Unit (transfer)
PrimitiveTest, I/V Sweep
TestParameter, Context.MainFrame, B1500A
TestParameter, Channel.UnitType, SMU, SMU, SMU
TestParameter, Channel.Unit, SMU3:HR, SMU1:HR, SMU2:HR
TestParameter, Channel.IName, IG, ID, IS
TestParameter, Channel.VName, VG, VD, VS
TestParameter, Channel.Mode, V, V, COMMON
TestParameter, Channel.Func, VAR1, VAR2, CONST
TestParameter, Channel.Index, 
TestParameter, Channel.Time, 
TestParameter, Measurement.Port.Unit, SMU3:HR, SMU1:HR, SMU2:HR
TestParameter, Measurement.Port.SeriesResistor, NONE, NONE, NONE
TestParameter, Measurement.Port.Filter, ON, ON, ON
TestParameter, Measurement.Port.OutputVoltageComparison, 0, 0, 0
TestParameter, Measurement.Primary.Locus, Single
TestParameter, Measurement.Primary.Scale, LINEAR
TestParameter, Measurement.Primary.Start, -3
TestParameter, Measurement.Primary.Stop, 3
TestParameter, Measurement.Primary.Step, 0.06
TestParameter, Measurement.Primary.Compliance, 0.1
TestParameter, Measurement.Primary.PowerCompliance, 0
TestParameter, Measurement.Aborting.Condition, CONTINUE AT ANY
TestParameter, Measurement.PostOutput.Value, START
TestParameter, Measurement.PostOutput.Retention, OFF
TestParameter, Measurement.Secondary.Start, 0.1
TestParameter, Measurement.Secondary.Count, 5
TestParameter, Measurement.Secondary.Step, 0.70000000000000007
TestParameter, Measurement.Secondary.Compliance, 0.1
TestParameter, Measurement.Secondary.PowerCompliance, 0
TestParameter, Measurement.Bias.Source, -3, 0.1, 0
TestParameter, Measurement.Bias.Compliance, 0.1, 0.1, 0.1
TestParameter, Measurement.Monitor.Unit, SMU3:HR, SMU1:HR, SMU2:HR
TestParameter, Measurement.Monitor.Adc, HR ADC, HR ADC, HR ADC
TestParameter, Measurement.Monitor.Measurement, Compliance Side, Compliance Side, Compliance Side
TestParameter, Measurement.Monitor.RangingMode, LIMITED, LIMITED, LIMITED
TestParameter, Measurement.Monitor.RangeBoundary, 1nA, 1nA, 1nA
TestParameter, Measurement.Monitor.RangeRating, BY FULL RANGE, BY FULL RANGE, BY FULL RANGE
TestParameter, Measurement.Monitor.RangeRatingCoeff, 50, 50, 50
TestParameter, Measurement.Timing.Hold, 0
TestParameter, Measurement.Timing.Delay, 0
TestParameter, Measurement.Adc.HighSpeed.Mode, PLC
TestParameter, Measurement.Adc.HighSpeed.Coeff, 5
TestParameter, Measurement.Adc.HighResolution.AutoZero, OFF
TestParameter, Measurement.Adc.HighResolution.Mode, PLC
TestParameter, Measurement.Adc.HighResolution.Coeff, 5
TestParameter, Measurement.WaitTime.Source.Coeff, 1
TestParameter, Measurement.WaitTime.Source.Offset, 0
TestParameter, Measurement.WaitTime.Monitor.Coeff, 1
TestParameter, Measurement.WaitTime.Monitor.Offset, 0
TestParameter, Function.User.Name, SS
TestParameter, Function.User.Unit, mV/dec
TestParameter, Function.User.Definition, diff(VG,log(ID))*1000
TestParameter, Output.Graph.Enabled, true
TestParameter, Output.Graph.AutoScaling, false
TestParameter, Output.Graph.XAxis.Data, VG
TestParameter, Output.Graph.XAxis.Scale, Linear
TestParameter, Output.Graph.XAxis.Left, -3
TestParameter, Output.Graph.XAxis.Right, 3
TestParameter, Output.Graph.XAxis.RunTimeAutoScale, true
TestParameter, Output.Graph.YAxis.Data, ID, IG
TestParameter, Output.Graph.YAxis.Scale, Log, Log
TestParameter, Output.Graph.YAxis.Bottom, 0, 1E-15
TestParameter, Output.Graph.YAxis.Top, 0.0001, 1E-12
TestParameter, Output.Graph.YAxis.Group, , 
TestParameter, Output.Graph.YAxis.RunTimeAutoScale, true, true
TestParameter, Output.List.Data, VG, VD, VS, IG, ID, IS, SS
TestParameter, Output.Scalar.Data, SS
TestParameter, AutoAnalysis.Interpolation, false
TestParameter, AutoAnalysis.Var2StepCount, 1
TestParameter, AutoAnalysis.Var2StepScript, 
TestParameter, AutoAnalysis.Line1.Enabled, false
TestParameter, AutoAnalysis.Line1.Type, 1
TestParameter, AutoAnalysis.Line1.Fix, True
TestParameter, AutoAnalysis.Line1.YAxis, 0
TestParameter, AutoAnalysis.Line1.Point1.Type, 0
TestParameter, AutoAnalysis.Line1.Point1.XY.X, 
TestParameter, AutoAnalysis.Line1.Point1.XY.Y, 
TestParameter, AutoAnalysis.Line1.Point1.Data.Var, 
TestParameter, AutoAnalysis.Line1.Point1.Data.Condition, 
TestParameter, AutoAnalysis.Line1.Point1.Data.Start, false
TestParameter, AutoAnalysis.Line1.Point1.Data.StartVar, 
TestParameter, AutoAnalysis.Line1.Point1.Data.StartCondition, 
TestParameter, AutoAnalysis.Line1.Point2.Type, 0
TestParameter, AutoAnalysis.Line1.Point2.XY.X, 
TestParameter, AutoAnalysis.Line1.Point2.XY.Y, 
TestParameter, AutoAnalysis.Line1.Point2.Data.Var, 
TestParameter, AutoAnalysis.Line1.Point2.Data.Condition, 
TestParameter, AutoAnalysis.Line1.Point2.Data.Start, false
TestParameter, AutoAnalysis.Line1.Point2.Data.StartVar, 
TestParameter, AutoAnalysis.Line1.Point2.Data.StartCondition, 
TestParameter, AutoAnalysis.Line1.GradientExpr, 0
TestParameter, AutoAnalysis.Line2.Enabled, false
TestParameter, AutoAnalysis.Line2.Type, 1
TestParameter, AutoAnalysis.Line2.Fix, True
TestParameter, AutoAnalysis.Line2.YAxis, 0
TestParameter, AutoAnalysis.Line2.Point1.Type, 0
TestParameter, AutoAnalysis.Line2.Point1.XY.X, 
TestParameter, AutoAnalysis.Line2.Point1.XY.Y, 
TestParameter, AutoAnalysis.Line2.Point1.Data.Var, 
TestParameter, AutoAnalysis.Line2.Point1.Data.Condition, 
TestParameter, AutoAnalysis.Line2.Point1.Data.Start, false
TestParameter, AutoAnalysis.Line2.Point1.Data.StartVar, 
TestParameter, AutoAnalysis.Line2.Point1.Data.StartCondition, 
TestParameter, AutoAnalysis.Line2.Point2.Type, 0
TestParameter, AutoAnalysis.Line2.Point2.XY.X, 
TestParameter, AutoAnalysis.Line2.Point2.XY.Y, 
TestParameter, AutoAnalysis.Line2.Point2.Data.Var, 
TestParameter, AutoAnalysis.Line2.Point2.Data.Condition, 
TestParameter, AutoAnalysis.Line2.Point2.Data.Start, false
TestParameter, AutoAnalysis.Line2.Point2.Data.StartVar, 
TestParameter, AutoAnalysis.Line2.Point2.Data.StartCondition, 
TestParameter, AutoAnalysis.Line2.GradientExpr, 0
TestParameter, AutoAnalysis.Marker.Enabled, false
TestParameter, AutoAnalysis.Marker.Data.Var, 
TestParameter, AutoAnalysis.Marker.Data.Condition, 
TestParameter, AutoAnalysis.Marker.Data.Start, false
TestParameter, AutoAnalysis.Marker.Data.StartVar, 
TestParameter, AutoAnalysis.Marker.Data.StartCondition, 
MetaData, TestRecord.EntryPoint, true
MetaData, TestRecord.RecordTime, 01/16/2026 10:55:26
MetaData, TestRecord.TestTarget, 251203_ALD_#9_R00
MetaData, TestRecord.IterationIndex, 10
MetaData, TestRecord.Preservation, true
MetaData, TestRecord.Flag, 
MetaData, TestRecord.Remarks, 
MetaData, TestRecord.LinkKey, 45d2aaa3-debb-4f9d-b77d-97993a151734
MetaData, TestRecord.Parameters, 
Dimension1, 101, 101, 101, 101, 101, 101, 101
Dimension2, 5, 5, 5, 5, 5, 5, 5
DataName, VG, VD, VS, IG, ID, IS, SS
DataValue, -3, 0.1, 0, -2.9900000000000004E-13, -4.5000000000000004E-14, -3.6000000000000004E-14, 298.99731927383937
DataValue, -2.94, 0.1, 0, -1.3100000000000002E-13, -5.5000000000000005E-14, -1.8000000000000002E-14, 597.99463854767873
DataValue, -2.88, 0.1, 0, -1.2100000000000002E-13, -5.5000000000000005E-14, -2.4000000000000002E-14, -408.49517662935904
DataValue, -2.82, 0.1, 0, -1.42E-13, -4.1E-14, -7.3E-14, -197.97543602137526
DataValue, -2.7600000000000002, 0.1, 0, -9.3000000000000008E-14, -3.0000000000000005E-14, -7.8000000000000008E-14, -4859.7530763833793
DataValue, -2.7, 0.1, 0, -6.9000000000000009E-14, -4.0000000000000006E-14, -4.5000000000000004E-14, -211.27354301328941
DataValue, -2.64, 0.1, 0, -9.1E-14, -1.7E-14, -4.2000000000000004E-14, 170.07533048118793
DataValue, -2.58, 0.1, 0, -1.0100000000000001E-13, -8.1000000000000008E-14, -3.0000000000000005E-14, 95.152667915493311
DataValue, -2.52, 0.1, 0, -8.1000000000000008E-14, -6.0000000000000009E-14, -3.0000000000000005E-14, -138.23473300441751
DataValue, -2.46, 0.1, 0, -9.9000000000000007E-14, -3.4E-14, -6.9000000000000009E-14, -838.56947972521914
DataValue, -2.4, 0.1, 0, -4.3000000000000006E-14, -5.2000000000000006E-14, -3.6000000000000004E-14, 129.3121881341813
DataValue, -2.34, 0.1, 0, -8.7000000000000008E-14, -8.6000000000000012E-14, -6.0000000000000009E-14, 473.46822028704509
DataValue, -2.2800000000000002, 0.1, 0, -6.1E-14, -6.7E-14, -7.6E-14, -406.1405570058609
DataValue, -2.22, 0.1, 0, -7.5000000000000009E-14, -6.4E-14, -2.1000000000000002E-14, -301.48471452241375
DataValue, -2.16, 0.1, 0, -3.1E-14, -4.5000000000000004E-14, -5.8E-14, -636.29702346326371
DataValue, -2.1, 0.1, 0, -7.6E-14, -5.3E-14, -5.3E-14, -252.92018505496228
DataValue, -2.04, 0.1, 0, -7.7E-14, -2.8E-14, -3.8E-14, -129.62190170785519
DataValue, -1.98, 0.1, 0, -5.5000000000000005E-14, -2.1000000000000002E-14, -5.5000000000000005E-14, -3299.6363315748526
DataValue, -1.92, 0.1, 0, -6.5E-14, -2.7000000000000002E-14, -6.5E-14, -250.22255197157861
DataValue, -1.86, 0.1, 0, -4.7E-14, -1.3000000000000001E-14, -4.6000000000000006E-14, 95.386472257215829
DataValue, -1.8, 0.1, 0, -4.9000000000000006E-14, -9.5000000000000012E-14, -5.3E-14, 77.62345410724069
DataValue, -1.74, 0.1, 0, -6.5E-14, -6.1E-14, -6.7E-14, -205.62558070170928
DataValue, -1.68, 0.1, 0, -3.8E-14, -5.3E-14, -3.7E-14, 7379.8373955086327
DataValue, -1.62, 0.1, 0, -4.5000000000000004E-14, -6.2E-14, -4.3000000000000006E-14, 765.09888461799574
DataValue, -1.56, 0.1, 0, -3.9000000000000004E-14, -6.2E-14, -3.4E-14, -2419.5040509210712
DataValue, -1.5, 0.1, 0, -8.6000000000000012E-14, -5.9E-14, -7.7E-14, -245.12396081484778
DataValue, -1.44, 0.1, 0, -1.0100000000000001E-13, -3.8E-14, -7.5000000000000009E-14, 602.62541260574312
DataValue, -1.3800000000000001, 0.1, 0, -7.5000000000000009E-14, -7.2000000000000009E-14, -7.5000000000000009E-14, 437.2590702722465
DataValue, -1.32, 0.1, 0, -8.4000000000000008E-14, -5E-14, -2.4000000000000002E-14, -173.1234049066762
DataValue, -1.26, 0.1, 0, -5.2000000000000006E-14, -3.6000000000000004E-14, -2.5E-14, -688.25734885410657
DataValue, -1.2, 0.1, 0, -3.0000000000000005E-14, -4.2000000000000004E-14, -5.3E-14, -477.48949720415555
DataValue, -1.1400000000000001, 0.1, 0, -5.9E-14, -2.8E-14, -5.8E-14, 222.63595373416626
DataValue, -1.08, 0.1, 0, -5E-14, -7.2000000000000009E-14, -5.4000000000000003E-14, 898.66508273023419
DataValue, -1.02, 0.1, 0, -4.8000000000000004E-14, -3.2E-14, -7.1E-14, -122.34545373879239
DataValue, -0.96, 0.1, 0, -3.2E-14, -2.7000000000000002E-14, -5.2000000000000006E-14, 351.98193566039151
DataValue, -0.9, 0.1, 0, -5.2000000000000006E-14, -4.5000000000000004E-14, -8.1000000000000008E-14, 194.74634744658403
DataValue, -0.84, 0.1, 0, -5.8E-14, -5E-14, -6.3000000000000009E-14, 472.8495301098024
DataValue, -0.78, 0.1, 0, -5.8E-14, -5.8E-14, -1.9E-14, 342.21488216657451
DataValue, -0.72, 0.1, 0, -7.1E-14, -7.1E-14, -2.8E-14, 1219.01575822324
DataValue, -0.66, 0.1, 0, -2.2E-14, -6.4E-14, -6.6000000000000009E-14, 427.63230948906818
DataValue, -0.6, 0.1, 0, 6.0000000000000005E-15, -9.4E-14, -1.2000000000000001E-14, -133.21690984510326
DataValue, -0.54, 0.1, 0, -5.5000000000000005E-14, -2.6000000000000003E-14, -7.2000000000000009E-14, -60.656748055824366
DataValue, -0.48, 0.1, 0, -5E-14, -1.3000000000000001E-14, -5.6E-14, 128.81642766291739
DataValue, -0.42, 0.1, 0, -6.6000000000000009E-14, -6.6000000000000009E-14, -5.1000000000000004E-14, 74.560192147153458
DataValue, -0.36, 0.1, 0, -3.5E-14, -6.5E-14, -3.5E-14, -165.76443863263171
DataValue, -0.3, 0.1, 0, -1.7E-14, -3.2E-14, -3.0000000000000005E-14, 299.75741486143346
DataValue, -0.24, 0.1, 0, -1.5000000000000002E-14, -9.7E-14, -4.3000000000000006E-14, 257.46115457084267
DataValue, -0.18, 0.1, 0, -8E-15, -5.1000000000000004E-14, -4.0000000000000006E-14, -135.46593984980257
DataValue, -0.12, 0.1, 0, -1.6E-14, -4.0000000000000006E-14, -7.7E-14, -549.81919511451247
DataValue, -0.06, 0.1, 0, -2.7000000000000002E-14, -4.1E-14, -6.6000000000000009E-14, -1539.2204635489418
DataValue, 0, 0.1, 0, 1.0000000000000002E-14, -3.7E-14, -3.6000000000000004E-14, 208.01287273037949
DataValue, 0.06, 0.1, 0, -1.9E-14, -7.3E-14, -5.3E-14, 1168.9736387069574
DataValue, 0.12, 0.1, 0, -2.9E-14, -4.1E-14, -5.9E-14, -140.10962044433762
DataValue, 0.18, 0.1, 0, -1.7E-14, -3.1E-14, -7.6E-14, -314.65707542650546
DataValue, 0.24, 0.1, 0, -2.2E-14, -2.8E-14, -1.18E-13, 46.472541343659053
DataValue, 0.3, 0.1, 0, -1.5000000000000002E-14, 4.1E-13, -5.34E-13, 23.551195382119229
DataValue, 0.36, 0.1, 0, -1.2000000000000001E-14, 4.5710000000000006E-12, -4.63E-12, 26.077731058830302
DataValue, 0.42, 0.1, 0, 2.0000000000000003E-14, 4.0855000000000004E-11, -4.0440000000000005E-11, 28.556861240479382
DataValue, 0.48, 0.1, 0, -2.7000000000000002E-14, 3.0547700000000004E-10, -3.0191400000000003E-10, 32.40626006303286
DataValue, 0.54, 0.1, 0, -1.8000000000000002E-14, 1.65742E-09, -1.6405E-09, 40.170784137440315
DataValue, 0.6, 0.1, 0, -4E-15, 6.05791E-09, -6.02405E-09, 53.6340973944556
DataValue, 0.66, 0.1, 0, -2.5E-14, 1.5528E-08, -1.54774E-08, 73.822246210990841
DataValue, 0.72, 0.1, 0, -1.2000000000000001E-14, 3.07808E-08, -3.0719399999999994E-08, 99.920857075626088
DataValue, 0.78, 0.1, 0, 1.6E-14, 5.1603799999999993E-08, -5.1539799999999993E-08, 130.20805080095565
DataValue, 0.84, 0.1, 0, -2.3000000000000003E-14, 7.7361799999999991E-08, -7.7290499999999987E-08, 163.31857316112144
DataValue, 0.9, 0.1, 0, -2.7000000000000002E-14, 1.0759299999999999E-07, -1.0752229999999999E-07, 197.83961022853131
DataValue, 0.96, 0.1, 0, 4E-15, 1.41889E-07, -1.41825E-07, 233.44487153331426
DataValue, 1.02, 0.1, 0, -4E-15, 1.79899E-07, -1.79833E-07, 269.89962108852836
DataValue, 1.08, 0.1, 0, -1.4E-14, 2.2132999999999998E-07, -2.2126099999999999E-07, 307.51536589349581
DataValue, 1.1400000000000001, 0.1, 0, 1E-15, 2.65767E-07, -2.65701E-07, 345.49510746689879
DataValue, 1.2, 0.1, 0, -2.4000000000000002E-14, 3.1324399999999997E-07, -3.13168E-07, 383.19490949932685
DataValue, 1.26, 0.1, 0, -3.0000000000000002E-15, 3.63499E-07, -3.63426E-07, 421.72055294782876
DataValue, 1.32, 0.1, 0, 1E-15, 4.16352E-07, -4.16277E-07, 460.902303618913
DataValue, 1.3800000000000001, 0.1, 0, -6.0000000000000005E-15, 4.71602E-07, -4.71519E-07, 500.78121169576042
DataValue, 1.44, 0.1, 0, -2.1000000000000002E-14, 5.29089E-07, -5.29014E-07, 540.99482881166546
DataValue, 1.5, 0.1, 0, -2.6000000000000003E-14, 5.88719E-07, -5.8859899999999994E-07, 581.542229715168
DataValue, 1.56, 0.1, 0, -2.6300000000000004E-13, 6.5034599999999994E-07, -6.50268E-07, 623.29138230153637
DataValue, 1.62, 0.1, 0, -7E-15, 7.13709E-07, -7.13637E-07, 664.37545928637633
DataValue, 1.68, 0.1, 0, -5.0000000000000008E-15, 7.79089E-07, -7.79004E-07, 704.82261105073644
DataValue, 1.74, 0.1, 0, -1.9E-14, 8.46179E-07, -8.4608099999999994E-07, 748.13065432693338
DataValue, 1.8, 0.1, 0, -3.1E-14, 9.14635E-07, -9.1452899999999994E-07, 790.70924186381478
DataValue, 1.86, 0.1, 0, -1.4E-14, 9.8485399999999988E-07, -9.84734E-07, 833.889407173983
DataValue, 1.92, 0.1, 0, -2.9E-14, 1.056196E-06, -1.0560979999999999E-06, 877.74086057751765
DataValue, 1.98, 0.1, 0, -3.0000000000000005E-14, 1.129136E-06, -1.128965E-06, 922.64020272171535
DataValue, 2.04, 0.1, 0, -4.5000000000000004E-14, 1.2029000000000002E-06, -1.20305E-06, 967.00905685315274
DataValue, 2.1, 0.1, 0, -3.8E-14, 1.27832E-06, -1.27852E-06, 1009.7836435057473
DataValue, 2.16, 0.1, 0, -1E-15, 1.35469E-06, -1.35485E-06, 1054.6326129325121
DataValue, 2.22, 0.1, 0, -5.1000000000000004E-14, 1.43237E-06, -1.4325800000000001E-06, 1098.3117233993548
DataValue, 2.2800000000000002, 0.1, 0, 0, 1.5110900000000002E-06, -1.5113000000000003E-06, 1145.3844659924989
DataValue, 2.34, 0.1, 0, -2.8E-14, 1.5905800000000002E-06, -1.5907600000000003E-06, 1192.0985846102235
DataValue, 2.4, 0.1, 0, -1.9E-14, 1.67112E-06, -1.6712900000000001E-06, 1238.1117344482068
DataValue, 2.46, 0.1, 0, -5.0000000000000008E-15, 1.7524600000000001E-06, -1.75262E-06, 1285.7269532497182
DataValue, 2.52, 0.1, 0, -9.0000000000000011E-15, 1.8346000000000002E-06, -1.8347400000000002E-06, 1332.9213953259209
DataValue, 2.58, 0.1, 0, -4.5000000000000004E-14, 1.9175500000000004E-06, -1.91762E-06, 1380.9684400241181
DataValue, 2.64, 0.1, 0, 1.5000000000000002E-14, 2.0011500000000003E-06, -2.0012900000000004E-06, 1432.1096674149583
DataValue, 2.7, 0.1, 0, -1.9E-14, 2.0851500000000003E-06, -2.0852000000000004E-06, 1481.3872535184664
DataValue, 2.7600000000000002, 0.1, 0, -2.9E-14, 2.1700000000000004E-06, -2.1700700000000002E-06, 1528.0612643939571
DataValue, 2.82, 0.1, 0, -1.7E-14, 2.2555000000000003E-06, -2.2555000000000003E-06, 1578.4930633488084
DataValue, 2.88, 0.1, 0, 3.7E-14, 2.3414E-06, -2.3414100000000004E-06, 1630.4936297424815
DataValue, 2.94, 0.1, 0, -3.9000000000000004E-14, 2.4277600000000005E-06, -2.42773E-06, 1682.347253127022
DataValue, 3, 0.1, 0, -6.0000000000000005E-15, 2.51451E-06, -2.51445E-06, 1708.9668220584529
DataValue, -3, 0.8, 0, -4.5200000000000004E-13, 3.4E-14, -1.0000000000000002E-14, -172.26197769772708
DataValue, -2.94, 0.8, 0, -2.3000000000000003E-13, 2.4000000000000002E-14, -6.3000000000000009E-14, -124.8165239802136
DataValue, -2.88, 0.8, 0, -1.57E-13, 1.3000000000000001E-14, -3.4E-14, -86.561702453337872
DataValue, -2.82, 0.8, 0, -1.41E-13, -6.0000000000000005E-15, -5.2000000000000006E-14, -457.37936240500335
DataValue, -2.7600000000000002, 0.8, 0, -1.29E-13, -1.0000000000000002E-14, -4.9000000000000006E-14, 79.783128353101091
DataValue, -2.7, 0.8, 0, -1.3200000000000002E-13, -2.7000000000000002E-14, -4.6000000000000006E-14, 109.22870719522047
DataValue, -2.64, 0.8, 0, -1.3200000000000002E-13, -3.0000000000000005E-14, -6.5E-14, 257.8630781011081
DataValue, -2.58, 0.8, 0, -1.18E-13, -4.3000000000000006E-14, -5.3E-14, 958.74869524567612
DataValue, -2.52, 0.8, 0, -8.1000000000000008E-14, -3.4E-14, -5.1000000000000004E-14, -453.35616013229827
DataValue, -2.46, 0.8, 0, -6.8E-14, -3.3000000000000005E-14, -4.2000000000000004E-14, -159.19937522428185
DataValue, -2.4, 0.8, 0, -9.8000000000000012E-14, -1.6E-14, -1.4E-14, 185.57834639364273
DataValue, -2.34, 0.8, 0, -1.1500000000000002E-13, -6.3000000000000009E-14, -5.6E-14, 65.127777089976661
DataValue, -2.2800000000000002, 0.8, 0, -6.2E-14, -1.0100000000000001E-13, -2.9E-14, 530.238798256768
DataValue, -2.22, 0.8, 0, -5.4000000000000003E-14, -7.9E-14, -1.0000000000000002E-14, -116.323978669988
DataValue, -2.16, 0.8, 0, -6.7E-14, -3.6000000000000004E-14, -8.5E-14, -300.63438446191986
DataValue, -2.1, 0.8, 0, -7.2000000000000009E-14, -5.3E-14, -2.7000000000000002E-14, 105.72874156447672
DataValue, -2.04, 0.8, 0, -6.3000000000000009E-14, -1.12E-13, -5.1000000000000004E-14, 345.62590260338283
DataValue, -1.98, 0.8, 0, -8.2E-14, -7.5000000000000009E-14, -6.7E-14, -192.26014826081519
DataValue, -1.92, 0.8, 0, -3.5E-14, -6.0000000000000009E-14, -6.6000000000000009E-14, 1559.2304655513631
DataValue, -1.86, 0.8, 0, -5.5000000000000005E-14, -8.1000000000000008E-14, -6.2E-14, -295.95641548516943
DataValue, -1.8, 0.8, 0, -7.3E-14, -4.0000000000000006E-14, -4.6000000000000006E-14, -68.360805996172047
DataValue, -1.74, 0.8, 0, -6.7E-14, -1.4E-14, -4.0000000000000006E-14, 658.1777937296489
DataValue, -1.68, 0.8, 0, -7.6E-14, -4.8000000000000004E-14, -2.3000000000000003E-14, 88.8937143722982
DataValue, -1.62, 0.8, 0, -4.2000000000000004E-14, -5.4000000000000003E-14, -5.2000000000000006E-14, 537.77041412693916
DataValue, -1.56, 0.8, 0, -5.4000000000000003E-14, -6.0000000000000009E-14, -7.6E-14, -435.71089413399449
DataValue, -1.5, 0.8, 0, -2.9E-14, -4.1E-14, -6.8E-14, 3659.6721076477625
DataValue, -1.44, 0.8, 0, -4.6000000000000006E-14, -6.2E-14, -8E-15, -224.08200478189883
DataValue, -1.3800000000000001, 0.8, 0, -6.1E-14, -2.4000000000000002E-14, -5.1000000000000004E-14, 734.73111145972621
DataValue, -1.32, 0.8, 0, -3.5E-14, -7.3E-14, -7.9E-14, 184.44865264142712
DataValue, -1.26, 0.8, 0, -8.1000000000000008E-14, -4.6000000000000006E-14, -5.3E-14, -611.88626103735635
DataValue, -1.2, 0.8, 0, -6.1E-14, -6.0000000000000009E-14, -4.3000000000000006E-14, 425.18141511013141
DataValue, -1.1400000000000001, 0.8, 0, -7.2000000000000009E-14, -6.1E-14, -4.9000000000000006E-14, 1499.1996583803323
