
SetupTitle, I/V Sweep - Unit (transfer)
PrimitiveTest, I/V Sweep
TestParameter, Context.MainFrame, B1500A
TestParameter, Channel.UnitType, SMU, SMU, SMU
TestParameter, Channel.Unit, SMU1:HR, SMU2:HR, SMU3:HR
TestParameter, Channel.IName, IG, ID, IS
TestParameter, Channel.VName, VG, VD, VS
TestParameter, Channel.Mode, V, V, COMMON
TestParameter, Channel.Func, VAR1, VAR2, CONST
TestParameter, Channel.Index, 
TestParameter, Channel.Time, 
TestParameter, Measurement.Port.Unit, SMU1:HR, SMU2:HR, SMU3:HR
TestParameter, Measurement.Port.SeriesResistor, NONE, NONE, NONE
TestParameter, Measurement.Port.Filter, ON, ON, ON
TestParameter, Measurement.Port.OutputVoltageComparison, 0, 0, 0
TestParameter, Measurement.Primary.Locus, Single
TestParameter, Measurement.Primary.Scale, LINEAR
TestParameter, Measurement.Primary.Start, -3
TestParameter, Measurement.Primary.Stop, 3
TestParameter, Measurement.Primary.Step, 0.05
TestParameter, Measurement.Primary.Compliance, 0.1
TestParameter, Measurement.Primary.PowerCompliance, 0
TestParameter, Measurement.Aborting.Condition, CONTINUE AT ANY
TestParameter, Measurement.PostOutput.Value, START
TestParameter, Measurement.PostOutput.Retention, OFF
TestParameter, Measurement.Secondary.Start, 0.1
TestParameter, Measurement.Secondary.Count, 3
TestParameter, Measurement.Secondary.Step, 1.4000000000000001
TestParameter, Measurement.Secondary.Compliance, 0.1
TestParameter, Measurement.Secondary.PowerCompliance, 0
TestParameter, Measurement.Bias.Source, -3, 0.1, 0
TestParameter, Measurement.Bias.Compliance, 0.1, 0.1, 0.1
TestParameter, Measurement.Monitor.Unit, SMU1:HR, SMU2:HR, SMU3:HR
TestParameter, Measurement.Monitor.Adc, HR ADC, HR ADC, HR ADC
TestParameter, Measurement.Monitor.Measurement, Compliance Side, Compliance Side, Compliance Side
TestParameter, Measurement.Monitor.RangingMode, LIMITED, LIMITED, LIMITED
TestParameter, Measurement.Monitor.RangeBoundary, 1nA, 1nA, 1nA
TestParameter, Measurement.Monitor.RangeRating, BY FULL RANGE, BY FULL RANGE, BY FULL RANGE
TestParameter, Measurement.Monitor.RangeRatingCoeff, 50, 50, 50
TestParameter, Measurement.Timing.Hold, 0
TestParameter, Measurement.Timing.Delay, 0
TestParameter, Measurement.Adc.HighSpeed.Mode, PLC
TestParameter, Measurement.Adc.HighSpeed.Coeff, 5
TestParameter, Measurement.Adc.HighResolution.AutoZero, OFF
TestParameter, Measurement.Adc.HighResolution.Mode, PLC
TestParameter, Measurement.Adc.HighResolution.Coeff, 5
TestParameter, Measurement.WaitTime.Source.Coeff, 1
TestParameter, Measurement.WaitTime.Source.Offset, 0
TestParameter, Measurement.WaitTime.Monitor.Coeff, 1
TestParameter, Measurement.WaitTime.Monitor.Offset, 0
TestParameter, Function.User.Name, SS, ICH
TestParameter, Function.User.Unit, mV/dec, A
TestParameter, Function.User.Definition, diff(VG,log(ID))*1000, ID+IG
TestParameter, Output.Graph.Enabled, true
TestParameter, Output.Graph.AutoScaling, false
TestParameter, Output.Graph.XAxis.Data, VG
TestParameter, Output.Graph.XAxis.Scale, Linear
TestParameter, Output.Graph.XAxis.Left, -3
TestParameter, Output.Graph.XAxis.Right, 3
TestParameter, Output.Graph.XAxis.RunTimeAutoScale, false
TestParameter, Output.Graph.YAxis.Data, ICH, IG
TestParameter, Output.Graph.YAxis.Scale, Log, Log
TestParameter, Output.Graph.YAxis.Bottom, 0, 1E-15
TestParameter, Output.Graph.YAxis.Top, 1, 1E-12
TestParameter, Output.Graph.YAxis.Group, , 
TestParameter, Output.Graph.YAxis.RunTimeAutoScale, true, true
TestParameter, Output.List.Data, VG, VD, VS, IG, ID, IS, SS, ICH
TestParameter, Output.Scalar.Data, SS
TestParameter, AutoAnalysis.Interpolation, false
TestParameter, AutoAnalysis.Var2StepCount, 1
TestParameter, AutoAnalysis.Var2StepScript, 
TestParameter, AutoAnalysis.Line1.Enabled, false
TestParameter, AutoAnalysis.Line1.Type, 1
TestParameter, AutoAnalysis.Line1.Fix, True
TestParameter, AutoAnalysis.Line1.YAxis, 0
TestParameter, AutoAnalysis.Line1.Point1.Type, 0
TestParameter, AutoAnalysis.Line1.Point1.XY.X, 
TestParameter, AutoAnalysis.Line1.Point1.XY.Y, 
TestParameter, AutoAnalysis.Line1.Point1.Data.Var, 
TestParameter, AutoAnalysis.Line1.Point1.Data.Condition, 
TestParameter, AutoAnalysis.Line1.Point1.Data.Start, false
TestParameter, AutoAnalysis.Line1.Point1.Data.StartVar, 
TestParameter, AutoAnalysis.Line1.Point1.Data.StartCondition, 
TestParameter, AutoAnalysis.Line1.Point2.Type, 0
TestParameter, AutoAnalysis.Line1.Point2.XY.X, 
TestParameter, AutoAnalysis.Line1.Point2.XY.Y, 
TestParameter, AutoAnalysis.Line1.Point2.Data.Var, 
TestParameter, AutoAnalysis.Line1.Point2.Data.Condition, 
TestParameter, AutoAnalysis.Line1.Point2.Data.Start, false
TestParameter, AutoAnalysis.Line1.Point2.Data.StartVar, 
TestParameter, AutoAnalysis.Line1.Point2.Data.StartCondition, 
TestParameter, AutoAnalysis.Line1.GradientExpr, 0
TestParameter, AutoAnalysis.Line2.Enabled, false
TestParameter, AutoAnalysis.Line2.Type, 1
TestParameter, AutoAnalysis.Line2.Fix, True
TestParameter, AutoAnalysis.Line2.YAxis, 0
TestParameter, AutoAnalysis.Line2.Point1.Type, 0
TestParameter, AutoAnalysis.Line2.Point1.XY.X, 
TestParameter, AutoAnalysis.Line2.Point1.XY.Y, 
TestParameter, AutoAnalysis.Line2.Point1.Data.Var, 
TestParameter, AutoAnalysis.Line2.Point1.Data.Condition, 
TestParameter, AutoAnalysis.Line2.Point1.Data.Start, false
TestParameter, AutoAnalysis.Line2.Point1.Data.StartVar, 
TestParameter, AutoAnalysis.Line2.Point1.Data.StartCondition, 
TestParameter, AutoAnalysis.Line2.Point2.Type, 0
TestParameter, AutoAnalysis.Line2.Point2.XY.X, 
TestParameter, AutoAnalysis.Line2.Point2.XY.Y, 
TestParameter, AutoAnalysis.Line2.Point2.Data.Var, 
TestParameter, AutoAnalysis.Line2.Point2.Data.Condition, 
TestParameter, AutoAnalysis.Line2.Point2.Data.Start, false
TestParameter, AutoAnalysis.Line2.Point2.Data.StartVar, 
TestParameter, AutoAnalysis.Line2.Point2.Data.StartCondition, 
TestParameter, AutoAnalysis.Line2.GradientExpr, 0
TestParameter, AutoAnalysis.Marker.Enabled, false
TestParameter, AutoAnalysis.Marker.Data.Var, 
TestParameter, AutoAnalysis.Marker.Data.Condition, 
TestParameter, AutoAnalysis.Marker.Data.Start, false
TestParameter, AutoAnalysis.Marker.Data.StartVar, 
TestParameter, AutoAnalysis.Marker.Data.StartCondition, 
MetaData, TestRecord.EntryPoint, true
MetaData, TestRecord.RecordTime, 12/08/2025 09:25:29
MetaData, TestRecord.TestTarget, 251203_ALD IGZO_#1_R0C0_40/20/1
MetaData, TestRecord.IterationIndex, 1
MetaData, TestRecord.Preservation, true
MetaData, TestRecord.Flag, 
MetaData, TestRecord.Remarks, 
MetaData, TestRecord.LinkKey, dc6b9901-0d33-4bd6-955e-c10bc80a4f40
MetaData, TestRecord.Parameters, 
Dimension1, 121, 121, 121, 121, 121, 121, 121, 121
Dimension2, 3, 3, 3, 3, 3, 3, 3, 3
DataName, VG, VD, VS, IG, ID, IS, SS, ICH
DataValue, -3, 0.1, 0, -2.0700000000000003E-13, -1.5000000000000002E-14, -1.5600000000000002E-13, 45.5119613313418, -2.2200000000000004E-13
DataValue, -2.95, 0.1, 0, -9.5000000000000012E-14, -4.5000000000000004E-14, -1.89E-13, 137.75299996279384, -1.4E-13
DataValue, -2.9, 0.1, 0, -7.9E-14, -3.1E-14, -1.4400000000000002E-13, -698.807899771016, -1.1000000000000001E-13
DataValue, -2.85, 0.1, 0, -1.0400000000000001E-13, -3.9000000000000004E-14, -1.6800000000000002E-13, -166.45198232926342, -1.4300000000000002E-13
DataValue, -2.8000000000000003, 0.1, 0, -1.09E-13, -1.7E-14, -1.7200000000000002E-13, -337.53472237133008, -1.26E-13
DataValue, -2.75, 0.1, 0, -7.2000000000000009E-14, -2.9E-14, -1.7800000000000002E-13, 105.15509278838783, -1.0100000000000001E-13
DataValue, -2.7, 0.1, 0, -8.8E-14, -4.4E-14, -1.6200000000000002E-13, 531.76715426766123, -1.32E-13
DataValue, -2.65, 0.1, 0, -1E-13, -3.5E-14, -2.05E-13, -154.15555163005459, -1.35E-13
DataValue, -2.6, 0.1, 0, -6.0000000000000009E-14, -2.3000000000000003E-14, -1.48E-13, -0, -8.3000000000000012E-14
DataValue, -2.5500000000000003, 0.1, 0, -1.19E-13, 0, -1.77E-13, -201.43547499564997, -1.19E-13
DataValue, -2.5, 0.1, 0, -8.7000000000000008E-14, -1.4E-14, -1.4400000000000002E-13, 0, -1.0100000000000001E-13
DataValue, -2.45, 0.1, 0, -6.7E-14, 3.0000000000000002E-15, -1.6700000000000002E-13, 201.43547499564997, -6.4E-14
DataValue, -2.4, 0.1, 0, -1.03E-13, -2.3000000000000003E-14, -1.8500000000000002E-13, 35.801128903378206, -1.2600000000000002E-13
DataValue, -2.35, 0.1, 0, -9.3000000000000008E-14, -4.9000000000000006E-14, -1.48E-13, 815.645236512657, -1.42E-13
DataValue, -2.3000000000000003, 0.1, 0, -1.1500000000000002E-13, -2.6000000000000003E-14, -1.7E-13, -66.937763479193649, -1.41E-13
DataValue, -2.25, 0.1, 0, -8.9000000000000012E-14, -1.1E-14, -1.81E-13, 2649.6855047323461, -1.0000000000000002E-13
DataValue, -2.2, 0.1, 0, -9.0000000000000008E-14, -2.7000000000000002E-14, -1.7E-13, 99.6708759171731, -1.17E-13
DataValue, -2.15, 0.1, 0, -7.8000000000000008E-14, -3.0000000000000005E-14, -1.52E-13, 148.26785026457105, -1.0800000000000002E-13
DataValue, -2.1, 0.1, 0, -1.0700000000000001E-13, -5.3E-14, -1.57E-13, -218.9341224016959, -1.6000000000000003E-13
DataValue, -2.05, 0.1, 0, -1E-13, -1.9E-14, -1.4400000000000002E-13, -113.73336524762613, -1.19E-13
DataValue, -2, 0.1, 0, -6.8E-14, -2.2E-14, -1.5000000000000002E-13, -899.0733107606095, -9E-14
DataValue, -1.95, 0.1, 0, -9.8000000000000012E-14, -1.7E-14, -1.35E-13, 1149.2749966699037, -1.1500000000000002E-13
DataValue, -1.9000000000000001, 0.1, 0, -8.3000000000000012E-14, -2.4000000000000002E-14, -1.71E-13, 105.15509278838761, -1.0700000000000001E-13
DataValue, -1.85, 0.1, 0, -7.3E-14, -4.4E-14, -1.76E-13, 111.17489912291451, -1.17E-13
DataValue, -1.8, 0.1, 0, -6.1E-14, -5.9E-14, -1.52E-13, -135.19593746274359, -1.2E-13
DataValue, -1.75, 0.1, 0, -5.2000000000000006E-14, -2.1000000000000002E-14, -1.3700000000000002E-13, -84.234240576925728, -7.3E-14
DataValue, -1.7, 0.1, 0, -7E-14, -1.8000000000000002E-14, -1.58E-13, -60.30533520143068, -8.8E-14
DataValue, -1.6500000000000001, 0.1, 0, -1.19E-13, -4E-15, -1.71E-13, 118.02225011438262, -1.23E-13
DataValue, -1.6, 0.1, 0, -9.6000000000000007E-14, -4.2000000000000004E-14, -1.83E-13, 49.630180202463187, -1.3800000000000002E-13
DataValue, -1.55, 0.1, 0, -1.09E-13, -3.0000000000000005E-14, -1.76E-13, -42.528303253744582, -1.3900000000000001E-13
DataValue, -1.5, 0.1, 0, -9.5000000000000012E-14, -4E-15, -1.93E-13, 1549.4622163225415, -9.9000000000000007E-14
DataValue, -1.45, 0.1, 0, -7.9E-14, -3.2E-14, -1.8600000000000002E-13, 54.567833396864444, -1.1100000000000001E-13
DataValue, -1.4000000000000001, 0.1, 0, -5.5000000000000005E-14, -2.5E-14, -1.75E-13, -48.089834696298666, -8.0000000000000013E-14
DataValue, -1.35, 0.1, 0, -7E-14, 4E-15, -1.8500000000000002E-13, -2449.6598261602544, -6.6000000000000009E-14
DataValue, -1.3, 0.1, 0, -1.09E-13, -2.4000000000000002E-14, -1.9200000000000002E-13, 75.656938274876438, -1.3300000000000001E-13
DataValue, -1.25, 0.1, 0, -8.9000000000000012E-14, -1.5000000000000002E-14, -1.9700000000000002E-13, 448.14201177245729, -1.0400000000000001E-13
DataValue, -1.2, 0.1, 0, -6.4E-14, -3.0000000000000005E-14, -1.7400000000000002E-13, 261.10188759936119, -9.4E-14
DataValue, -1.1500000000000001, 0.1, 0, -1.0500000000000001E-13, -2.2E-14, -1.82E-13, 347.60594967822146, -1.2700000000000001E-13
DataValue, -1.1, 0.1, 0, -6.3000000000000009E-14, -4.0000000000000006E-14, -1.57E-13, , -1.0300000000000002E-13
DataValue, -1.05, 0.1, 0, -9.1E-14, -2.2E-14, -2.06E-13, -116.86801525101259, -1.13E-13
DataValue, -1, 0.1, 0, -7.7E-14, -1.7E-14, -1.22E-13, -314.01736022611743, -9.4E-14
DataValue, -0.95000000000000007, 0.1, 0, -8.7000000000000008E-14, -1.6E-14, -1.7200000000000002E-13, 113.5900598556044, -1.0300000000000002E-13
DataValue, -0.9, 0.1, 0, -8.1000000000000008E-14, -4.1E-14, -1.6700000000000002E-13, -85.9733743526396, -1.22E-13
DataValue, -0.85, 0.1, 0, -2.2E-14, -5.0000000000000008E-15, -1.94E-13, -87.060789583313309, -2.7000000000000002E-14
DataValue, -0.8, 0.1, 0, -1.0200000000000001E-13, -1.3000000000000001E-14, -1.58E-13, -195.76151889712247, -1.1500000000000002E-13
DataValue, -0.75, 0.1, 0, -7E-14, 3.0000000000000002E-15, -1.6700000000000002E-13, 119.5817474075248, -6.7E-14
DataValue, -0.70000000000000007, 0.1, 0, -4.9000000000000006E-14, -3.0000000000000005E-14, -1.9500000000000003E-13, 35.29561238647608, -7.9000000000000017E-14
DataValue, -0.65, 0.1, 0, -1.0400000000000001E-13, -5.1000000000000004E-14, -1.82E-13, 203.82252163001542, -1.5500000000000002E-13
DataValue, -0.6, 0.1, 0, -7.4E-14, -4.9000000000000006E-14, -1.5500000000000002E-13, -53.98448436447844, -1.23E-13
DataValue, -0.55, 0.1, 0, -8.4000000000000008E-14, -8E-15, -1.63E-13, -140.10184635522654, -9.2000000000000012E-14
DataValue, -0.5, 0.1, 0, -8.6000000000000012E-14, -2.4000000000000002E-14, -1.9100000000000002E-13, -748.88756894188134, -1.1000000000000001E-13
DataValue, -0.45, 0.1, 0, -1.0100000000000001E-13, -7E-15, -1.5500000000000002E-13, -128.17907210310358, -1.0800000000000001E-13
DataValue, -0.4, 0.1, 0, -9.4E-14, -1.1E-14, -1.6600000000000003E-13, -118.02225011438225, -1.0500000000000001E-13
DataValue, -0.35000000000000003, 0.1, 0, -9.4E-14, 3.0000000000000002E-15, -1.5600000000000002E-13, -76.96552731115743, -9.1E-14
DataValue, -0.3, 0.1, 0, -9.1E-14, 3.0000000000000002E-15, -1.64E-13, 32.676846824621848, -8.8E-14
DataValue, -0.25, 0.1, 0, -9.8000000000000012E-14, -6.4E-14, -1.65E-13, 32.512131287344829, -1.6200000000000002E-13
DataValue, -0.2, 0.1, 0, -1.2100000000000002E-13, -6.5E-14, -1.7900000000000002E-13, -50.977272391163353, -1.8600000000000002E-13
DataValue, -0.15, 0.1, 0, -5.1000000000000004E-14, -9.0000000000000011E-15, -2.4200000000000003E-13, 74.906307187280717, -6.0000000000000009E-14
DataValue, -0.1, 0.1, 0, -6.0000000000000009E-14, 2.47E-13, -4.63E-13, 18.938032173428471, 1.87E-13
DataValue, -0.05, 0.1, 0, -6.3000000000000009E-14, 1.7680000000000001E-12, -1.947E-12, 26.575294165835306, 1.7050000000000001E-12
DataValue, 0, 0.1, 0, -4.7E-14, 1.0639000000000001E-11, -1.0715E-11, 28.253764480442456, 1.0592000000000002E-11
DataValue, 0.05, 0.1, 0, -4.1E-14, 6.0898E-11, -6.0407E-11, 29.792592051701448, 6.0857E-11
DataValue, 0.1, 0.1, 0, -3.0000000000000005E-14, 3.0523000000000004E-10, -3.0143800000000003E-10, 33.351061594766747, 3.0520000000000004E-10
DataValue, 0.15, 0.1, 0, -4.4E-14, 1.22122E-09, -1.20139E-09, 39.58401399333956, 1.221176E-09
DataValue, 0.2, 0.1, 0, -4.2000000000000004E-14, 3.81745E-09, -3.77561E-09, 49.445100405475756, 3.817408E-09
DataValue, 0.25, 0.1, 0, -4.5000000000000004E-14, 9.22849E-09, -9.13779E-09, 64.130548106414125, 9.2284450000000012E-09
DataValue, 0.3, 0.1, 0, -4.7E-14, 1.81542E-08, -1.8015699999999998E-08, 83.061793432718218, 1.8154153E-08
DataValue, 0.35000000000000003, 0.1, 0, -3.5E-14, 3.07601E-08, -3.0588099999999994E-08, 105.38988006986257, 3.0760064999999996E-08
DataValue, 0.4, 0.1, 0, -8.0000000000000013E-14, 4.68879E-08, -4.6664499999999994E-08, 130.62232864304323, 4.688782E-08
DataValue, 0.45, 0.1, 0, -6.8E-14, 6.61407E-08, -6.5879499999999991E-08, 157.8700855742226, 6.6140632E-08
DataValue, 0.5, 0.1, 0, -6.2E-14, 8.833989999999999E-08, -8.8040499999999987E-08, 185.56748514709167, 8.833983799999999E-08
DataValue, 0.55, 0.1, 0, -5E-14, 1.1337169999999999E-07, -1.130627E-07, 214.28886625416871, 1.1337164999999999E-07
DataValue, 0.6, 0.1, 0, -5.9E-14, 1.40872E-07, -1.40497E-07, 244.28444984643457, 1.40871941E-07
DataValue, 0.65, 0.1, 0, -4.1E-14, 1.7072099999999998E-07, -1.70344E-07, 273.89158588894367, 1.70720959E-07
DataValue, 0.70000000000000007, 0.1, 0, -6.2E-14, 2.0295E-07, -2.02542E-07, 304.36139237133705, 2.02949938E-07
DataValue, 0.75, 0.1, 0, -8.8E-14, 2.37125E-07, -2.36706E-07, 335.902338291316, 2.37124912E-07
DataValue, 0.8, 0.1, 0, -6.8E-14, 2.7332599999999997E-07, -2.72891E-07, 366.46666784234066, 2.73325932E-07
DataValue, 0.85, 0.1, 0, -6.7E-14, 3.1151999999999997E-07, -3.11091E-07, 398.28742414908845, 3.11519933E-07
DataValue, 0.9, 0.1, 0, -9.7E-14, 3.51335E-07, -3.50888E-07, 431.01092328515665, 3.51334903E-07
DataValue, 0.95000000000000007, 0.1, 0, -6.4E-14, 3.9286899999999997E-07, -3.92394E-07, 463.45363032721889, 3.9286893599999995E-07
DataValue, 1, 0.1, 0, -1.06E-13, 4.35943E-07, -4.35499E-07, 496.19386745010542, 4.35942894E-07
DataValue, 1.05, 0.1, 0, -7E-14, 4.80588E-07, -4.80088E-07, 529.43563763605471, 4.8058792999999995E-07
DataValue, 1.1, 0.1, 0, -6.3000000000000009E-14, 5.26574E-07, -5.26126E-07, 562.07663685353043, 5.26573937E-07
DataValue, 1.1500000000000001, 0.1, 0, -5.8E-14, 5.74168E-07, -5.73693E-07, 595.3044414938604, 5.74167942E-07
DataValue, 1.2, 0.1, 0, -6.1E-14, 6.22892E-07, -6.22394E-07, 630.81106211575718, 6.22891939E-07
DataValue, 1.25, 0.1, 0, -5.8E-14, 6.7279999999999994E-07, -6.72352E-07, 664.72752269237458, 6.7279994199999994E-07
DataValue, 1.3, 0.1, 0, -4.1E-14, 7.2401399999999993E-07, -7.23522E-07, 698.71162171214064, 7.2401395899999989E-07
DataValue, 1.35, 0.1, 0, -7.4E-14, 7.76323E-07, -7.75797E-07, 733.93929839394184, 7.76322926E-07
DataValue, 1.4000000000000001, 0.1, 0, -5.6E-14, 8.29698E-07, -8.29201E-07, 767.23956917767623, 8.29697944E-07
DataValue, 1.45, 0.1, 0, -9.8000000000000012E-14, 8.84397E-07, -8.83899E-07, 801.637333627465, 8.8439690199999994E-07
DataValue, 1.5, 0.1, 0, -7.3E-14, 9.39931E-07, -9.39425E-07, 839.3956816049606, 9.3993092700000005E-07
DataValue, 1.55, 0.1, 0, -6.0000000000000009E-14, 9.96291E-07, -9.9577E-07, 874.94687841558391, 9.9629094E-07
DataValue, 1.6, 0.1, 0, -5.5000000000000005E-14, 1.053738E-06, -1.053142E-06, 910.97357171137833, 1.0537379449999999E-06
DataValue, 1.6500000000000001, 0.1, 0, -6.9000000000000009E-14, 1.111885E-06, -1.111358E-06, 948.73762048360129, 1.111884931E-06
DataValue, 1.7, 0.1, 0, -6.5E-14, 1.1708700000000001E-06, -1.17063E-06, 985.99197784747514, 1.1708699350000002E-06
DataValue, 1.75, 0.1, 0, -1.2600000000000002E-13, 1.2305700000000002E-06, -1.2306400000000002E-06, 1020.3762055461301, 1.2305698740000001E-06
DataValue, 1.8, 0.1, 0, -9.2000000000000012E-14, 1.2914300000000002E-06, -1.2914800000000001E-06, 1055.3178986096025, 1.2914299080000003E-06
DataValue, 1.85, 0.1, 0, -8.7000000000000008E-14, 1.35288E-06, -1.3528200000000001E-06, 1094.4231955647988, 1.352879913E-06
DataValue, 1.9000000000000001, 0.1, 0, -8.0000000000000013E-14, 1.4149900000000002E-06, -1.4150500000000001E-06, 1130.7884488942573, 1.41498992E-06
DataValue, 1.95, 0.1, 0, -8.9000000000000012E-14, 1.47797E-06, -1.4778600000000002E-06, 1169.5393170759496, 1.477969911E-06
DataValue, 2, 0.1, 0, -9.4E-14, 1.5413000000000002E-06, -1.5413100000000002E-06, 1210.7813655831812, 1.5412999060000003E-06
DataValue, 2.05, 0.1, 0, -5.9E-14, 1.6052200000000002E-06, -1.6052200000000002E-06, 1246.2716918153733, 1.6052199410000003E-06
DataValue, 2.1, 0.1, 0, -1.0200000000000001E-13, 1.6700700000000001E-06, -1.6701000000000001E-06, 1282.3327724864171, 1.6700698980000002E-06
DataValue, 2.15, 0.1, 0, -3.2E-14, 1.7354100000000002E-06, -1.7355400000000002E-06, 1323.1632543265457, 1.7354099680000003E-06
DataValue, 2.2, 0.1, 0, -3.2E-14, 1.80118E-06, -1.8012400000000003E-06, 1363.6952408600191, 1.8011799680000002E-06
DataValue, 2.25, 0.1, 0, -6.7E-14, 1.8674500000000002E-06, -1.8675100000000002E-06, 1401.0336471713754, 1.8674499330000003E-06
DataValue, 2.3000000000000003, 0.1, 0, -9.5000000000000012E-14, 1.9344400000000003E-06, -1.93457E-06, 1438.789206490987, 1.9344399050000003E-06
DataValue, 2.35, 0.1, 0, -8.4000000000000008E-14, 2.00186E-06, -2.0021000000000003E-06, 1479.8125369750883, 2.001859916E-06
DataValue, 2.4, 0.1, 0, -7.3E-14, 2.06968E-06, -2.0697900000000002E-06, 1518.598506625146, 2.069679927E-06
DataValue, 2.45, 0.1, 0, -8.5E-14, 2.13812E-06, -2.13809E-06, 1561.6166169681646, 2.138119915E-06
DataValue, 2.5, 0.1, 0, -8.4000000000000008E-14, 2.20655E-06, -2.20729E-06, 1604.1377094559634, 2.206549916E-06
DataValue, 2.5500000000000003, 0.1, 0, -4.2000000000000004E-14, 2.2756500000000004E-06, -2.2755900000000004E-06, 1647.1698785004487, 2.2756499580000005E-06
DataValue, 2.6, 0.1, 0, -6.4E-14, 2.3446600000000004E-06, -2.34448E-06, 1700.8053258470652, 2.3446599360000005E-06
