
SetupTitle, I/V Sweep - Unit (transfer)
PrimitiveTest, I/V Sweep
TestParameter, Context.MainFrame, B1500A
TestParameter, Channel.UnitType, SMU, SMU, SMU
TestParameter, Channel.Unit, SMU1:HR, SMU2:HR, SMU3:HR
TestParameter, Channel.IName, IG, ID, IS
TestParameter, Channel.VName, VG, VD, VS
TestParameter, Channel.Mode, V, V, COMMON
TestParameter, Channel.Func, VAR1, VAR2, CONST
TestParameter, Channel.Index, 
TestParameter, Channel.Time, 
TestParameter, Measurement.Port.Unit, SMU1:HR, SMU2:HR, SMU3:HR
TestParameter, Measurement.Port.SeriesResistor, NONE, NONE, NONE
TestParameter, Measurement.Port.Filter, ON, ON, ON
TestParameter, Measurement.Port.OutputVoltageComparison, 0, 0, 0
TestParameter, Measurement.Primary.Locus, Single
TestParameter, Measurement.Primary.Scale, LINEAR
TestParameter, Measurement.Primary.Start, -3
TestParameter, Measurement.Primary.Stop, 3
TestParameter, Measurement.Primary.Step, 0.05
TestParameter, Measurement.Primary.Compliance, 0.1
TestParameter, Measurement.Primary.PowerCompliance, 0
TestParameter, Measurement.Aborting.Condition, CONTINUE AT ANY
TestParameter, Measurement.PostOutput.Value, START
TestParameter, Measurement.PostOutput.Retention, OFF
TestParameter, Measurement.Secondary.Start, 0.1
TestParameter, Measurement.Secondary.Count, 3
TestParameter, Measurement.Secondary.Step, 1.4000000000000001
TestParameter, Measurement.Secondary.Compliance, 0.1
TestParameter, Measurement.Secondary.PowerCompliance, 0
TestParameter, Measurement.Bias.Source, -3, 0.1, 0
TestParameter, Measurement.Bias.Compliance, 0.1, 0.1, 0.1
TestParameter, Measurement.Monitor.Unit, SMU1:HR, SMU2:HR, SMU3:HR
TestParameter, Measurement.Monitor.Adc, HR ADC, HR ADC, HR ADC
TestParameter, Measurement.Monitor.Measurement, Compliance Side, Compliance Side, Compliance Side
TestParameter, Measurement.Monitor.RangingMode, LIMITED, LIMITED, LIMITED
TestParameter, Measurement.Monitor.RangeBoundary, 1nA, 1nA, 1nA
TestParameter, Measurement.Monitor.RangeRating, BY FULL RANGE, BY FULL RANGE, BY FULL RANGE
TestParameter, Measurement.Monitor.RangeRatingCoeff, 50, 50, 50
TestParameter, Measurement.Timing.Hold, 0
TestParameter, Measurement.Timing.Delay, 0
TestParameter, Measurement.Adc.HighSpeed.Mode, PLC
TestParameter, Measurement.Adc.HighSpeed.Coeff, 5
TestParameter, Measurement.Adc.HighResolution.AutoZero, OFF
TestParameter, Measurement.Adc.HighResolution.Mode, PLC
TestParameter, Measurement.Adc.HighResolution.Coeff, 5
TestParameter, Measurement.WaitTime.Source.Coeff, 1
TestParameter, Measurement.WaitTime.Source.Offset, 0
TestParameter, Measurement.WaitTime.Monitor.Coeff, 1
TestParameter, Measurement.WaitTime.Monitor.Offset, 0
TestParameter, Function.User.Name, SS, ICH
TestParameter, Function.User.Unit, mV/dec, A
TestParameter, Function.User.Definition, diff(VG,log(ID))*1000, ID+IG
TestParameter, Output.Graph.Enabled, true
TestParameter, Output.Graph.AutoScaling, false
TestParameter, Output.Graph.XAxis.Data, VG
TestParameter, Output.Graph.XAxis.Scale, Linear
TestParameter, Output.Graph.XAxis.Left, -3
TestParameter, Output.Graph.XAxis.Right, 3
TestParameter, Output.Graph.XAxis.RunTimeAutoScale, false
TestParameter, Output.Graph.YAxis.Data, ICH, IG
TestParameter, Output.Graph.YAxis.Scale, Log, Log
TestParameter, Output.Graph.YAxis.Bottom, 0, 1E-15
TestParameter, Output.Graph.YAxis.Top, 1, 1E-12
TestParameter, Output.Graph.YAxis.Group, , 
TestParameter, Output.Graph.YAxis.RunTimeAutoScale, true, true
TestParameter, Output.List.Data, VG, VD, VS, IG, ID, IS, SS, ICH
TestParameter, Output.Scalar.Data, SS
TestParameter, AutoAnalysis.Interpolation, false
TestParameter, AutoAnalysis.Var2StepCount, 1
TestParameter, AutoAnalysis.Var2StepScript, 
TestParameter, AutoAnalysis.Line1.Enabled, false
TestParameter, AutoAnalysis.Line1.Type, 1
TestParameter, AutoAnalysis.Line1.Fix, True
TestParameter, AutoAnalysis.Line1.YAxis, 0
TestParameter, AutoAnalysis.Line1.Point1.Type, 0
TestParameter, AutoAnalysis.Line1.Point1.XY.X, 
TestParameter, AutoAnalysis.Line1.Point1.XY.Y, 
TestParameter, AutoAnalysis.Line1.Point1.Data.Var, 
TestParameter, AutoAnalysis.Line1.Point1.Data.Condition, 
TestParameter, AutoAnalysis.Line1.Point1.Data.Start, false
TestParameter, AutoAnalysis.Line1.Point1.Data.StartVar, 
TestParameter, AutoAnalysis.Line1.Point1.Data.StartCondition, 
TestParameter, AutoAnalysis.Line1.Point2.Type, 0
TestParameter, AutoAnalysis.Line1.Point2.XY.X, 
TestParameter, AutoAnalysis.Line1.Point2.XY.Y, 
TestParameter, AutoAnalysis.Line1.Point2.Data.Var, 
TestParameter, AutoAnalysis.Line1.Point2.Data.Condition, 
TestParameter, AutoAnalysis.Line1.Point2.Data.Start, false
TestParameter, AutoAnalysis.Line1.Point2.Data.StartVar, 
TestParameter, AutoAnalysis.Line1.Point2.Data.StartCondition, 
TestParameter, AutoAnalysis.Line1.GradientExpr, 0
TestParameter, AutoAnalysis.Line2.Enabled, false
TestParameter, AutoAnalysis.Line2.Type, 1
TestParameter, AutoAnalysis.Line2.Fix, True
TestParameter, AutoAnalysis.Line2.YAxis, 0
TestParameter, AutoAnalysis.Line2.Point1.Type, 0
TestParameter, AutoAnalysis.Line2.Point1.XY.X, 
TestParameter, AutoAnalysis.Line2.Point1.XY.Y, 
TestParameter, AutoAnalysis.Line2.Point1.Data.Var, 
TestParameter, AutoAnalysis.Line2.Point1.Data.Condition, 
TestParameter, AutoAnalysis.Line2.Point1.Data.Start, false
TestParameter, AutoAnalysis.Line2.Point1.Data.StartVar, 
TestParameter, AutoAnalysis.Line2.Point1.Data.StartCondition, 
TestParameter, AutoAnalysis.Line2.Point2.Type, 0
TestParameter, AutoAnalysis.Line2.Point2.XY.X, 
TestParameter, AutoAnalysis.Line2.Point2.XY.Y, 
TestParameter, AutoAnalysis.Line2.Point2.Data.Var, 
TestParameter, AutoAnalysis.Line2.Point2.Data.Condition, 
TestParameter, AutoAnalysis.Line2.Point2.Data.Start, false
TestParameter, AutoAnalysis.Line2.Point2.Data.StartVar, 
TestParameter, AutoAnalysis.Line2.Point2.Data.StartCondition, 
TestParameter, AutoAnalysis.Line2.GradientExpr, 0
TestParameter, AutoAnalysis.Marker.Enabled, false
TestParameter, AutoAnalysis.Marker.Data.Var, 
TestParameter, AutoAnalysis.Marker.Data.Condition, 
TestParameter, AutoAnalysis.Marker.Data.Start, false
TestParameter, AutoAnalysis.Marker.Data.StartVar, 
TestParameter, AutoAnalysis.Marker.Data.StartCondition, 
MetaData, TestRecord.EntryPoint, true
MetaData, TestRecord.RecordTime, 12/08/2025 11:46:59
MetaData, TestRecord.TestTarget, 251203_ALD IGZO_#1_R1C0_40/20/1
MetaData, TestRecord.IterationIndex, 1
MetaData, TestRecord.Preservation, true
MetaData, TestRecord.Flag, 
MetaData, TestRecord.Remarks, 
MetaData, TestRecord.LinkKey, 73cd2e34-d8be-450c-8785-17fbb61284ca
MetaData, TestRecord.Parameters, 
Dimension1, 121, 121, 121, 121, 121, 121, 121, 121
Dimension2, 3, 3, 3, 3, 3, 3, 3, 3
DataName, VG, VD, VS, IG, ID, IS, SS, ICH
DataValue, -3, 0.1, 0, -1.2600000000000002E-13, -4.0000000000000006E-14, -1.3800000000000002E-13, -33.519818007775577, -1.6600000000000003E-13
DataValue, -2.95, 0.1, 0, -5.6E-14, -9.0000000000000011E-15, -1.59E-13, -195.7615188971227, -6.5E-14
DataValue, -2.9, 0.1, 0, -7.5000000000000009E-14, 2.4000000000000002E-14, -1.7300000000000002E-13, -849.01870157034875, -5.100000000000001E-14
DataValue, -2.85, 0.1, 0, -7E-14, -8E-15, -1.47E-13, 390.72668946407867, -7.8000000000000008E-14
DataValue, -2.8000000000000003, 0.1, 0, -4.0000000000000006E-14, 3.1E-14, -1.3E-13, 75.656938274876637, -9.0000000000000058E-15
DataValue, -2.75, 0.1, 0, -3.3000000000000005E-14, -3.0000000000000005E-14, -1.3700000000000002E-13, 1599.4790309635521, -6.3000000000000009E-14
DataValue, -2.7, 0.1, 0, -3.9000000000000004E-14, -3.3000000000000005E-14, -1.6600000000000003E-13, 126.82994037090332, -7.2000000000000009E-14
DataValue, -2.65, 0.1, 0, -7.3E-14, -6.6000000000000009E-14, -1.9100000000000002E-13, -773.923535073706, -1.3900000000000001E-13
DataValue, -2.6, 0.1, 0, -4.9000000000000006E-14, -2.9E-14, -1.4E-13, -38.756432735848634, -7.8000000000000008E-14
DataValue, -2.5500000000000003, 0.1, 0, -6.4E-14, -5.0000000000000008E-15, -1.3300000000000001E-13, 198.4500334311812, -6.9000000000000009E-14
DataValue, -2.5, 0.1, 0, -4.7E-14, -4.8000000000000004E-14, -1.24E-13, 49.963027354508441, -9.5E-14
DataValue, -2.45, 0.1, 0, -2.1000000000000002E-14, -3.7E-14, -1.3800000000000002E-13, -0, -5.8E-14
DataValue, -2.4, 0.1, 0, -4.0000000000000006E-14, 0, -1.57E-13, -3649.7716780719679, -4.0000000000000006E-14
DataValue, -2.35, 0.1, 0, -4.2000000000000004E-14, -3.6000000000000004E-14, -1.06E-13, 0, -7.8000000000000008E-14
DataValue, -2.3000000000000003, 0.1, 0, -3.8E-14, -4.4E-14, -1.09E-13, -91.023922662684015, -8.2E-14
DataValue, -2.25, 0.1, 0, 6.0000000000000005E-15, 1.2000000000000001E-14, -1.75E-13, -314.01736022611777, 1.8000000000000002E-14
DataValue, -2.2, 0.1, 0, -2.2E-14, -3.2E-14, -1.35E-13, 347.6059496782222, -5.4000000000000003E-14
DataValue, -2.15, 0.1, 0, -3.2E-14, -1.6E-14, -1.3300000000000001E-13, -237.40931449540705, -4.8000000000000004E-14
DataValue, -2.1, 0.1, 0, -5.1000000000000004E-14, -2.1000000000000002E-14, -1.29E-13, 159.08148655141011, -7.2000000000000009E-14
DataValue, -2.05, 0.1, 0, -5.6E-14, -3.0000000000000005E-14, -1.5100000000000001E-13, 309.8148806469855, -8.6000000000000012E-14
DataValue, -2, 0.1, 0, -4.6000000000000006E-14, 2.9E-14, -1.23E-13, 212.76431452344437, -1.7000000000000003E-14
DataValue, -1.95, 0.1, 0, -2.0000000000000003E-14, -4.8000000000000004E-14, -1.46E-13, -168.14999971816957, -6.8000000000000013E-14
DataValue, -1.9000000000000001, 0.1, 0, -4.1E-14, -1.6E-14, -1.6700000000000002E-13, -59.737997497751884, -5.700000000000001E-14
DataValue, -1.85, 0.1, 0, -5.700000000000001E-14, -9.0000000000000011E-15, -1.6100000000000002E-13, 86.2636438639635, -6.6000000000000009E-14
DataValue, -1.8, 0.1, 0, -2.6000000000000003E-14, -5.1000000000000004E-14, -1.4900000000000002E-13, 72.134752044448419, -7.7E-14
DataValue, -1.75, 0.1, 0, -5E-14, -3.6000000000000004E-14, -1.41E-13, -177.13856649378118, -8.6000000000000012E-14
DataValue, -1.7, 0.1, 0, -3.2E-14, -2.9E-14, -1.3300000000000001E-13, -347.60594967822146, -6.1E-14
DataValue, -1.6500000000000001, 0.1, 0, -4.2000000000000004E-14, -2.7000000000000002E-14, -1.77E-13, -124.63443590062234, -6.9000000000000009E-14
DataValue, -1.6, 0.1, 0, -3.8E-14, -1.3000000000000001E-14, -1.3900000000000001E-13, -623.66438345077461, -5.1000000000000004E-14
DataValue, -1.55, 0.1, 0, -3.4E-14, -2.3000000000000003E-14, -1.29E-13, 82.018287888761009, -5.700000000000001E-14
DataValue, -1.5, 0.1, 0, 0, -4.4E-14, -1.3100000000000002E-13, -330.81815392551766, -4.4E-14
DataValue, -1.45, 0.1, 0, -5.4000000000000003E-14, -1.7E-14, -1.34E-13, -76.965527311157715, -7.1E-14
DataValue, -1.4000000000000001, 0.1, 0, -6.1E-14, 1.2000000000000001E-14, -1.3900000000000001E-13, -132.66614602023392, -4.9000000000000006E-14
DataValue, -1.35, 0.1, 0, -5E-14, -8E-15, -1.6200000000000002E-13, -40.242960438184483, -5.8E-14
DataValue, -1.3, 0.1, 0, -1.9E-14, -1E-15, -1.6100000000000002E-13, 123.3151731188219, -2E-14
DataValue, -1.25, 0.1, 0, -4.3000000000000006E-14, -1.8000000000000002E-14, -1.5100000000000001E-13, 28.357849205133387, -6.1E-14
DataValue, -1.2, 0.1, 0, -4.0000000000000006E-14, -3.4E-14, -1.4900000000000002E-13, -45.511961331341908, -7.4000000000000013E-14
DataValue, -1.1500000000000001, 0.1, 0, -5.3E-14, -2E-15, -1.4500000000000001E-13, -372.7671435491273, -5.5E-14
DataValue, -1.1, 0.1, 0, -7.3E-14, -2.6000000000000003E-14, -1.3100000000000002E-13, 28.725395960576421, -9.9000000000000007E-14
DataValue, -1.05, 0.1, 0, -5E-14, -6.5E-14, -1.34E-13, -68.1971438410713, -1.1500000000000002E-13
DataValue, -1, 0.1, 0, -1.8000000000000002E-14, -6.0000000000000005E-15, -1.34E-13, -62.1334934559612, -2.4000000000000002E-14
DataValue, -0.95000000000000007, 0.1, 0, -4.0000000000000006E-14, -1.3000000000000001E-14, -1.52E-13, 47.617668319259721, -5.3000000000000008E-14
DataValue, -0.9, 0.1, 0, -3.3000000000000005E-14, -4.9000000000000006E-14, -1.25E-13, 115.06978705529657, -8.2E-14
DataValue, -0.85, 0.1, 0, -7.4E-14, -3.1E-14, -1.6200000000000002E-13, -218.42020900700197, -1.0500000000000001E-13
DataValue, -0.8, 0.1, 0, -1.1E-14, 3.1E-14, -1.81E-13, -464.87545279135071, 2E-14
DataValue, -0.75, 0.1, 0, -5.4000000000000003E-14, 2.5E-14, -1.52E-13, 823.98890769603668, -2.9E-14
DataValue, -0.70000000000000007, 0.1, 0, -5.8E-14, -3.5E-14, -1.3800000000000002E-13, -121.80556500136764, -9.3000000000000008E-14
DataValue, -0.65, 0.1, 0, -3.6000000000000004E-14, 1.1E-14, -1.36E-13, -163.69047849108998, -2.5000000000000004E-14
DataValue, -0.6, 0.1, 0, -5.9E-14, -1.9E-14, -1.4500000000000001E-13, -498.32886545639843, -7.8E-14
DataValue, -0.55, 0.1, 0, -6.7E-14, -9.0000000000000011E-15, -1.69E-13, 181.136915242265, -7.6E-14
DataValue, -0.5, 0.1, 0, -3.9000000000000004E-14, -3.3000000000000005E-14, -1.5600000000000002E-13, 125.2336082340377, -7.2000000000000009E-14
DataValue, -0.45, 0.1, 0, -5.6E-14, -2.0000000000000003E-14, -1.83E-13, -58.6596931565969, -7.6E-14
DataValue, -0.4, 0.1, 0, -4.0000000000000006E-14, 6.0000000000000005E-15, -1.28E-13, 126.82994037090317, -3.4000000000000007E-14
DataValue, -0.35000000000000003, 0.1, 0, -4.2000000000000004E-14, -4.4E-14, -1.58E-13, 47.163948392575151, -8.6000000000000012E-14
DataValue, -0.3, 0.1, 0, -6.0000000000000009E-14, -5E-14, -1.4400000000000002E-13, -135.1959374627435, -1.1000000000000001E-13
DataValue, -0.25, 0.1, 0, -4.0000000000000006E-14, -2.1000000000000002E-14, -1.5000000000000002E-13, -78.556713586281262, -6.1E-14
DataValue, -0.2, 0.1, 0, -4.5000000000000004E-14, -1.4E-14, -1.1500000000000002E-13, -134.78227064641808, -5.9E-14
DataValue, -0.15, 0.1, 0, -3.4E-14, -1.0000000000000002E-14, -1.5600000000000002E-13, 75.118240771862972, -4.4E-14
DataValue, -0.1, 0.1, 0, -5.8E-14, -5.3E-14, -1.6100000000000002E-13, 56.339540579011384, -1.1100000000000001E-13
DataValue, -0.05, 0.1, 0, -6.7E-14, -5.9E-14, -1.76E-13, -42.357553644843442, -1.2600000000000002E-13
DataValue, 0, 0.1, 0, -2.6000000000000003E-14, 5.0000000000000008E-15, -1.48E-13, -43.748780987401808, -2.1000000000000002E-14
DataValue, 0.05, 0.1, 0, -4.9000000000000006E-14, 6.0000000000000005E-15, -1.4900000000000002E-13, 46.987365015359096, -4.3000000000000006E-14
DataValue, 0.1, 0.1, 0, -4.5000000000000004E-14, -4.2000000000000004E-14, -1.4400000000000002E-13, 79.82356001479279, -8.7000000000000008E-14
DataValue, 0.15, 0.1, 0, -5.8E-14, -2.1000000000000002E-14, -1.2600000000000002E-13, -126.06673906510477, -7.9E-14
DataValue, 0.2, 0.1, 0, -6.7E-14, -1.9E-14, -1.6800000000000002E-13, -42.52830325374461, -8.6000000000000012E-14
DataValue, 0.25, 0.1, 0, -5E-14, -2E-15, -1.19E-13, 257.88780075385262, -5.2E-14
DataValue, 0.3, 0.1, 0, -7.7E-14, -2.8E-14, -1.35E-13, , -1.0500000000000001E-13
DataValue, 0.35000000000000003, 0.1, 0, -5.4000000000000003E-14, -2E-15, -1.3100000000000002E-13, -118.0222501143833, -5.6E-14
DataValue, 0.4, 0.1, 0, -6.3000000000000009E-14, 1.2000000000000001E-14, -1.34E-13, 39.59253509887165, -5.100000000000001E-14
DataValue, 0.45, 0.1, 0, -5.4000000000000003E-14, -2.5E-14, -1.7200000000000002E-13, 67.32260137453477, -7.9E-14
DataValue, 0.5, 0.1, 0, -5.2000000000000006E-14, -5.3E-14, -1.4500000000000001E-13, -54.567833396864536, -1.0500000000000001E-13
DataValue, 0.55, 0.1, 0, -5.2000000000000006E-14, -4E-15, -1.48E-13, -186.46116341952853, -5.6000000000000008E-14
DataValue, 0.6, 0.1, 0, -2.9E-14, -3.1E-14, -1.48E-13, 84.8424690094926, -6E-14
DataValue, 0.65, 0.1, 0, -2.5E-14, -1.3000000000000001E-14, -1.4500000000000001E-13, -256.762635633176, -3.8E-14
DataValue, 0.70000000000000007, 0.1, 0, -3.7E-14, -2.1000000000000002E-14, -1.3E-13, 98.176896174688352, -5.8E-14
DataValue, 0.75, 0.1, 0, -4.7E-14, -3.6000000000000004E-14, -1.76E-13, -154.64862199470213, -8.3E-14
DataValue, 0.8, 0.1, 0, -4.7E-14, -1.1E-14, -1.9000000000000002E-13, -72.134752044448334, -5.8E-14
DataValue, 0.85, 0.1, 0, -4.7E-14, -9.0000000000000011E-15, -1.6700000000000002E-13, 43.957327671088322, -5.6E-14
DataValue, 0.9, 0.1, 0, -4.6000000000000006E-14, 1.0700000000000001E-13, -2.67E-13, 24.757714734536798, 6.1E-14
DataValue, 0.95000000000000007, 0.1, 0, -2E-15, 5.11E-13, -7.09E-13, 28.707629963662448, 5.0900000000000005E-13
DataValue, 1, 0.1, 0, -3.4E-14, 3.485E-12, -3.5730000000000002E-12, 27.080899722772259, 3.451E-12
DataValue, 1.05, 0.1, 0, 3.2E-14, 2.0517E-11, -2.0298000000000003E-11, 29.272964949702438, 2.0549E-11
DataValue, 1.1, 0.1, 0, 1.0000000000000002E-14, 1.0612200000000001E-10, -1.03985E-10, 32.408937409299725, 1.06132E-10
DataValue, 1.1500000000000001, 0.1, 0, -1.7E-14, 4.4891000000000006E-10, -4.39323E-10, 38.583545075053841, 4.4889300000000006E-10
DataValue, 1.2, 0.1, 0, -4.8000000000000004E-14, 1.4171E-09, -1.39077E-09, 48.627508647400582, 1.417052E-09
DataValue, 1.25, 0.1, 0, -4.2000000000000004E-14, 3.50965E-09, -3.471E-09, 62.725978423345623, 3.509608E-09
DataValue, 1.3, 0.1, 0, -3.6000000000000004E-14, 6.9786E-09, -6.91986E-09, 82.307691389332334, 6.978564E-09
DataValue, 1.35, 0.1, 0, -4.6000000000000006E-14, 1.1827999999999998E-08, -1.1769599999999999E-08, 105.29653754418537, 1.1827953999999999E-08
DataValue, 1.4000000000000001, 0.1, 0, -1.6E-14, 1.8039199999999998E-08, -1.79724E-08, 129.47902688890915, 1.8039184E-08
DataValue, 1.45, 0.1, 0, -4.7E-14, 2.5605199999999998E-08, -2.5537599999999998E-08, 152.97546402194422, 2.5605153E-08
DataValue, 1.5, 0.1, 0, -5.0000000000000008E-15, 3.4682899999999995E-08, -3.4597099999999994E-08, 169.60471412221233, 3.4682894999999997E-08
DataValue, 1.55, 0.1, 0, -9.0000000000000011E-15, 4.6173299999999996E-08, -4.60457E-08, 174.11621203203589, 4.6173290999999996E-08
DataValue, 1.6, 0.1, 0, -1.4E-14, 6.15947E-08, -6.13962E-08, 172.962458042286, 6.1594686E-08
DataValue, 1.6500000000000001, 0.1, 0, -4.1E-14, 8.2315699999999991E-08, -8.207189999999999E-08, 177.36201690978419, 8.2315658999999988E-08
DataValue, 1.7, 0.1, 0, -1.3000000000000001E-14, 1.0824469999999999E-07, -1.0797259999999999E-07, 192.19634764002791, 1.0824468699999999E-07
DataValue, 1.75, 0.1, 0, -3.0000000000000002E-15, 1.38499E-07, -1.38173E-07, 215.61944073139415, 1.38498997E-07
DataValue, 1.8, 0.1, 0, -4.0000000000000006E-14, 1.72117E-07, -1.71775E-07, 245.88498875798479, 1.7211696E-07
DataValue, 1.85, 0.1, 0, -2.3000000000000003E-14, 2.08004E-07, -2.07682E-07, 280.59909766679306, 2.0800397699999998E-07
DataValue, 1.9000000000000001, 0.1, 0, -3.5E-14, 2.45809E-07, -2.45508E-07, 316.00217437619227, 2.4580896499999995E-07
DataValue, 1.95, 0.1, 0, -6.1E-14, 2.85434E-07, -2.85124E-07, 352.25615167401185, 2.85433939E-07
DataValue, 2, 0.1, 0, -3.9000000000000004E-14, 3.26503E-07, -3.26164E-07, 389.53238892167559, 3.26502961E-07
DataValue, 2.05, 0.1, 0, -2.3000000000000003E-14, 3.68975E-07, -3.68643E-07, 425.56922044875387, 3.68974977E-07
DataValue, 2.1, 0.1, 0, -4.1E-14, 4.12988E-07, -4.12668E-07, 461.67397766948068, 4.12987959E-07
DataValue, 2.15, 0.1, 0, -3.2E-14, 4.58212E-07, -4.5788399999999997E-07, 498.61986517307696, 4.5821196799999996E-07
DataValue, 2.2, 0.1, 0, -3.9000000000000004E-14, 5.04704E-07, -5.04403E-07, 533.97838229119509, 5.04703961E-07
DataValue, 2.25, 0.1, 0, -4.8000000000000004E-14, 5.52584E-07, -5.52242E-07, 570.04583254028682, 5.52583952E-07
DataValue, 2.3000000000000003, 0.1, 0, -9.0000000000000011E-15, 6.01482E-07, -6.0113399999999994E-07, 607.54550379084958, 6.01481991E-07
DataValue, 2.35, 0.1, 0, -6.5E-14, 6.51451E-07, -6.51165E-07, 643.84404150745638, 6.5145093499999992E-07
DataValue, 2.4, 0.1, 0, -2.6000000000000003E-14, 7.02548E-07, -7.02205E-07, 678.47331991978956, 7.02547974E-07
DataValue, 2.45, 0.1, 0, -1.7E-14, 7.54905E-07, -7.54536E-07, 715.1046682855897, 7.54904983E-07
DataValue, 2.5, 0.1, 0, -5.8E-14, 8.07993E-07, -8.07707E-07, 753.11594409755321, 8.07992942E-07
DataValue, 2.5500000000000003, 0.1, 0, -3.6000000000000004E-14, 8.62102E-07, -8.6171899999999994E-07, 789.6589257798023, 8.62101964E-07
DataValue, 2.6, 0.1, 0, -3.5E-14, 9.1707599999999995E-07, -9.16755E-07, 827.44995001792006, 9.1707596499999993E-07
