
SetupTitle, I/V Sweep - Unit (transfer)
PrimitiveTest, I/V Sweep
TestParameter, Context.MainFrame, B1500A
TestParameter, Channel.UnitType, SMU, SMU, SMU
TestParameter, Channel.Unit, SMU1:HR, SMU2:HR, SMU4:HR
TestParameter, Channel.IName, IG, ID, IS
TestParameter, Channel.VName, VG, VD, VS
TestParameter, Channel.Mode, V, V, COMMON
TestParameter, Channel.Func, VAR1, VAR2, CONST
TestParameter, Channel.Index, 
TestParameter, Channel.Time, 
TestParameter, Measurement.Port.Unit, SMU1:HR, SMU2:HR, SMU4:HR
TestParameter, Measurement.Port.SeriesResistor, NONE, NONE, NONE
TestParameter, Measurement.Port.Filter, ON, ON, ON
TestParameter, Measurement.Port.OutputVoltageComparison, 0, 0, 0
TestParameter, Measurement.Primary.Locus, Single
TestParameter, Measurement.Primary.Scale, LINEAR
TestParameter, Measurement.Primary.Start, -3
TestParameter, Measurement.Primary.Stop, 3
TestParameter, Measurement.Primary.Step, 0.06
TestParameter, Measurement.Primary.Compliance, 0.1
TestParameter, Measurement.Primary.PowerCompliance, 0
TestParameter, Measurement.Aborting.Condition, CONTINUE AT ANY
TestParameter, Measurement.PostOutput.Value, START
TestParameter, Measurement.PostOutput.Retention, OFF
TestParameter, Measurement.Secondary.Start, 0.1
TestParameter, Measurement.Secondary.Count, 5
TestParameter, Measurement.Secondary.Step, 0.8
TestParameter, Measurement.Secondary.Compliance, 0.1
TestParameter, Measurement.Secondary.PowerCompliance, 0
TestParameter, Measurement.Bias.Source, -3, 0.1, 0
TestParameter, Measurement.Bias.Compliance, 0.1, 0.1, 0.1
TestParameter, Measurement.Monitor.Unit, SMU1:HR, SMU2:HR, SMU4:HR
TestParameter, Measurement.Monitor.Adc, HR ADC, HR ADC, HR ADC
TestParameter, Measurement.Monitor.Measurement, Compliance Side, Compliance Side, Compliance Side
TestParameter, Measurement.Monitor.RangingMode, LIMITED, LIMITED, LIMITED
TestParameter, Measurement.Monitor.RangeBoundary, 1nA, 1nA, 1nA
TestParameter, Measurement.Monitor.RangeRating, BY FULL RANGE, BY FULL RANGE, BY FULL RANGE
TestParameter, Measurement.Monitor.RangeRatingCoeff, 50, 50, 50
TestParameter, Measurement.Timing.Hold, 0
TestParameter, Measurement.Timing.Delay, 0
TestParameter, Measurement.Adc.HighSpeed.Mode, PLC
TestParameter, Measurement.Adc.HighSpeed.Coeff, 5
TestParameter, Measurement.Adc.HighResolution.AutoZero, OFF
TestParameter, Measurement.Adc.HighResolution.Mode, PLC
TestParameter, Measurement.Adc.HighResolution.Coeff, 5
TestParameter, Measurement.WaitTime.Source.Coeff, 1
TestParameter, Measurement.WaitTime.Source.Offset, 0
TestParameter, Measurement.WaitTime.Monitor.Coeff, 1
TestParameter, Measurement.WaitTime.Monitor.Offset, 0
TestParameter, Function.User.Name, SS
TestParameter, Function.User.Unit, mV/dec
TestParameter, Function.User.Definition, diff(VG,log(ID))*1000
TestParameter, Output.Graph.Enabled, true
TestParameter, Output.Graph.AutoScaling, false
TestParameter, Output.Graph.XAxis.Data, VG
TestParameter, Output.Graph.XAxis.Scale, Linear
TestParameter, Output.Graph.XAxis.Left, -3
TestParameter, Output.Graph.XAxis.Right, 3
TestParameter, Output.Graph.XAxis.RunTimeAutoScale, true
TestParameter, Output.Graph.YAxis.Data, ID, IG
TestParameter, Output.Graph.YAxis.Scale, Log, Log
TestParameter, Output.Graph.YAxis.Bottom, 0, 1E-15
TestParameter, Output.Graph.YAxis.Top, 0.0001, 1E-12
TestParameter, Output.Graph.YAxis.Group, , 
TestParameter, Output.Graph.YAxis.RunTimeAutoScale, true, true
TestParameter, Output.List.Data, VG, VD, VS, IG, ID, IS, SS
TestParameter, Output.Scalar.Data, SS
TestParameter, AutoAnalysis.Interpolation, false
TestParameter, AutoAnalysis.Var2StepCount, 1
TestParameter, AutoAnalysis.Var2StepScript, 
TestParameter, AutoAnalysis.Line1.Enabled, false
TestParameter, AutoAnalysis.Line1.Type, 1
TestParameter, AutoAnalysis.Line1.Fix, True
TestParameter, AutoAnalysis.Line1.YAxis, 0
TestParameter, AutoAnalysis.Line1.Point1.Type, 0
TestParameter, AutoAnalysis.Line1.Point1.XY.X, 
TestParameter, AutoAnalysis.Line1.Point1.XY.Y, 
TestParameter, AutoAnalysis.Line1.Point1.Data.Var, 
TestParameter, AutoAnalysis.Line1.Point1.Data.Condition, 
TestParameter, AutoAnalysis.Line1.Point1.Data.Start, false
TestParameter, AutoAnalysis.Line1.Point1.Data.StartVar, 
TestParameter, AutoAnalysis.Line1.Point1.Data.StartCondition, 
TestParameter, AutoAnalysis.Line1.Point2.Type, 0
TestParameter, AutoAnalysis.Line1.Point2.XY.X, 
TestParameter, AutoAnalysis.Line1.Point2.XY.Y, 
TestParameter, AutoAnalysis.Line1.Point2.Data.Var, 
TestParameter, AutoAnalysis.Line1.Point2.Data.Condition, 
TestParameter, AutoAnalysis.Line1.Point2.Data.Start, false
TestParameter, AutoAnalysis.Line1.Point2.Data.StartVar, 
TestParameter, AutoAnalysis.Line1.Point2.Data.StartCondition, 
TestParameter, AutoAnalysis.Line1.GradientExpr, 0
TestParameter, AutoAnalysis.Line2.Enabled, false
TestParameter, AutoAnalysis.Line2.Type, 1
TestParameter, AutoAnalysis.Line2.Fix, True
TestParameter, AutoAnalysis.Line2.YAxis, 0
TestParameter, AutoAnalysis.Line2.Point1.Type, 0
TestParameter, AutoAnalysis.Line2.Point1.XY.X, 
TestParameter, AutoAnalysis.Line2.Point1.XY.Y, 
TestParameter, AutoAnalysis.Line2.Point1.Data.Var, 
TestParameter, AutoAnalysis.Line2.Point1.Data.Condition, 
TestParameter, AutoAnalysis.Line2.Point1.Data.Start, false
TestParameter, AutoAnalysis.Line2.Point1.Data.StartVar, 
TestParameter, AutoAnalysis.Line2.Point1.Data.StartCondition, 
TestParameter, AutoAnalysis.Line2.Point2.Type, 0
TestParameter, AutoAnalysis.Line2.Point2.XY.X, 
TestParameter, AutoAnalysis.Line2.Point2.XY.Y, 
TestParameter, AutoAnalysis.Line2.Point2.Data.Var, 
TestParameter, AutoAnalysis.Line2.Point2.Data.Condition, 
TestParameter, AutoAnalysis.Line2.Point2.Data.Start, false
TestParameter, AutoAnalysis.Line2.Point2.Data.StartVar, 
TestParameter, AutoAnalysis.Line2.Point2.Data.StartCondition, 
TestParameter, AutoAnalysis.Line2.GradientExpr, 0
TestParameter, AutoAnalysis.Marker.Enabled, false
TestParameter, AutoAnalysis.Marker.Data.Var, 
TestParameter, AutoAnalysis.Marker.Data.Condition, 
TestParameter, AutoAnalysis.Marker.Data.Start, false
TestParameter, AutoAnalysis.Marker.Data.StartVar, 
TestParameter, AutoAnalysis.Marker.Data.StartCondition, 
MetaData, TestRecord.EntryPoint, true
MetaData, TestRecord.RecordTime, 02/05/2026 11:28:33
MetaData, TestRecord.TestTarget, upper_tr
MetaData, TestRecord.IterationIndex, 3
MetaData, TestRecord.Preservation, true
MetaData, TestRecord.Flag, 
MetaData, TestRecord.Remarks, 
MetaData, TestRecord.LinkKey, f1b0e158-5124-4ac7-8ae6-ddb3d806c42e
MetaData, TestRecord.Parameters, 
Dimension1, 101, 101, 101, 101, 101, 101, 101
Dimension2, 5, 5, 5, 5, 5, 5, 5
DataName, VG, VD, VS, IG, ID, IS, SS
DataValue, -3, 0.1, 0, -1.3E-13, -9.0000000000000008E-14, -2.5E-14, -1049.7142234913426
DataValue, -2.94, 0.1, 0, -1.4E-13, -8.5E-14, -2.6000000000000003E-14, 429.62427997691788
DataValue, -2.88, 0.1, 0, -1.34E-13, -1.19E-13, 1.7E-14, 1516.351566527344
DataValue, -2.82, 0.1, 0, -1.2700000000000001E-13, -9.2000000000000012E-14, -9.6000000000000007E-14, 2915.5884308946706
DataValue, -2.7600000000000002, 0.1, 0, -1.4300000000000002E-13, -1.24E-13, 2.1000000000000002E-14, 499.19845835802204
DataValue, -2.7, 0.1, 0, -1.06E-13, -1.17E-13, 1.5000000000000002E-14, -308.11516275981114
DataValue, -2.64, 0.1, 0, -1.0800000000000001E-13, -8.4000000000000008E-14, -2E-15, 994.79401256600238
DataValue, -2.58, 0.1, 0, -1.4300000000000002E-13, -1.3200000000000002E-13, 5.700000000000001E-14, -1058.8669556602067
DataValue, -2.52, 0.1, 0, -1.35E-13, -7.5000000000000009E-14, -4.8000000000000004E-14, -376.82083227134132
DataValue, -2.46, 0.1, 0, -1.16E-13, -9.6000000000000007E-14, -1.6E-14, 557.85054334962149
DataValue, -2.4, 0.1, 0, -8.9000000000000012E-14, -9.3000000000000008E-14, 1.4E-14, -417.12713961386157
DataValue, -2.34, 0.1, 0, -1E-13, -7.2000000000000009E-14, -4.3000000000000006E-14, 3779.6825183504466
DataValue, -2.2800000000000002, 0.1, 0, -1.0400000000000001E-13, -9.6000000000000007E-14, 2.8E-14, 231.15845422725025
DataValue, -2.22, 0.1, 0, -1.1300000000000001E-13, -1.2100000000000002E-13, -4.3000000000000006E-14, 1211.009253098068
DataValue, -2.16, 0.1, 0, -1E-13, -1.06E-13, -1.2000000000000001E-14, -4779.7489434255713
DataValue, -2.1, 0.1, 0, -1.3900000000000001E-13, -1.18E-13, -2E-15, -346.86995192292358
DataValue, -2.04, 0.1, 0, -8.9000000000000012E-14, -7.5000000000000009E-14, -1.1E-14, -308.75474878128364
DataValue, -1.98, 0.1, 0, -1.06E-13, -8.0000000000000013E-14, -6.3000000000000009E-14, -1224.7346383661286
DataValue, -1.92, 0.1, 0, -1.0700000000000001E-13, -6.8E-14, -3.4E-14, 591.30531654809465
DataValue, -1.86, 0.1, 0, -7E-14, -9.8000000000000012E-14, -2.2E-14, 602.00798976206988
DataValue, -1.8, 0.1, 0, -1.2700000000000001E-13, -8.3000000000000012E-14, -2.2E-14, -918.694169457251
DataValue, -1.74, 0.1, 0, -1.0100000000000001E-13, -8.6000000000000012E-14, -1E-15, -602.007989762071
DataValue, -1.68, 0.1, 0, -9.6000000000000007E-14, -6.8E-14, -1.7E-14, 631.43404027551321
DataValue, -1.62, 0.1, 0, -1.18E-13, -1.0400000000000001E-13, -2E-15, 244.88671631646827
DataValue, -1.56, 0.1, 0, -6.6000000000000009E-14, -1.1100000000000001E-13, -4.4E-14, 403.698519691342
DataValue, -1.5, 0.1, 0, -1.0700000000000001E-13, -1.4E-13, -3.8E-14, -380.85439057572728
DataValue, -1.44, 0.1, 0, -1.29E-13, -8.1000000000000008E-14, 1.3000000000000001E-14, -192.26014826081484
DataValue, -1.3800000000000001, 0.1, 0, -1.0100000000000001E-13, -7.5000000000000009E-14, -2.2E-14, 1030.8361593167085
DataValue, -1.32, 0.1, 0, -1.03E-13, -9.1E-14, -1.2000000000000001E-14, -630.40530359527133
DataValue, -1.26, 0.1, 0, -1.29E-13, -6.2E-14, -9.0000000000000011E-15, -373.59346207200304
DataValue, -1.2, 0.1, 0, -1.3200000000000002E-13, -6.6000000000000009E-14, -5.4000000000000003E-14, 251.02722382566529
DataValue, -1.1400000000000001, 0.1, 0, -8.3000000000000012E-14, -1E-13, -7E-14, 453.35616013229748
DataValue, -1.08, 0.1, 0, -1.34E-13, -8.6000000000000012E-14, -2.4000000000000002E-14, 6059.8019750212634
DataValue, -1.02, 0.1, 0, -9.1E-14, -1.0200000000000001E-13, -2.2E-14, -221.26982329589742
DataValue, -0.96, 0.1, 0, -8.0000000000000013E-14, -5E-14, -1.4E-14, -1687.8605292412806
DataValue, -0.9, 0.1, 0, -1.1400000000000002E-13, -9.5000000000000012E-14, -4.7E-14, 2059.41734388922
DataValue, -0.84, 0.1, 0, -8.6000000000000012E-14, -5.3E-14, -2.2E-14, -1205.6715350001448
DataValue, -0.78, 0.1, 0, -7.9E-14, -8.6000000000000012E-14, -1.9E-14, 242.12283368577863
DataValue, -0.72, 0.1, 0, -1.0200000000000001E-13, -8.7000000000000008E-14, 7E-15, 412.96030191513984
DataValue, -0.66, 0.1, 0, -9.9000000000000007E-14, -1.1500000000000002E-13, -3.1E-14, 638.12058512118085
DataValue, -0.6, 0.1, 0, -8.4000000000000008E-14, -1.0500000000000001E-13, -1.7E-14, -801.002437309184
DataValue, -0.54, 0.1, 0, -1.16E-13, -9.9000000000000007E-14, -5.0000000000000008E-15, -725.84751281233275
DataValue, -0.48, 0.1, 0, -1.1100000000000001E-13, -8.9000000000000012E-14, -3.7E-14, -1424.1574962523259
DataValue, -0.42, 0.1, 0, -1.12E-13, -9.1E-14, -6.0000000000000005E-15, -1006.8083969286735
DataValue, -0.36, 0.1, 0, -8.2E-14, -7.9E-14, 9.1E-14, 360.00621377017
DataValue, -0.3, 0.1, 0, -1.12E-13, -1.2700000000000001E-13, -4.6000000000000006E-14, -300.63438446191958
DataValue, -0.24, 0.1, 0, -9.6000000000000007E-14, -5.3E-14, -3.8E-14, -259.65008372438695
DataValue, -0.18, 0.1, 0, -1.0200000000000001E-13, -8.0000000000000013E-14, -9.0000000000000011E-15, 217.58971167496503
DataValue, -0.12, 0.1, 0, -1.0700000000000001E-13, -9.2000000000000012E-14, 1.2000000000000001E-14, -305.31042596975624
DataValue, -0.06, 0.1, 0, -1.1400000000000002E-13, -5.4000000000000003E-14, 0, -726.9213803553032
DataValue, 0, 0.1, 0, -8.8E-14, -7.8000000000000008E-14, -2.1000000000000002E-14, 305.31042596975624
DataValue, 0.06, 0.1, 0, -9.7E-14, -8.0000000000000013E-14, -7E-15, -9299.870966310571
DataValue, 0.12, 0.1, 0, -8.4000000000000008E-14, -7.7E-14, -1.3000000000000001E-14, -150.28032988084453
DataValue, 0.18, 0.1, 0, -9.7E-14, 3.6000000000000004E-14, -1.46E-13, 48.3336996964773
DataValue, 0.24, 0.1, 0, -1.36E-13, 9.2200000000000011E-13, -9.99E-13, 22.547655797174155
DataValue, 0.3, 0.1, 0, -1.16E-13, 7.373000000000001E-12, -7.424E-12, 30.027263694352332
DataValue, 0.36, 0.1, 0, -8.0000000000000013E-14, 5.0157000000000004E-11, -4.9859E-11, 33.029152266037492
DataValue, 0.42, 0.1, 0, -1.1300000000000001E-13, 2.7893500000000003E-10, -2.77636E-10, 38.520093871157421
DataValue, 0.48, 0.1, 0, -1.09E-13, 1.1305E-09, -1.1297E-09, 48.496285921609122
DataValue, 0.54, 0.1, 0, -1.03E-13, 3.31229E-09, -3.31455E-09, 63.947926959802032
DataValue, 0.6, 0.1, 0, -9.1E-14, 7.38305E-09, -7.37002E-09, 86.007233802108715
DataValue, 0.66, 0.1, 0, -9.2000000000000012E-14, 1.3368099999999998E-08, -1.3372899999999998E-08, 113.90323983164031
DataValue, 0.72, 0.1, 0, -1.0800000000000001E-13, 2.1172699999999997E-08, -2.1133099999999997E-08, 145.75777719938179
DataValue, 0.78, 0.1, 0, -9.5000000000000012E-14, 3.04521E-08, -3.0436999999999997E-08, 181.76895788162852
DataValue, 0.84, 0.1, 0, -9.9000000000000007E-14, 4.0972099999999997E-08, -4.09528E-08, 219.07933798277017
DataValue, 0.9, 0.1, 0, -7.5000000000000009E-14, 5.2662399999999994E-08, -5.2641399999999996E-08, 257.82201059708626
DataValue, 0.96, 0.1, 0, -1.03E-13, 6.52567E-08, -6.52029E-08, 297.66469843794204
DataValue, 1.02, 0.1, 0, -1E-13, 7.8809999999999989E-08, -7.8785999999999988E-08, 338.06442363936105
DataValue, 1.08, 0.1, 0, -1.0200000000000001E-13, 9.30643E-08, -9.3069799999999988E-08, 380.87329412830326
DataValue, 1.1400000000000001, 0.1, 0, -1.0100000000000001E-13, 1.079972E-07, -1.080361E-07, 421.28404502886849
DataValue, 1.2, 0.1, 0, -1.34E-13, 1.23734E-07, -1.23741E-07, 463.2415099573808
DataValue, 1.26, 0.1, 0, -1.1100000000000001E-13, 1.3993099999999998E-07, -1.39971E-07, 506.47300686793119
DataValue, 1.32, 0.1, 0, -8.0000000000000013E-14, 1.56815E-07, -1.5683199999999999E-07, 548.65702679880292
DataValue, 1.3800000000000001, 0.1, 0, -1.19E-13, 1.74141E-07, -1.74093E-07, 593.504117072932
DataValue, 1.44, 0.1, 0, -1.06E-13, 1.91954E-07, -1.92041E-07, 637.02752281818334
DataValue, 1.5, 0.1, 0, -1.0500000000000001E-13, 2.10238E-07, -2.10238E-07, 678.80749843788021
DataValue, 1.56, 0.1, 0, -1.2000000000000002E-13, 2.29072E-07, -2.28875E-07, 726.141399459357
DataValue, 1.62, 0.1, 0, -1.03E-13, 2.48017E-07, -2.48077E-07, 769.27416133673569
DataValue, 1.68, 0.1, 0, -7.4E-14, 2.67743E-07, -2.67802E-07, 803.24650239427069
DataValue, 1.74, 0.1, 0, -1.03E-13, 2.8798E-07, -2.88014E-07, 848.77752368353049
DataValue, 1.8, 0.1, 0, -9.2000000000000012E-14, 3.08403E-07, -3.08282E-07, 898.03165767857956
DataValue, 1.86, 0.1, 0, -1.03E-13, 3.29151E-07, -3.29213E-07, 940.821396505283
DataValue, 1.92, 0.1, 0, -9.3000000000000008E-14, 3.5035799999999997E-07, -3.50347E-07, 988.197232266661
DataValue, 1.98, 0.1, 0, -9.4E-14, 3.71649E-07, -3.71969E-07, 1029.5571634197431
DataValue, 2.04, 0.1, 0, -1.42E-13, 3.93669E-07, -3.9372999999999997E-07, 1065.1434850699754
DataValue, 2.1, 0.1, 0, -6.1E-14, 4.15969E-07, -4.15904E-07, 1118.2449565113295
DataValue, 2.16, 0.1, 0, -9.5000000000000012E-14, 4.38264E-07, -4.3820499999999997E-07, 1169.2361079516863
DataValue, 2.22, 0.1, 0, -1.0200000000000001E-13, 4.60928E-07, -4.61223E-07, 1200.1146519763058
DataValue, 2.2800000000000002, 0.1, 0, -1.34E-13, 4.84352E-07, -4.84324E-07, 1240.2430372777474
DataValue, 2.34, 0.1, 0, -8.4000000000000008E-14, 5.07754E-07, -5.07888E-07, 1292.4872204824487
DataValue, 2.4, 0.1, 0, -1.4E-13, 5.31475E-07, -5.31262E-07, 1340.9886200153321
DataValue, 2.46, 0.1, 0, -1.03E-13, 5.55286E-07, -5.55099E-07, 1379.3462456391681
DataValue, 2.52, 0.1, 0, -8.8E-14, 5.79783E-07, -5.79797E-07, 1433.5766273168949
DataValue, 2.58, 0.1, 0, -9.7E-14, 6.03768E-07, -6.0364E-07, 1491.4952677326737
DataValue, 2.64, 0.1, 0, -1.17E-13, 6.28358E-07, -6.28299E-07, 1522.2119772854653
DataValue, 2.7, 0.1, 0, -1.23E-13, 6.53291E-07, -6.5333799999999994E-07, 1567.836985851246
DataValue, 2.7600000000000002, 0.1, 0, -8.7000000000000008E-14, 6.7834E-07, -6.78323E-07, 1604.3753979153225
DataValue, 2.82, 0.1, 0, -1.3E-13, 7.04028E-07, -7.03627E-07, 1650.4064953498312
DataValue, 2.88, 0.1, 0, -7.1E-14, 7.2949899999999993E-07, -7.29394E-07, 1697.4246860485184
DataValue, 2.94, 0.1, 0, -1.0200000000000001E-13, 7.5560099999999994E-07, -7.5587699999999993E-07, 1735.964673853184
DataValue, 3, 0.1, 0, -8.1000000000000008E-14, 7.8171E-07, -7.81735E-07, 1766.245180723452
DataValue, -3, 0.9, 0, -1.53E-13, -7.3E-14, -4E-15, 1489.7986359477407
DataValue, -2.94, 0.9, 0, -1.34E-13, -7.6E-14, -6.0000000000000009E-14, 4439.7297165667605
DataValue, -2.88, 0.9, 0, -1.03E-13, -7.5000000000000009E-14, 3.3000000000000005E-14, 3099.6128645488916
DataValue, -2.82, 0.9, 0, -1.3100000000000002E-13, -7.9E-14, -1.6E-14, 1559.2304655513603
DataValue, -2.7600000000000002, 0.9, 0, -1.4900000000000002E-13, -8.1000000000000008E-14, -4.9000000000000006E-14, 1006.8083969286705
DataValue, -2.7, 0.9, 0, -1.06E-13, -8.9000000000000012E-14, -6.6000000000000009E-14, -238.74474860207991
DataValue, -2.64, 0.9, 0, -1.0500000000000001E-13, -4.9000000000000006E-14, -3.6000000000000004E-14, 880.17551927790214
DataValue, -2.58, 0.9, 0, -1.34E-13, -1.0200000000000001E-13, -2.4000000000000002E-14, 190.48578160509481
DataValue, -2.52, 0.9, 0, -9.8000000000000012E-14, -9.2000000000000012E-14, 5.0000000000000008E-15, -958.74869524567612
DataValue, -2.46, 0.9, 0, -1.36E-13, -9.0000000000000008E-14, -3.0000000000000005E-14, -3619.6684839992017
DataValue, -2.4, 0.9, 0, -1.16E-13, -8.9000000000000012E-14, 9.0000000000000011E-15, 1602.1081998013528
DataValue, -2.34, 0.9, 0, -1.54E-13, -9.7E-14, 5.0000000000000008E-15, 10739.88826722462
DataValue, -2.2800000000000002, 0.9, 0, -1.54E-13, -9.0000000000000008E-14, 1.6E-14, 704.96527663447773
DataValue, -2.22, 0.9, 0, -1.2700000000000001E-13, -1.1500000000000002E-13, -1.2000000000000001E-14, 1409.1485248241606
DataValue, -2.16, 0.9, 0, -7.9E-14, -9.8000000000000012E-14, 7E-15, 748.39726014092957
DataValue, -2.1, 0.9, 0, -1.3200000000000002E-13, -1.35E-13, -2.9E-14, -1619.2589881029733
DataValue, -2.04, 0.9, 0, -1.2700000000000001E-13, -9.1E-14, -6.6000000000000009E-14, -516.24905966146071
DataValue, -1.98, 0.9, 0, -1.2100000000000002E-13, -1.0700000000000001E-13, -3.0000000000000002E-15, 3699.6756529294421
DataValue, -1.92, 0.9, 0, -8.6000000000000012E-14, -9.4E-14, -1.8000000000000002E-14, -855.74102309926059
DataValue, -1.86, 0.9, 0, -1.22E-13, -9.3000000000000008E-14, -4.3000000000000006E-14, 1312.4191186499547
DataValue, -1.8, 0.9, 0, -1.3E-13, -1.03E-13, -3.3000000000000005E-14, 855.74102309926218
DataValue, -1.74, 0.9, 0, -1.3E-13, -1.0700000000000001E-13, -6.8E-14, -889.42044674063459
DataValue, -1.68, 0.9, 0, -1.3900000000000001E-13, -9.0000000000000008E-14, 2.9E-14, -613.83579754306857
DataValue, -1.62, 0.9, 0, -9.5000000000000012E-14, -8.8E-14, -3.3000000000000005E-14, 271.59598146815182
DataValue, -1.56, 0.9, 0, -1.09E-13, -1.4E-13, -1.9E-14, -3459.6531513746932
DataValue, -1.5, 0.9, 0, -7.5000000000000009E-14, -8.5E-14, -2.4000000000000002E-14, -192.26014826081519
DataValue, -1.44, 0.9, 0, -1.46E-13, -7.5000000000000009E-14, -1.7E-14, 339.80925856096172
DataValue, -1.3800000000000001, 0.9, 0, -1.4E-13, -1.2100000000000002E-13, -1.0000000000000002E-14, 196.79694227572227
DataValue, -1.32, 0.9, 0, -1.24E-13, -1.3800000000000002E-13, -7E-14, -1552.5604935361243
DataValue, -1.26, 0.9, 0, -1.29E-13, -1.12E-13, -6.9000000000000009E-14, -600.402670723689
DataValue, -1.2, 0.9, 0, -9.7E-14, -1.1300000000000001E-13, -2.3000000000000003E-14, -577.92509685317862
DataValue, -1.1400000000000001, 0.9, 0, -8.1000000000000008E-14, -9.1E-14, -2.6000000000000003E-14, 1415.1521362369429
DataValue, -1.08, 0.9, 0, -8.7000000000000008E-14, -1.23E-13, -2.9E-14, 1272.3903663168012
DataValue, -1.02, 0.9, 0, -1E-13, -1E-13, -4.5000000000000004E-14, -715.1649575342467
