
SetupTitle, I/V Sweep - Unit (transfer)
PrimitiveTest, I/V Sweep
TestParameter, Context.MainFrame, B1500A
TestParameter, Channel.UnitType, SMU, SMU, SMU
TestParameter, Channel.Unit, SMU3:HR, SMU1:HR, SMU2:HR
TestParameter, Channel.IName, IG, ID, IS
TestParameter, Channel.VName, VG, VD, VS
TestParameter, Channel.Mode, V, V, COMMON
TestParameter, Channel.Func, VAR1, VAR2, CONST
TestParameter, Channel.Index, 
TestParameter, Channel.Time, 
TestParameter, Measurement.Port.Unit, SMU3:HR, SMU1:HR, SMU2:HR
TestParameter, Measurement.Port.SeriesResistor, NONE, NONE, NONE
TestParameter, Measurement.Port.Filter, ON, ON, ON
TestParameter, Measurement.Port.OutputVoltageComparison, 0, 0, 0
TestParameter, Measurement.Primary.Locus, Single
TestParameter, Measurement.Primary.Scale, LINEAR
TestParameter, Measurement.Primary.Start, -3
TestParameter, Measurement.Primary.Stop, 3
TestParameter, Measurement.Primary.Step, 0.06
TestParameter, Measurement.Primary.Compliance, 0.1
TestParameter, Measurement.Primary.PowerCompliance, 0
TestParameter, Measurement.Aborting.Condition, CONTINUE AT ANY
TestParameter, Measurement.PostOutput.Value, START
TestParameter, Measurement.PostOutput.Retention, OFF
TestParameter, Measurement.Secondary.Start, 0.1
TestParameter, Measurement.Secondary.Count, 5
TestParameter, Measurement.Secondary.Step, 0.70000000000000007
TestParameter, Measurement.Secondary.Compliance, 0.1
TestParameter, Measurement.Secondary.PowerCompliance, 0
TestParameter, Measurement.Bias.Source, -3, 0.1, 0
TestParameter, Measurement.Bias.Compliance, 0.1, 0.1, 0.1
TestParameter, Measurement.Monitor.Unit, SMU3:HR, SMU1:HR, SMU2:HR
TestParameter, Measurement.Monitor.Adc, HR ADC, HR ADC, HR ADC
TestParameter, Measurement.Monitor.Measurement, Compliance Side, Compliance Side, Compliance Side
TestParameter, Measurement.Monitor.RangingMode, LIMITED, LIMITED, LIMITED
TestParameter, Measurement.Monitor.RangeBoundary, 1nA, 1nA, 1nA
TestParameter, Measurement.Monitor.RangeRating, BY FULL RANGE, BY FULL RANGE, BY FULL RANGE
TestParameter, Measurement.Monitor.RangeRatingCoeff, 50, 50, 50
TestParameter, Measurement.Timing.Hold, 0
TestParameter, Measurement.Timing.Delay, 0
TestParameter, Measurement.Adc.HighSpeed.Mode, PLC
TestParameter, Measurement.Adc.HighSpeed.Coeff, 5
TestParameter, Measurement.Adc.HighResolution.AutoZero, OFF
TestParameter, Measurement.Adc.HighResolution.Mode, PLC
TestParameter, Measurement.Adc.HighResolution.Coeff, 5
TestParameter, Measurement.WaitTime.Source.Coeff, 1
TestParameter, Measurement.WaitTime.Source.Offset, 0
TestParameter, Measurement.WaitTime.Monitor.Coeff, 1
TestParameter, Measurement.WaitTime.Monitor.Offset, 0
TestParameter, Function.User.Name, SS
TestParameter, Function.User.Unit, mV/dec
TestParameter, Function.User.Definition, diff(VG,log(ID))*1000
TestParameter, Output.Graph.Enabled, true
TestParameter, Output.Graph.AutoScaling, false
TestParameter, Output.Graph.XAxis.Data, VG
TestParameter, Output.Graph.XAxis.Scale, Linear
TestParameter, Output.Graph.XAxis.Left, -3
TestParameter, Output.Graph.XAxis.Right, 3
TestParameter, Output.Graph.XAxis.RunTimeAutoScale, true
TestParameter, Output.Graph.YAxis.Data, ID, IG
TestParameter, Output.Graph.YAxis.Scale, Log, Log
TestParameter, Output.Graph.YAxis.Bottom, 0, 1E-15
TestParameter, Output.Graph.YAxis.Top, 0.0001, 1E-12
TestParameter, Output.Graph.YAxis.Group, , 
TestParameter, Output.Graph.YAxis.RunTimeAutoScale, true, true
TestParameter, Output.List.Data, VG, VD, VS, IG, ID, IS, SS
TestParameter, Output.Scalar.Data, SS
TestParameter, AutoAnalysis.Interpolation, false
TestParameter, AutoAnalysis.Var2StepCount, 1
TestParameter, AutoAnalysis.Var2StepScript, 
TestParameter, AutoAnalysis.Line1.Enabled, false
TestParameter, AutoAnalysis.Line1.Type, 1
TestParameter, AutoAnalysis.Line1.Fix, True
TestParameter, AutoAnalysis.Line1.YAxis, 0
TestParameter, AutoAnalysis.Line1.Point1.Type, 0
TestParameter, AutoAnalysis.Line1.Point1.XY.X, 
TestParameter, AutoAnalysis.Line1.Point1.XY.Y, 
TestParameter, AutoAnalysis.Line1.Point1.Data.Var, 
TestParameter, AutoAnalysis.Line1.Point1.Data.Condition, 
TestParameter, AutoAnalysis.Line1.Point1.Data.Start, false
TestParameter, AutoAnalysis.Line1.Point1.Data.StartVar, 
TestParameter, AutoAnalysis.Line1.Point1.Data.StartCondition, 
TestParameter, AutoAnalysis.Line1.Point2.Type, 0
TestParameter, AutoAnalysis.Line1.Point2.XY.X, 
TestParameter, AutoAnalysis.Line1.Point2.XY.Y, 
TestParameter, AutoAnalysis.Line1.Point2.Data.Var, 
TestParameter, AutoAnalysis.Line1.Point2.Data.Condition, 
TestParameter, AutoAnalysis.Line1.Point2.Data.Start, false
TestParameter, AutoAnalysis.Line1.Point2.Data.StartVar, 
TestParameter, AutoAnalysis.Line1.Point2.Data.StartCondition, 
TestParameter, AutoAnalysis.Line1.GradientExpr, 0
TestParameter, AutoAnalysis.Line2.Enabled, false
TestParameter, AutoAnalysis.Line2.Type, 1
TestParameter, AutoAnalysis.Line2.Fix, True
TestParameter, AutoAnalysis.Line2.YAxis, 0
TestParameter, AutoAnalysis.Line2.Point1.Type, 0
TestParameter, AutoAnalysis.Line2.Point1.XY.X, 
TestParameter, AutoAnalysis.Line2.Point1.XY.Y, 
TestParameter, AutoAnalysis.Line2.Point1.Data.Var, 
TestParameter, AutoAnalysis.Line2.Point1.Data.Condition, 
TestParameter, AutoAnalysis.Line2.Point1.Data.Start, false
TestParameter, AutoAnalysis.Line2.Point1.Data.StartVar, 
TestParameter, AutoAnalysis.Line2.Point1.Data.StartCondition, 
TestParameter, AutoAnalysis.Line2.Point2.Type, 0
TestParameter, AutoAnalysis.Line2.Point2.XY.X, 
TestParameter, AutoAnalysis.Line2.Point2.XY.Y, 
TestParameter, AutoAnalysis.Line2.Point2.Data.Var, 
TestParameter, AutoAnalysis.Line2.Point2.Data.Condition, 
TestParameter, AutoAnalysis.Line2.Point2.Data.Start, false
TestParameter, AutoAnalysis.Line2.Point2.Data.StartVar, 
TestParameter, AutoAnalysis.Line2.Point2.Data.StartCondition, 
TestParameter, AutoAnalysis.Line2.GradientExpr, 0
TestParameter, AutoAnalysis.Marker.Enabled, false
TestParameter, AutoAnalysis.Marker.Data.Var, 
TestParameter, AutoAnalysis.Marker.Data.Condition, 
TestParameter, AutoAnalysis.Marker.Data.Start, false
TestParameter, AutoAnalysis.Marker.Data.StartVar, 
TestParameter, AutoAnalysis.Marker.Data.StartCondition, 
MetaData, TestRecord.EntryPoint, true
MetaData, TestRecord.RecordTime, 01/16/2026 10:58:29
MetaData, TestRecord.TestTarget, 251203_ALD_#9_R01
MetaData, TestRecord.IterationIndex, 11
MetaData, TestRecord.Preservation, true
MetaData, TestRecord.Flag, 
MetaData, TestRecord.Remarks, 
MetaData, TestRecord.LinkKey, 5b2e8f52-a8c5-4191-875c-39619f9aa18b
MetaData, TestRecord.Parameters, 
Dimension1, 101, 101, 101, 101, 101, 101, 101
Dimension2, 5, 5, 5, 5, 5, 5, 5
DataName, VG, VD, VS, IG, ID, IS, SS
DataValue, -3, 0.1, 0, -3.0100000000000003E-13, -2.1000000000000002E-14, -3.2E-14, 42.558477839976156
DataValue, -2.94, 0.1, 0, -1.9500000000000003E-13, -8.6000000000000012E-14, -4.8000000000000004E-14, 135.24125764009889
DataValue, -2.88, 0.1, 0, -1.65E-13, -5.1000000000000004E-14, -9.5000000000000012E-14, -3379.6449405759745
DataValue, -2.82, 0.1, 0, -1.1400000000000002E-13, -8.3000000000000012E-14, -4.0000000000000006E-14, 1283.0648757388281
DataValue, -2.7600000000000002, 0.1, 0, -1.2700000000000001E-13, -5.6E-14, -1E-13, -256.63130522833836
DataValue, -2.7, 0.1, 0, -1.48E-13, -5.2000000000000006E-14, -6.6000000000000009E-14, 898.66508273023419
DataValue, -2.64, 0.1, 0, -1.03E-13, -6.4E-14, -1.7E-14, 473.4682202870469
DataValue, -2.58, 0.1, 0, -9.7E-14, -6.7E-14, -3.5E-14, -1035.9847979243064
DataValue, -2.52, 0.1, 0, -1.2600000000000002E-13, -5.700000000000001E-14, -5.9E-14, 728.3531925484026
DataValue, -2.46, 0.1, 0, -1.3800000000000002E-13, -7.9E-14, -5.6E-14, 6899.8260834497769
DataValue, -2.4, 0.1, 0, -7.2000000000000009E-14, -5.8E-14, -5.9E-14, -411.08503321765107
DataValue, -2.34, 0.1, 0, -7.3E-14, -5.9E-14, -3.7E-14, 7019.8290564987337
DataValue, -2.2800000000000002, 0.1, 0, -6.4E-14, -5.9E-14, -6.6000000000000009E-14, 450.67379459144104
DataValue, -2.22, 0.1, 0, -7.8000000000000008E-14, -7.7E-14, -8.1000000000000008E-14, -7019.8290564987592
DataValue, -2.16, 0.1, 0, -7.6E-14, -5.8E-14, -4.4E-14, -321.27352112554854
DataValue, -2.1, 0.1, 0, -6.0000000000000009E-14, -5.3E-14, -5.6E-14, 1451.1731770661265
DataValue, -2.04, 0.1, 0, -1.18E-13, -6.3000000000000009E-14, -3.0000000000000005E-14, -998.79884582256
DataValue, -1.98, 0.1, 0, -1.24E-13, -4.7E-14, -7.3E-14, 205.39044050811563
DataValue, -1.92, 0.1, 0, -4.8000000000000004E-14, -1.1300000000000001E-13, -6.4E-14, 211.01015612233309
DataValue, -1.86, 0.1, 0, -8.3000000000000012E-14, -8.3000000000000012E-14, -8.2E-14, -130.33202870381354
DataValue, -1.8, 0.1, 0, -9.3000000000000008E-14, -4.5000000000000004E-14, -7.8000000000000008E-14, -1931.3787221604289
DataValue, -1.74, 0.1, 0, -5.2000000000000006E-14, -7.8000000000000008E-14, -6.4E-14, 263.14786091410133
DataValue, -1.68, 0.1, 0, -6.0000000000000009E-14, -7.1E-14, -6.1E-14, 1619.2589881029703
DataValue, -1.62, 0.1, 0, -8.9000000000000012E-14, -8.4000000000000008E-14, -4.9000000000000006E-14, 2189.4519450731982
DataValue, -1.56, 0.1, 0, -7.4E-14, -7.5000000000000009E-14, -7.8000000000000008E-14, -567.88847993919865
DataValue, -1.5, 0.1, 0, -9.3000000000000008E-14, -6.8E-14, -7.2000000000000009E-14, -4439.7297165667605
DataValue, -1.44, 0.1, 0, -9.1E-14, -7.3E-14, -9.0000000000000008E-14, -4019.7014748023589
DataValue, -1.3800000000000001, 0.1, 0, -3.4E-14, -6.6000000000000009E-14, -8E-15, -1399.1424369133997
DataValue, -1.32, 0.1, 0, -7.7E-14, -6.7E-14, -8.0000000000000013E-14, 1379.1299960038873
DataValue, -1.26, 0.1, 0, -7.9E-14, -7.2000000000000009E-14, -1.2000000000000001E-14, 391.94310373172749
DataValue, -1.2, 0.1, 0, -8.2E-14, -9.1E-14, -1.03E-13, -1018.8224418844781
DataValue, -1.1400000000000001, 0.1, 0, -1.6E-14, -6.4E-14, -8.0000000000000013E-14, -247.16388922965592
DataValue, -1.08, 0.1, 0, -4.9000000000000006E-14, -5.6E-14, -6.6000000000000009E-14, -284.89117739448608
DataValue, -1.02, 0.1, 0, -6.8E-14, -4.2000000000000004E-14, -7.8000000000000008E-14, 236.57076369369523
DataValue, -0.96, 0.1, 0, -9.2000000000000012E-14, -9.3000000000000008E-14, -6.5E-14, 321.53975020795258
DataValue, -0.9, 0.1, 0, -7.4E-14, -6.1E-14, -7.5000000000000009E-14, -402.01949325683137
DataValue, -0.84, 0.1, 0, -8.5E-14, -6.9000000000000009E-14, -6.4E-14, 1104.628160914534
DataValue, -0.78, 0.1, 0, -3.2E-14, -6.8E-14, -6.1E-14, -2009.4028431469928
DataValue, -0.72, 0.1, 0, -6.5E-14, -6.5E-14, -5.2000000000000006E-14, 1691.2905421634407
DataValue, -0.66, 0.1, 0, -9.4E-14, -7.3E-14, -4.4E-14, -1239.0316531130686
DataValue, -0.6, 0.1, 0, -7.2000000000000009E-14, -5.9E-14, -4.7E-14, -353.75718758528853
DataValue, -0.54, 0.1, 0, -8.9000000000000012E-14, -5.2000000000000006E-14, -8.1000000000000008E-14, 943.72879076340666
DataValue, -0.48, 0.1, 0, -4.5000000000000004E-14, -6.7E-14, -5.2000000000000006E-14, 206.41405013716519
DataValue, -0.42, 0.1, 0, -7.7E-14, -9.3000000000000008E-14, -4.6000000000000006E-14, 1207.5778673435275
DataValue, -0.36, 0.1, 0, -9.3000000000000008E-14, -7.4E-14, -8.8E-14, -295.95641548516966
DataValue, -0.3, 0.1, 0, -4.6000000000000006E-14, -6.2E-14, -5.8E-14, 650.15533433673829
DataValue, -0.24, 0.1, 0, -7.3E-14, -8.9000000000000012E-14, -1.0200000000000001E-13, 274.46525758605753
DataValue, -0.18, 0.1, 0, -7.5000000000000009E-14, -9.6000000000000007E-14, -9.2000000000000012E-14, 1394.1393601789862
DataValue, -0.12, 0.1, 0, -6.2E-14, -9.7E-14, -8.6000000000000012E-14, -824.69928351726639
DataValue, -0.06, 0.1, 0, -8.5E-14, -8.3000000000000012E-14, -5.3E-14, -233.34138518625747
DataValue, 0, 0.1, 0, -8.3000000000000012E-14, -5.8E-14, -7.8000000000000008E-14, -844.03327931235469
DataValue, 0.06, 0.1, 0, -5.700000000000001E-14, -7.2000000000000009E-14, -8.6000000000000012E-14, 443.96704874891719
DataValue, 0.12, 0.1, 0, -4.6000000000000006E-14, -7.6E-14, -8.4000000000000008E-14, 1787.3286574066149
DataValue, 0.18, 0.1, 0, -5.6E-14, -7.7E-14, -8.3000000000000012E-14, -70.935568775014573
DataValue, 0.24, 0.1, 0, -4.4E-14, -1.4E-14, -1.24E-13, 64.350595627486484
DataValue, 0.3, 0.1, 0, -5.0000000000000008E-15, 4.97E-13, -6.28E-13, 20.234250090208562
DataValue, 0.36, 0.1, 0, -1.2000000000000001E-14, 5.269E-12, -5.34E-12, 26.488291395191663
DataValue, 0.42, 0.1, 0, -2.0000000000000003E-14, 4.6115E-11, -4.5624E-11, 28.950327556522218
DataValue, 0.48, 0.1, 0, 2.1000000000000002E-14, 3.3257700000000003E-10, -3.27556E-10, 33.104887067820208
DataValue, 0.54, 0.1, 0, -2.3000000000000003E-14, 1.73018E-09, -1.70749E-09, 41.090838253482872
DataValue, 0.6, 0.1, 0, -1.7E-14, 6.16862E-09, -6.12305E-09, 54.579156251709939
DataValue, 0.66, 0.1, 0, 1.3000000000000001E-14, 1.5593699999999998E-08, -1.55271E-08, 74.735164205166114
DataValue, 0.72, 0.1, 0, -5.8E-14, 3.07271E-08, -3.06479E-08, 100.62263031667368
DataValue, 0.78, 0.1, 0, -3.4E-14, 5.1389899999999994E-08, -5.1295699999999995E-08, 130.71074688793058
DataValue, 0.84, 0.1, 0, -4.6000000000000006E-14, 7.69536E-08, -7.6855899999999991E-08, 163.63852977711068
DataValue, 0.9, 0.1, 0, -9.0000000000000011E-15, 1.069932E-07, -1.0690039999999999E-07, 197.96062078393078
DataValue, 0.96, 0.1, 0, 9.0000000000000011E-15, 1.41088E-07, -1.41004E-07, 233.41216767692734
DataValue, 1.02, 0.1, 0, -4.0000000000000006E-14, 1.78909E-07, -1.7881E-07, 269.73847488565661
DataValue, 1.08, 0.1, 0, -3.5E-14, 2.2013899999999998E-07, -2.2004699999999999E-07, 307.24569820215453
DataValue, 1.1400000000000001, 0.1, 0, -5.6E-14, 2.64395E-07, -2.64303E-07, 345.08509692370308
DataValue, 1.2, 0.1, 0, -4.6000000000000006E-14, 3.11687E-07, -3.11588E-07, 382.73017907061478
DataValue, 1.26, 0.1, 0, -5.1000000000000004E-14, 3.6176E-07, -3.61664E-07, 421.31137234122866
DataValue, 1.32, 0.1, 0, -7.2000000000000009E-14, 4.14397E-07, -4.14289E-07, 460.54365779759308
DataValue, 1.3800000000000001, 0.1, 0, -4.0000000000000006E-14, 4.69441E-07, -4.69335E-07, 500.30406151033424
DataValue, 1.44, 0.1, 0, -5.6E-14, 5.26725E-07, -5.26634E-07, 540.38520958890149
DataValue, 1.5, 0.1, 0, -1.9E-14, 5.86168E-07, -5.86082E-07, 580.70439171526289
DataValue, 1.56, 0.1, 0, -6.0000000000000009E-14, 6.47633E-07, -6.47518E-07, 622.45162716117432
DataValue, 1.62, 0.1, 0, -3.3000000000000005E-14, 7.10801E-07, -7.10677E-07, 663.60805674195262
DataValue, 1.68, 0.1, 0, -1.6E-14, 7.76001E-07, -7.75866E-07, 704.24470797317019
DataValue, 1.74, 0.1, 0, -4.1E-14, 8.42849E-07, -8.42727E-07, 747.7046922682174
DataValue, 1.8, 0.1, 0, -2E-15, 9.11093E-07, -9.10986E-07, 790.11098161759128
DataValue, 1.86, 0.1, 0, -3.0000000000000005E-14, 9.81091E-07, -9.80963E-07, 833.12344265186027
DataValue, 1.92, 0.1, 0, 5.0000000000000008E-15, 1.052245E-06, -1.052133E-06, 876.86688528310083
DataValue, 1.98, 0.1, 0, 9.0000000000000011E-15, 1.124975E-06, -1.1248569999999999E-06, 921.45918022771491
DataValue, 2.04, 0.1, 0, -3.0000000000000002E-15, 1.1986E-06, -1.1986800000000001E-06, 966.2707837273332
DataValue, 2.1, 0.1, 0, -5.0000000000000008E-15, 1.2737300000000002E-06, -1.2739300000000002E-06, 1009.3268326889986
DataValue, 2.16, 0.1, 0, 1.8000000000000002E-14, 1.3499200000000001E-06, -1.3500900000000002E-06, 1053.3798927893581
DataValue, 2.22, 0.1, 0, -1.9E-14, 1.4274200000000002E-06, -1.4276400000000002E-06, 1097.1733872885186
DataValue, 2.2800000000000002, 0.1, 0, -1.2000000000000001E-14, 1.50594E-06, -1.5061600000000003E-06, 1144.5109969956511
DataValue, 2.34, 0.1, 0, 3.0000000000000002E-15, 1.5852100000000002E-06, -1.5853700000000001E-06, 1191.7758180574392
DataValue, 2.4, 0.1, 0, -2.9E-14, 1.6654700000000002E-06, -1.6656600000000002E-06, 1237.0409945104987
DataValue, 2.46, 0.1, 0, 2E-15, 1.74669E-06, -1.7468400000000002E-06, 1283.825817140922
DataValue, 2.52, 0.1, 0, -4.9000000000000006E-14, 1.8286500000000003E-06, -1.8287600000000001E-06, 1332.5066107063854
DataValue, 2.58, 0.1, 0, -2.4000000000000002E-14, 1.9112900000000004E-06, -1.91145E-06, 1380.8875179107122
DataValue, 2.64, 0.1, 0, 1.3000000000000001E-14, 1.99467E-06, -1.99479E-06, 1430.7365399128491
DataValue, 2.7, 0.1, 0, 8E-15, 2.0785100000000004E-06, -2.0785400000000003E-06, 1480.4007550055146
DataValue, 2.7600000000000002, 0.1, 0, -4.0000000000000006E-14, 2.1630900000000002E-06, -2.16307E-06, 1529.0791639021143
DataValue, 2.82, 0.1, 0, -4E-15, 2.2482000000000003E-06, -2.2481400000000004E-06, 1579.2425575011769
DataValue, 2.88, 0.1, 0, 2E-15, 2.3338600000000004E-06, -2.33391E-06, 1628.8700619673241
DataValue, 2.94, 0.1, 0, -2.4000000000000002E-14, 2.4200800000000002E-06, -2.4200400000000004E-06, 1680.8668276663682
DataValue, 3, 0.1, 0, -1.5000000000000002E-14, 2.5065700000000003E-06, -2.5065E-06, 1708.6867263910087
DataValue, -3, 0.8, 0, -4.92E-13, 2.6000000000000003E-14, -2.1000000000000002E-14, -191.29142055119223
DataValue, -2.94, 0.8, 0, -1.94E-13, -1.9E-14, -3.4E-14, 146.44131033525963
DataValue, -2.88, 0.8, 0, -1.7200000000000002E-13, -5.9E-14, -3.5E-14, 283.78397977302956
DataValue, -2.82, 0.8, 0, -1.3300000000000001E-13, -2.9E-14, -6.0000000000000009E-14, -153.51146384228139
DataValue, -2.7600000000000002, 0.8, 0, -1.1300000000000001E-13, -2.7000000000000002E-14, -6.1E-14, 157.9282851615009
DataValue, -2.7, 0.8, 0, -1.4300000000000002E-13, -6.2E-14, -3.1E-14, 156.94354649983393
DataValue, -2.64, 0.8, 0, -1.3100000000000002E-13, -5.8E-14, -4.7E-14, 553.83498305778085
DataValue, -2.58, 0.8, 0, -1.25E-13, -7.7E-14, -3.7E-14, -634.10870858061014
DataValue, -2.52, 0.8, 0, -1.0400000000000001E-13, -4.8000000000000004E-14, -5.700000000000001E-14, -515.172788071348
DataValue, -2.46, 0.8, 0, -1.36E-13, -6.1E-14, -6.4E-14, 395.79630158914892
DataValue, -2.4, 0.8, 0, -1.0100000000000001E-13, -6.5E-14, -4.8000000000000004E-14, -2379.4957128389769
DataValue, -2.34, 0.8, 0, -1.1300000000000001E-13, -5.8E-14, -4.4E-14, -1053.1465181780002
DataValue, -2.2800000000000002, 0.8, 0, -6.2E-14, -5.8E-14, -7.2000000000000009E-14, 690.99151008023875
DataValue, -2.22, 0.8, 0, -1.0400000000000001E-13, -6.9000000000000009E-14, -8.4000000000000008E-14, 295.95641548517256
DataValue, -2.16, 0.8, 0, -8.2E-14, -8.7000000000000008E-14, -9.0000000000000011E-15, -766.43494870558118
DataValue, -2.1, 0.8, 0, -7.9E-14, -5.9E-14, -8.5E-14, 10499.885713288562
DataValue, -2.04, 0.8, 0, -7.5000000000000009E-14, -8.8E-14, -7.4E-14, 378.65435679129411
DataValue, -1.98, 0.8, 0, -8.3000000000000012E-14, -8.1000000000000008E-14, -7.2000000000000009E-14, -245.72400912683793
DataValue, -1.92, 0.8, 0, -7.9E-14, -5.4000000000000003E-14, -7.9E-14, -1153.9602902382289
DataValue, -1.86, 0.8, 0, -7E-14, -7.3E-14, -3.9000000000000004E-14, 520.55394540679913
DataValue, -1.8, 0.8, 0, -1.16E-13, -6.8E-14, -6.8E-14, 732.20800847648559
DataValue, -1.74, 0.8, 0, -7.3E-14, -8.6000000000000012E-14, -2.0000000000000003E-14, 874.62841904106426
DataValue, -1.68, 0.8, 0, -7.7E-14, -7.8000000000000008E-14, -9.5000000000000012E-14, 601.16308855081968
DataValue, -1.62, 0.8, 0, -1.0700000000000001E-13, -1.0500000000000001E-13, -6.9000000000000009E-14, -4619.7402480568171
DataValue, -1.56, 0.8, 0, -6.5E-14, -7.6E-14, -8.8E-14, -166.17397987253148
DataValue, -1.5, 0.8, 0, -5.8E-14, -5.1000000000000004E-14, -1.0800000000000001E-13, -417.12713961386663
DataValue, -1.44, 0.8, 0, -9.9000000000000007E-14, -5.700000000000001E-14, -5.6E-14, 417.12713961386595
DataValue, -1.3800000000000001, 0.8, 0, -7.4E-14, -6.8E-14, -9.9000000000000007E-14, 1198.9993324589223
DataValue, -1.32, 0.8, 0, -1.0700000000000001E-13, -6.3000000000000009E-14, -4.5000000000000004E-14, 1419.1545268661093
DataValue, -1.26, 0.8, 0, -1.03E-13, -7.4E-14, -5.4000000000000003E-14, -129.83375091353773
DataValue, -1.2, 0.8, 0, -5.5000000000000005E-14, -2.5E-14, -5.700000000000001E-14, -678.23161535139843
DataValue, -1.1400000000000001, 0.8, 0, -9.2000000000000012E-14, -6.2E-14, -4.7E-14, 116.54791857804111
DataValue, -1.08, 0.8, 0, -6.1E-14, -7E-14, -8.9000000000000012E-14, -1178.9823487535816
DataValue, -1.02, 0.8, 0, -5.8E-14, -5.6E-14, -2.9E-14, -988.78668923521627
DataValue, -0.96, 0.8, 0, -6.4E-14, -6.2E-14, -5E-14, 3419.6490940037393
