
SetupTitle, I/V Sweep - Unit (transfer)
PrimitiveTest, I/V Sweep
TestParameter, Context.MainFrame, B1500A
TestParameter, Channel.UnitType, SMU, SMU, SMU
TestParameter, Channel.Unit, SMU3:HR, SMU1:HR, SMU2:HR
TestParameter, Channel.IName, IG, ID, IS
TestParameter, Channel.VName, VG, VD, VS
TestParameter, Channel.Mode, V, V, COMMON
TestParameter, Channel.Func, VAR1, VAR2, CONST
TestParameter, Channel.Index, 
TestParameter, Channel.Time, 
TestParameter, Measurement.Port.Unit, SMU3:HR, SMU1:HR, SMU2:HR
TestParameter, Measurement.Port.SeriesResistor, NONE, NONE, NONE
TestParameter, Measurement.Port.Filter, ON, ON, ON
TestParameter, Measurement.Port.OutputVoltageComparison, 0, 0, 0
TestParameter, Measurement.Primary.Locus, Single
TestParameter, Measurement.Primary.Scale, LINEAR
TestParameter, Measurement.Primary.Start, -3
TestParameter, Measurement.Primary.Stop, 3
TestParameter, Measurement.Primary.Step, 0.06
TestParameter, Measurement.Primary.Compliance, 0.1
TestParameter, Measurement.Primary.PowerCompliance, 0
TestParameter, Measurement.Aborting.Condition, CONTINUE AT ANY
TestParameter, Measurement.PostOutput.Value, START
TestParameter, Measurement.PostOutput.Retention, OFF
TestParameter, Measurement.Secondary.Start, 0.1
TestParameter, Measurement.Secondary.Count, 5
TestParameter, Measurement.Secondary.Step, 0.70000000000000007
TestParameter, Measurement.Secondary.Compliance, 0.1
TestParameter, Measurement.Secondary.PowerCompliance, 0
TestParameter, Measurement.Bias.Source, -3, 0.1, 0
TestParameter, Measurement.Bias.Compliance, 0.1, 0.1, 0.1
TestParameter, Measurement.Monitor.Unit, SMU3:HR, SMU1:HR, SMU2:HR
TestParameter, Measurement.Monitor.Adc, HR ADC, HR ADC, HR ADC
TestParameter, Measurement.Monitor.Measurement, Compliance Side, Compliance Side, Compliance Side
TestParameter, Measurement.Monitor.RangingMode, LIMITED, LIMITED, LIMITED
TestParameter, Measurement.Monitor.RangeBoundary, 1nA, 1nA, 1nA
TestParameter, Measurement.Monitor.RangeRating, BY FULL RANGE, BY FULL RANGE, BY FULL RANGE
TestParameter, Measurement.Monitor.RangeRatingCoeff, 50, 50, 50
TestParameter, Measurement.Timing.Hold, 0
TestParameter, Measurement.Timing.Delay, 0
TestParameter, Measurement.Adc.HighSpeed.Mode, PLC
TestParameter, Measurement.Adc.HighSpeed.Coeff, 5
TestParameter, Measurement.Adc.HighResolution.AutoZero, OFF
TestParameter, Measurement.Adc.HighResolution.Mode, PLC
TestParameter, Measurement.Adc.HighResolution.Coeff, 5
TestParameter, Measurement.WaitTime.Source.Coeff, 1
TestParameter, Measurement.WaitTime.Source.Offset, 0
TestParameter, Measurement.WaitTime.Monitor.Coeff, 1
TestParameter, Measurement.WaitTime.Monitor.Offset, 0
TestParameter, Function.User.Name, SS
TestParameter, Function.User.Unit, mV/dec
TestParameter, Function.User.Definition, diff(VG,log(ID))*1000
TestParameter, Output.Graph.Enabled, true
TestParameter, Output.Graph.AutoScaling, false
TestParameter, Output.Graph.XAxis.Data, VG
TestParameter, Output.Graph.XAxis.Scale, Linear
TestParameter, Output.Graph.XAxis.Left, -3
TestParameter, Output.Graph.XAxis.Right, 3
TestParameter, Output.Graph.XAxis.RunTimeAutoScale, true
TestParameter, Output.Graph.YAxis.Data, ID, IG
TestParameter, Output.Graph.YAxis.Scale, Log, Log
TestParameter, Output.Graph.YAxis.Bottom, 0, 1E-15
TestParameter, Output.Graph.YAxis.Top, 0.0001, 1E-12
TestParameter, Output.Graph.YAxis.Group, , 
TestParameter, Output.Graph.YAxis.RunTimeAutoScale, true, true
TestParameter, Output.List.Data, VG, VD, VS, IG, ID, IS, SS
TestParameter, Output.Scalar.Data, SS
TestParameter, AutoAnalysis.Interpolation, false
TestParameter, AutoAnalysis.Var2StepCount, 1
TestParameter, AutoAnalysis.Var2StepScript, 
TestParameter, AutoAnalysis.Line1.Enabled, false
TestParameter, AutoAnalysis.Line1.Type, 1
TestParameter, AutoAnalysis.Line1.Fix, True
TestParameter, AutoAnalysis.Line1.YAxis, 0
TestParameter, AutoAnalysis.Line1.Point1.Type, 0
TestParameter, AutoAnalysis.Line1.Point1.XY.X, 
TestParameter, AutoAnalysis.Line1.Point1.XY.Y, 
TestParameter, AutoAnalysis.Line1.Point1.Data.Var, 
TestParameter, AutoAnalysis.Line1.Point1.Data.Condition, 
TestParameter, AutoAnalysis.Line1.Point1.Data.Start, false
TestParameter, AutoAnalysis.Line1.Point1.Data.StartVar, 
TestParameter, AutoAnalysis.Line1.Point1.Data.StartCondition, 
TestParameter, AutoAnalysis.Line1.Point2.Type, 0
TestParameter, AutoAnalysis.Line1.Point2.XY.X, 
TestParameter, AutoAnalysis.Line1.Point2.XY.Y, 
TestParameter, AutoAnalysis.Line1.Point2.Data.Var, 
TestParameter, AutoAnalysis.Line1.Point2.Data.Condition, 
TestParameter, AutoAnalysis.Line1.Point2.Data.Start, false
TestParameter, AutoAnalysis.Line1.Point2.Data.StartVar, 
TestParameter, AutoAnalysis.Line1.Point2.Data.StartCondition, 
TestParameter, AutoAnalysis.Line1.GradientExpr, 0
TestParameter, AutoAnalysis.Line2.Enabled, false
TestParameter, AutoAnalysis.Line2.Type, 1
TestParameter, AutoAnalysis.Line2.Fix, True
TestParameter, AutoAnalysis.Line2.YAxis, 0
TestParameter, AutoAnalysis.Line2.Point1.Type, 0
TestParameter, AutoAnalysis.Line2.Point1.XY.X, 
TestParameter, AutoAnalysis.Line2.Point1.XY.Y, 
TestParameter, AutoAnalysis.Line2.Point1.Data.Var, 
TestParameter, AutoAnalysis.Line2.Point1.Data.Condition, 
TestParameter, AutoAnalysis.Line2.Point1.Data.Start, false
TestParameter, AutoAnalysis.Line2.Point1.Data.StartVar, 
TestParameter, AutoAnalysis.Line2.Point1.Data.StartCondition, 
TestParameter, AutoAnalysis.Line2.Point2.Type, 0
TestParameter, AutoAnalysis.Line2.Point2.XY.X, 
TestParameter, AutoAnalysis.Line2.Point2.XY.Y, 
TestParameter, AutoAnalysis.Line2.Point2.Data.Var, 
TestParameter, AutoAnalysis.Line2.Point2.Data.Condition, 
TestParameter, AutoAnalysis.Line2.Point2.Data.Start, false
TestParameter, AutoAnalysis.Line2.Point2.Data.StartVar, 
TestParameter, AutoAnalysis.Line2.Point2.Data.StartCondition, 
TestParameter, AutoAnalysis.Line2.GradientExpr, 0
TestParameter, AutoAnalysis.Marker.Enabled, false
TestParameter, AutoAnalysis.Marker.Data.Var, 
TestParameter, AutoAnalysis.Marker.Data.Condition, 
TestParameter, AutoAnalysis.Marker.Data.Start, false
TestParameter, AutoAnalysis.Marker.Data.StartVar, 
TestParameter, AutoAnalysis.Marker.Data.StartCondition, 
MetaData, TestRecord.EntryPoint, true
MetaData, TestRecord.RecordTime, 01/16/2026 10:44:34
MetaData, TestRecord.TestTarget, 251203_ALD_#7_R00
MetaData, TestRecord.IterationIndex, 7
MetaData, TestRecord.Preservation, true
MetaData, TestRecord.Flag, 
MetaData, TestRecord.Remarks, 
MetaData, TestRecord.LinkKey, 29db180a-b14e-463d-b4f9-f9380fb33ba7
MetaData, TestRecord.Parameters, 
Dimension1, 101, 101, 101, 101, 101, 101, 101
Dimension2, 5, 5, 5, 5, 5, 5, 5
DataName, VG, VD, VS, IG, ID, IS, SS
DataValue, -3, 0.1, 0, -2.2000000000000002E-13, -3.6000000000000004E-14, -6.1E-14, -2129.8591474780565
DataValue, -2.94, 0.1, 0, -1.17E-13, -3.5E-14, -5.4000000000000003E-14, 119.82642660231144
DataValue, -2.88, 0.1, 0, -7.9E-14, -9.8000000000000012E-14, -7.1E-14, -988.78668923524515
DataValue, -2.82, 0.1, 0, -4.8000000000000004E-14, -3.1E-14, -4.3000000000000006E-14, -123.1970160302434
DataValue, -2.7600000000000002, 0.1, 0, -8.0000000000000013E-14, -3.7E-14, -3.4E-14, 241.04205941761296
DataValue, -2.7, 0.1, 0, -7E-14, -5.1000000000000004E-14, -5.9E-14, 212.96632808100947
DataValue, -2.64, 0.1, 0, -5E-14, -6.5E-14, -4.7E-14, -226.14702432407822
DataValue, -2.58, 0.1, 0, -1.0100000000000001E-13, -3.0000000000000005E-14, -6.2E-14, 1359.1171886226639
DataValue, -2.52, 0.1, 0, -4.7E-14, -7.1E-14, -5.3E-14, 177.42553886566239
DataValue, -2.46, 0.1, 0, -7.1E-14, -5.9E-14, -6.3000000000000009E-14, -885.31162661862379
DataValue, -2.4, 0.1, 0, -7.9E-14, -6.2E-14, -3.2E-14, 
DataValue, -2.34, 0.1, 0, -6.2E-14, -5.9E-14, -3.0000000000000005E-14, 1299.0763981396196
DataValue, -2.2800000000000002, 0.1, 0, -5.5000000000000005E-14, -6.8E-14, -4.2000000000000004E-14, -110.9257038963716
DataValue, -2.22, 0.1, 0, -5.2000000000000006E-14, -2.0000000000000003E-14, -6.4E-14, -680.054532483408
DataValue, -2.16, 0.1, 0, -8.1000000000000008E-14, -5.700000000000001E-14, -7.5000000000000009E-14, 186.95843802645351
DataValue, -2.1, 0.1, 0, -6.5E-14, -3.8E-14, -8.8E-14, 6899.8260834497769
DataValue, -2.04, 0.1, 0, -5.2000000000000006E-14, -5.8E-14, -5.3E-14, 341.49323173181341
DataValue, -1.98, 0.1, 0, -6.4E-14, -5.4000000000000003E-14, -7.2000000000000009E-14, 405.04166684559124
DataValue, -1.92, 0.1, 0, -6.9000000000000009E-14, -7.8000000000000008E-14, -4.8000000000000004E-14, 225.22331011491005
DataValue, -1.86, 0.1, 0, -9.9000000000000007E-14, -9.2000000000000012E-14, -3.9000000000000004E-14, -343.46985239017323
DataValue, -1.8, 0.1, 0, -4.5000000000000004E-14, -5.5000000000000005E-14, -6.2E-14, -345.42184364036035
DataValue, -1.74, 0.1, 0, -3.0000000000000005E-14, -6.5E-14, -6.5E-14, 1709.2980150750213
DataValue, -1.68, 0.1, 0, -6.9000000000000009E-14, -5.9E-14, -6.3000000000000009E-14, -494.71961600939227
DataValue, -1.62, 0.1, 0, -7E-14, -5.1000000000000004E-14, -8.0000000000000013E-14, -3479.6551450747911
DataValue, -1.56, 0.1, 0, -4.9000000000000006E-14, -5.700000000000001E-14, 1.7E-14, 234.91382267654723
DataValue, -1.5, 0.1, 0, -8E-15, -8.5E-14, -7.6E-14, -507.6383108482151
DataValue, -1.44, 0.1, 0, -2.5E-14, -4.5000000000000004E-14, -4.9000000000000006E-14, -361.68829696914094
DataValue, -1.3800000000000001, 0.1, 0, -1.09E-13, -6.1E-14, -5.700000000000001E-14, 263.14786091410082
DataValue, -1.32, 0.1, 0, -4.7E-14, -7.1E-14, -5.700000000000001E-14, 464.08380360245212
DataValue, -1.26, 0.1, 0, -9.0000000000000008E-14, -7.9E-14, -8.2E-14, -276.47318239462487
DataValue, -1.2, 0.1, 0, -6.0000000000000009E-14, -4.6000000000000006E-14, -8.2E-14, 584.61547535206557
DataValue, -1.1400000000000001, 0.1, 0, -2.3000000000000003E-14, -9.7E-14, -5.5000000000000005E-14, 847.15539687444937
DataValue, -1.08, 0.1, 0, -5.4000000000000003E-14, -5.3E-14, -8.6000000000000012E-14, -147.50878628163221
DataValue, -1.02, 0.1, 0, -5.6E-14, -4.3000000000000006E-14, -2.8E-14, 431.33919586153166
DataValue, -0.96, 0.1, 0, -2.7000000000000002E-14, -7E-14, -5.4000000000000003E-14, 2639.5453919190254
DataValue, -0.9, 0.1, 0, -5E-14, -4.5000000000000004E-14, -1.1E-14, -701.92761782750244
DataValue, -0.84, 0.1, 0, -2.4000000000000002E-14, -5.9E-14, -5.3E-14, 733.36443548208092
DataValue, -0.78, 0.1, 0, -4.5000000000000004E-14, -5.3E-14, -5.3E-14, 
DataValue, -0.72, 0.1, 0, -5E-14, -5.9E-14, -6.2E-14, 636.29702346326314
DataValue, -0.66, 0.1, 0, -3.8E-14, -6.4E-14, -8.2E-14, -379.34189012154775
DataValue, -0.6, 0.1, 0, -4.4E-14, -4.3000000000000006E-14, -9.9000000000000007E-14, -3779.6825183500341
DataValue, -0.54, 0.1, 0, -6.8E-14, -6.2E-14, -3.0000000000000005E-14, -1659.2768564191749
DataValue, -0.48, 0.1, 0, -4.8000000000000004E-14, -4.0000000000000006E-14, -5.9E-14, -199.74237879511691
DataValue, -0.42, 0.1, 0, -1.8000000000000002E-14, -3.4E-14, -8.6000000000000012E-14, 204.15570336217652
DataValue, -0.36, 0.1, 0, -4.7E-14, -7.2000000000000009E-14, -6.6000000000000009E-14, 217.71593802344648
DataValue, -0.3, 0.1, 0, -2.0000000000000003E-14, -5.9E-14, -7.6E-14, -213.10827118018298
DataValue, -0.24, 0.1, 0, -5.0000000000000008E-15, 4.1E-14, -2.0700000000000003E-13, 40.240366650208358
DataValue, -0.18, 0.1, 0, 9.0000000000000011E-15, 1.164E-12, -1.297E-12, 21.289364832462606
DataValue, -0.12, 0.1, 0, -8E-15, 1.1501000000000001E-11, -1.1576000000000002E-11, 26.856710482281542
DataValue, -0.06, 0.1, 0, -3.4E-14, 1.01496E-10, -1.0117100000000001E-10, 28.867228799598688
DataValue, 0, 0.1, 0, 2E-15, 7.3465200000000006E-10, -7.323180000000001E-10, 33.732918723771256
DataValue, 0.06, 0.1, 0, -1.1E-14, 3.5595E-09, -3.54717E-09, 44.101247357640943
DataValue, 0.12, 0.1, 0, -3.5E-14, 1.116354E-08, -1.114264E-08, 61.658519063994753
DataValue, 0.18, 0.1, 0, -5.3E-14, 2.4923799999999998E-08, -2.4894399999999996E-08, 86.29733831777682
DataValue, 0.24, 0.1, 0, -4.5000000000000004E-14, 4.48442E-08, -4.4796399999999995E-08, 115.80440406721253
DataValue, 0.3, 0.1, 0, -5.3E-14, 7.02495E-08, -7.01959E-08, 148.80766364155147
DataValue, 0.36, 0.1, 0, -4.0000000000000006E-14, 1.0044439999999999E-07, -1.0037979999999999E-07, 183.46366240412465
DataValue, 0.42, 0.1, 0, -6.4E-14, 1.35116E-07, -1.35043E-07, 219.14089360315009
DataValue, 0.48, 0.1, 0, -4.5000000000000004E-14, 1.73677E-07, -1.73602E-07, 255.72403959539537
DataValue, 0.54, 0.1, 0, -4.0000000000000006E-14, 2.16024E-07, -2.1593699999999998E-07, 292.9713025801662
DataValue, 0.6, 0.1, 0, -2.3000000000000003E-14, 2.61594E-07, -2.6149099999999997E-07, 331.03920682208889
DataValue, 0.66, 0.1, 0, -6.3000000000000009E-14, 3.10407E-07, -3.1031E-07, 369.48549836715836
DataValue, 0.72, 0.1, 0, -4.0000000000000006E-14, 3.61973E-07, -3.61863E-07, 408.55073513250181
DataValue, 0.78, 0.1, 0, -3.7E-14, 4.16383E-07, -4.16267E-07, 447.81192178736364
DataValue, 0.84, 0.1, 0, -5.700000000000001E-14, 4.7321E-07, -4.73086E-07, 488.23741756792629
DataValue, 0.9, 0.1, 0, -2.4000000000000002E-14, 5.32396E-07, -5.3227199999999994E-07, 528.59530992949806
DataValue, 0.96, 0.1, 0, -4.9000000000000006E-14, 5.9380799999999994E-07, -5.93685E-07, 569.54325310300749
DataValue, 1.02, 0.1, 0, -3.8E-14, 6.5726199999999995E-07, -6.57133E-07, 610.93090103726365
DataValue, 1.08, 0.1, 0, -4E-15, 7.22688E-07, -7.22527E-07, 653.691123848038
DataValue, 1.1400000000000001, 0.1, 0, -2.0000000000000003E-14, 7.89702E-07, -7.8951999999999994E-07, 696.24341926513841
DataValue, 1.2, 0.1, 0, -1.6E-14, 8.5862399999999995E-07, -8.58457E-07, 737.7949456523196
DataValue, 1.26, 0.1, 0, 2.2E-14, 9.2918E-07, -9.2900499999999995E-07, 780.4609784594569
DataValue, 1.32, 0.1, 0, -1.6E-14, 1.0013319999999999E-06, -1.001144E-06, 823.683942197462
DataValue, 1.3800000000000001, 0.1, 0, -2.9E-14, 1.074907E-06, -1.074734E-06, 867.43108433878683
DataValue, 1.44, 0.1, 0, -4.3000000000000006E-14, 1.149895E-06, -1.1496659999999999E-06, 913.182990767146
DataValue, 1.5, 0.1, 0, -7E-15, 1.2258600000000002E-06, -1.2258900000000001E-06, 958.48035697767762
DataValue, 1.56, 0.1, 0, -1.1E-14, 1.30326E-06, -1.3034500000000002E-06, 1002.8622394002471
DataValue, 1.62, 0.1, 0, -6.7E-14, 1.3816800000000001E-06, -1.38184E-06, 1047.358398225141
DataValue, 1.68, 0.1, 0, -4.7E-14, 1.4614700000000001E-06, -1.4616200000000003E-06, 1091.2248035730227
DataValue, 1.74, 0.1, 0, 6.0000000000000005E-15, 1.5422900000000002E-06, -1.5424500000000002E-06, 1138.8504417085137
DataValue, 1.8, 0.1, 0, -4.9000000000000006E-14, 1.6238700000000003E-06, -1.6240200000000002E-06, 1185.2949721395951
DataValue, 1.86, 0.1, 0, -4.1E-14, 1.7066100000000002E-06, -1.7067000000000001E-06, 1232.5550216875165
DataValue, 1.92, 0.1, 0, -4.3000000000000006E-14, 1.7899200000000001E-06, -1.7899900000000002E-06, 1281.6368148005233
DataValue, 1.98, 0.1, 0, -1.9E-14, 1.8741200000000001E-06, -1.8742300000000002E-06, 1328.9943109083058
DataValue, 2.04, 0.1, 0, -1.8000000000000002E-14, 1.95906E-06, -1.9590800000000003E-06, 1376.3028608527345
DataValue, 2.1, 0.1, 0, -4.0000000000000006E-14, 2.0448600000000003E-06, -2.0449200000000002E-06, 1426.2627171972629
DataValue, 2.16, 0.1, 0, -2.3000000000000003E-14, 2.13102E-06, -2.1311200000000004E-06, 1474.8860002309975
DataValue, 2.22, 0.1, 0, 6.0000000000000005E-15, 2.2181900000000004E-06, -2.2181700000000002E-06, 1522.2382577017058
DataValue, 2.2800000000000002, 0.1, 0, -3.4E-14, 2.3058100000000003E-06, -2.3057500000000003E-06, 1576.1226868783483
DataValue, 2.34, 0.1, 0, -3.2E-14, 2.39367E-06, -2.3935900000000004E-06, 1628.6421913995441
DataValue, 2.4, 0.1, 0, 2.5E-14, 2.48212E-06, -2.48206E-06, 1677.2669242473187
DataValue, 2.46, 0.1, 0, -4E-15, 2.5712000000000005E-06, -2.57105E-06, 1729.3616668571988
DataValue, 2.52, 0.1, 0, -3.5E-14, 2.66047E-06, -2.6602900000000003E-06, 1782.362471500267
DataValue, 2.58, 0.1, 0, -1.0000000000000002E-14, 2.75027E-06, -2.7500500000000005E-06, 1834.7681017716791
DataValue, 2.64, 0.1, 0, -3.4E-14, 2.8402900000000003E-06, -2.84001E-06, 1892.5737839990934
DataValue, 2.7, 0.1, 0, -2.8E-14, 2.9303E-06, -2.93001E-06, 1947.1422668675248
DataValue, 2.7600000000000002, 0.1, 0, -3.0000000000000002E-15, 3.02084E-06, -3.02053E-06, 1997.7489548846747
DataValue, 2.82, 0.1, 0, -6.2E-14, 3.1117100000000005E-06, -3.1113100000000005E-06, 2052.6017513124489
DataValue, 2.88, 0.1, 0, -3.7E-14, 3.20271E-06, -3.2022700000000003E-06, 2108.9683283424124
DataValue, 2.94, 0.1, 0, -2.2E-14, 3.2939000000000003E-06, -3.2933500000000004E-06, 2164.7604028222627
DataValue, 3, 0.1, 0, -1.7E-14, 3.38526E-06, -3.3846500000000003E-06, 2193.1075177385833
DataValue, -3, 0.8, 0, -2.58E-13, -3.1E-14, -6.3000000000000009E-14, -899.6665678437306
DataValue, -2.94, 0.8, 0, -1.6700000000000002E-13, -2.9E-14, -3.4E-14, 304.06366492820553
DataValue, -2.88, 0.8, 0, -1.63E-13, -4.6000000000000006E-14, -2.8E-14, 287.843088259559
DataValue, -2.82, 0.8, 0, -9.0000000000000008E-14, -4.4E-14, -3.6000000000000004E-14, -396.98178471061971
DataValue, -2.7600000000000002, 0.8, 0, -1.3100000000000002E-13, -3.4E-14, -7.5000000000000009E-14, 434.38383075954795
DataValue, -2.7, 0.8, 0, 3.0000000000000002E-15, -5.8E-14, -4.1E-14, -4019.7014748028446
DataValue, -2.64, 0.8, 0, -7E-14, -3.3000000000000005E-14, -9.3000000000000008E-14, 1451.1731770661265
DataValue, -2.58, 0.8, 0, -7.8000000000000008E-14, -6.3000000000000009E-14, -8.1000000000000008E-14, 552.83105760899412
DataValue, -2.52, 0.8, 0, -9.8000000000000012E-14, -4.1E-14, -2.9E-14, -185.57834639364273
DataValue, -2.46, 0.8, 0, -8.9000000000000012E-14, -3.3000000000000005E-14, -7.6E-14, 408.49517662935904
DataValue, -2.4, 0.8, 0, -8.0000000000000013E-14, -5.5000000000000005E-14, -2.7000000000000002E-14, -34.319960100320955
DataValue, -2.34, 0.8, 0, -5.5000000000000005E-14, -1E-15, -7.6E-14, 791.81841415213148
DataValue, -2.2800000000000002, 0.8, 0, -5.8E-14, -6.4E-14, -8.2E-14, 29.553425497739259
DataValue, -2.22, 0.8, 0, -4.0000000000000006E-14, -5.8E-14, -4.0000000000000006E-14, -417.12713961386157
DataValue, -2.16, 0.8, 0, -5E-14, -4.8000000000000004E-14, -7.9E-14, -182.0262353549364
DataValue, -2.1, 0.8, 0, -3.3000000000000005E-14, -3.0000000000000005E-14, -6.3000000000000009E-14, 537.77041412694018
DataValue, -2.04, 0.8, 0, -4.5000000000000004E-14, -6.0000000000000009E-14, -7.4E-14, 123.93487389709122
DataValue, -1.98, 0.8, 0, -5.3E-14, -7.9E-14, -6.7E-14, -360.20411341216851
DataValue, -1.92, 0.8, 0, -6.5E-14, -4.3000000000000006E-14, -1.0400000000000001E-13, -1123.9325230392074
DataValue, -1.86, 0.8, 0, -7.6E-14, -7.1E-14, -4.4E-14, 239.29181045610636
DataValue, -1.8, 0.8, 0, -5.5000000000000005E-14, -7.1E-14, -6.7E-14, -209.13194763397232
DataValue, -1.74, 0.8, 0, -6.0000000000000009E-14, -4.0000000000000006E-14, -1.2000000000000001E-14, -1643.2698135447461
DataValue, -1.68, 0.8, 0, -5.8E-14, -6.6000000000000009E-14, -6.4E-14, 4859.7530763833884
DataValue, -1.62, 0.8, 0, -3.2E-14, -4.1E-14, -6.2E-14, -173.12340490667586
DataValue, -1.56, 0.8, 0, -6.5E-14, -3.3000000000000005E-14, -6.9000000000000009E-14, 127.60686421926262
DataValue, -1.5, 0.8, 0, -6.7E-14, -1.0500000000000001E-13, -6.5E-14, 156.62273037099743
DataValue, -1.44, 0.8, 0, -6.1E-14, -7.1E-14, -7.9E-14, -242.38640722923427
DataValue, -1.3800000000000001, 0.8, 0, -2.4000000000000002E-14, -6.4E-14, -1.0400000000000001E-13, -218.536319718984
DataValue, -1.32, 0.8, 0, -6.4E-14, -4.1E-14, -9.0000000000000008E-14, -577.92509685317964
DataValue, -1.26, 0.8, 0, -3.9000000000000004E-14, -5.2000000000000006E-14, -3.5E-14, 761.2815057938576
DataValue, -1.2, 0.8, 0, -8.3000000000000012E-14, -4.8000000000000004E-14, -2.0000000000000003E-14, 270.75480178758153
DataValue, -1.1400000000000001, 0.8, 0, -4.4E-14, -8.1000000000000008E-14, -6.3000000000000009E-14, -379.92363288338441
DataValue, -1.08, 0.8, 0, -8.2E-14, -3.5E-14, -9.9000000000000007E-14, -112.96832666715561
DataValue, -1.02, 0.8, 0, -2.4000000000000002E-14, -2.8E-14, -5.9E-14, 229.801685060559
DataValue, -0.96, 0.8, 0, -4.6000000000000006E-14, -5.9E-14, -7.7E-14, 3419.6490940033927
