
SetupTitle, I/V Sweep - Unit (transfer)
PrimitiveTest, I/V Sweep
TestParameter, Context.MainFrame, B1500A
TestParameter, Channel.UnitType, SMU, SMU, SMU
TestParameter, Channel.Unit, SMU1:HR, SMU2:HR, SMU4:HR
TestParameter, Channel.IName, IG, ID, IS
TestParameter, Channel.VName, VG, VD, VS
TestParameter, Channel.Mode, V, V, COMMON
TestParameter, Channel.Func, VAR1, VAR2, CONST
TestParameter, Channel.Index, 
TestParameter, Channel.Time, 
TestParameter, Measurement.Port.Unit, SMU1:HR, SMU2:HR, SMU4:HR
TestParameter, Measurement.Port.SeriesResistor, NONE, NONE, NONE
TestParameter, Measurement.Port.Filter, ON, ON, ON
TestParameter, Measurement.Port.OutputVoltageComparison, 0, 0, 0
TestParameter, Measurement.Primary.Locus, Single
TestParameter, Measurement.Primary.Scale, LINEAR
TestParameter, Measurement.Primary.Start, -3
TestParameter, Measurement.Primary.Stop, 3
TestParameter, Measurement.Primary.Step, 0.06
TestParameter, Measurement.Primary.Compliance, 0.1
TestParameter, Measurement.Primary.PowerCompliance, 0
TestParameter, Measurement.Aborting.Condition, CONTINUE AT ANY
TestParameter, Measurement.PostOutput.Value, START
TestParameter, Measurement.PostOutput.Retention, OFF
TestParameter, Measurement.Secondary.Start, 0.1
TestParameter, Measurement.Secondary.Count, 5
TestParameter, Measurement.Secondary.Step, 0.8
TestParameter, Measurement.Secondary.Compliance, 0.1
TestParameter, Measurement.Secondary.PowerCompliance, 0
TestParameter, Measurement.Bias.Source, -3, 0.1, 0
TestParameter, Measurement.Bias.Compliance, 0.1, 0.1, 0.1
TestParameter, Measurement.Monitor.Unit, SMU1:HR, SMU2:HR, SMU4:HR
TestParameter, Measurement.Monitor.Adc, HR ADC, HR ADC, HR ADC
TestParameter, Measurement.Monitor.Measurement, Compliance Side, Compliance Side, Compliance Side
TestParameter, Measurement.Monitor.RangingMode, LIMITED, LIMITED, LIMITED
TestParameter, Measurement.Monitor.RangeBoundary, 1nA, 1nA, 1nA
TestParameter, Measurement.Monitor.RangeRating, BY FULL RANGE, BY FULL RANGE, BY FULL RANGE
TestParameter, Measurement.Monitor.RangeRatingCoeff, 50, 50, 50
TestParameter, Measurement.Timing.Hold, 0
TestParameter, Measurement.Timing.Delay, 0
TestParameter, Measurement.Adc.HighSpeed.Mode, PLC
TestParameter, Measurement.Adc.HighSpeed.Coeff, 5
TestParameter, Measurement.Adc.HighResolution.AutoZero, OFF
TestParameter, Measurement.Adc.HighResolution.Mode, PLC
TestParameter, Measurement.Adc.HighResolution.Coeff, 5
TestParameter, Measurement.WaitTime.Source.Coeff, 1
TestParameter, Measurement.WaitTime.Source.Offset, 0
TestParameter, Measurement.WaitTime.Monitor.Coeff, 1
TestParameter, Measurement.WaitTime.Monitor.Offset, 0
TestParameter, Function.User.Name, SS
TestParameter, Function.User.Unit, mV/dec
TestParameter, Function.User.Definition, diff(VG,log(ID))*1000
TestParameter, Output.Graph.Enabled, true
TestParameter, Output.Graph.AutoScaling, false
TestParameter, Output.Graph.XAxis.Data, VG
TestParameter, Output.Graph.XAxis.Scale, Linear
TestParameter, Output.Graph.XAxis.Left, -3
TestParameter, Output.Graph.XAxis.Right, 3
TestParameter, Output.Graph.XAxis.RunTimeAutoScale, true
TestParameter, Output.Graph.YAxis.Data, ID, IG
TestParameter, Output.Graph.YAxis.Scale, Log, Log
TestParameter, Output.Graph.YAxis.Bottom, 0, 1E-15
TestParameter, Output.Graph.YAxis.Top, 0.0001, 1E-12
TestParameter, Output.Graph.YAxis.Group, , 
TestParameter, Output.Graph.YAxis.RunTimeAutoScale, true, true
TestParameter, Output.List.Data, VG, VD, VS, IG, ID, IS, SS
TestParameter, Output.Scalar.Data, SS
TestParameter, AutoAnalysis.Interpolation, false
TestParameter, AutoAnalysis.Var2StepCount, 1
TestParameter, AutoAnalysis.Var2StepScript, 
TestParameter, AutoAnalysis.Line1.Enabled, false
TestParameter, AutoAnalysis.Line1.Type, 1
TestParameter, AutoAnalysis.Line1.Fix, True
TestParameter, AutoAnalysis.Line1.YAxis, 0
TestParameter, AutoAnalysis.Line1.Point1.Type, 0
TestParameter, AutoAnalysis.Line1.Point1.XY.X, 
TestParameter, AutoAnalysis.Line1.Point1.XY.Y, 
TestParameter, AutoAnalysis.Line1.Point1.Data.Var, 
TestParameter, AutoAnalysis.Line1.Point1.Data.Condition, 
TestParameter, AutoAnalysis.Line1.Point1.Data.Start, false
TestParameter, AutoAnalysis.Line1.Point1.Data.StartVar, 
TestParameter, AutoAnalysis.Line1.Point1.Data.StartCondition, 
TestParameter, AutoAnalysis.Line1.Point2.Type, 0
TestParameter, AutoAnalysis.Line1.Point2.XY.X, 
TestParameter, AutoAnalysis.Line1.Point2.XY.Y, 
TestParameter, AutoAnalysis.Line1.Point2.Data.Var, 
TestParameter, AutoAnalysis.Line1.Point2.Data.Condition, 
TestParameter, AutoAnalysis.Line1.Point2.Data.Start, false
TestParameter, AutoAnalysis.Line1.Point2.Data.StartVar, 
TestParameter, AutoAnalysis.Line1.Point2.Data.StartCondition, 
TestParameter, AutoAnalysis.Line1.GradientExpr, 0
TestParameter, AutoAnalysis.Line2.Enabled, false
TestParameter, AutoAnalysis.Line2.Type, 1
TestParameter, AutoAnalysis.Line2.Fix, True
TestParameter, AutoAnalysis.Line2.YAxis, 0
TestParameter, AutoAnalysis.Line2.Point1.Type, 0
TestParameter, AutoAnalysis.Line2.Point1.XY.X, 
TestParameter, AutoAnalysis.Line2.Point1.XY.Y, 
TestParameter, AutoAnalysis.Line2.Point1.Data.Var, 
TestParameter, AutoAnalysis.Line2.Point1.Data.Condition, 
TestParameter, AutoAnalysis.Line2.Point1.Data.Start, false
TestParameter, AutoAnalysis.Line2.Point1.Data.StartVar, 
TestParameter, AutoAnalysis.Line2.Point1.Data.StartCondition, 
TestParameter, AutoAnalysis.Line2.Point2.Type, 0
TestParameter, AutoAnalysis.Line2.Point2.XY.X, 
TestParameter, AutoAnalysis.Line2.Point2.XY.Y, 
TestParameter, AutoAnalysis.Line2.Point2.Data.Var, 
TestParameter, AutoAnalysis.Line2.Point2.Data.Condition, 
TestParameter, AutoAnalysis.Line2.Point2.Data.Start, false
TestParameter, AutoAnalysis.Line2.Point2.Data.StartVar, 
TestParameter, AutoAnalysis.Line2.Point2.Data.StartCondition, 
TestParameter, AutoAnalysis.Line2.GradientExpr, 0
TestParameter, AutoAnalysis.Marker.Enabled, false
TestParameter, AutoAnalysis.Marker.Data.Var, 
TestParameter, AutoAnalysis.Marker.Data.Condition, 
TestParameter, AutoAnalysis.Marker.Data.Start, false
TestParameter, AutoAnalysis.Marker.Data.StartVar, 
TestParameter, AutoAnalysis.Marker.Data.StartCondition, 
MetaData, TestRecord.EntryPoint, true
MetaData, TestRecord.RecordTime, 02/05/2026 11:32:31
MetaData, TestRecord.TestTarget, lower_tr
MetaData, TestRecord.IterationIndex, 4
MetaData, TestRecord.Preservation, true
MetaData, TestRecord.Flag, 
MetaData, TestRecord.Remarks, 
MetaData, TestRecord.LinkKey, 004976a9-c192-4dc1-b1c3-26e40404728a
MetaData, TestRecord.Parameters, 
Dimension1, 101, 101, 101, 101, 101, 101, 101
Dimension2, 5, 5, 5, 5, 5, 5, 5
DataName, VG, VD, VS, IG, ID, IS, SS
DataValue, -3, 0.1, 0, -1.3100000000000002E-13, -1.0400000000000001E-13, -2.5E-14, 1589.8113028394077
DataValue, -2.94, 0.1, 0, -1.0700000000000001E-13, -1.0800000000000001E-13, 1.5000000000000002E-14, -457.37936240501125
DataValue, -2.88, 0.1, 0, -1.3E-13, -8.0000000000000013E-14, -3.7E-14, -276.7298013316024
DataValue, -2.82, 0.1, 0, -1.25E-13, -7E-14, 1.5000000000000002E-14, 931.43930026077965
DataValue, -2.7600000000000002, 0.1, 0, -1.12E-13, -9.1E-14, -2.3000000000000003E-14, -871.9575537754065
DataValue, -2.7, 0.1, 0, -8.0000000000000013E-14, -6.1E-14, -1.1E-14, -457.37936240501125
DataValue, -2.64, 0.1, 0, -1.1100000000000001E-13, -7E-14, -4.8000000000000004E-14, 389.65246243207235
DataValue, -2.58, 0.1, 0, -1.06E-13, -8.3000000000000012E-14, -2.4000000000000002E-14, 439.08864444184024
DataValue, -2.52, 0.1, 0, -1.0200000000000001E-13, -9.2000000000000012E-14, 4.2000000000000004E-14, 1054.8626564313902
DataValue, -2.46, 0.1, 0, -1.19E-13, -9.3000000000000008E-14, -1E-15, 3739.6791223613659
DataValue, -2.4, 0.1, 0, -9.4E-14, -9.5000000000000012E-14, -2.3000000000000003E-14, -134.07621486546827
DataValue, -2.34, 0.1, 0, -1.2000000000000002E-13, -3.8E-14, 3.2E-14, 1484.1915671091331
DataValue, -2.2800000000000002, 0.1, 0, -9.0000000000000008E-14, -1.03E-13, -1.8000000000000002E-14, 118.06675251080192
DataValue, -2.22, 0.1, 0, -1.0700000000000001E-13, -1.0500000000000001E-13, 3.4E-14, -474.86696626085859
DataValue, -2.16, 0.1, 0, -1.0500000000000001E-13, -8.0000000000000013E-14, -4.9000000000000006E-14, -258.45046430306644
DataValue, -2.1, 0.1, 0, -1.1100000000000001E-13, -6.6000000000000009E-14, -5.2000000000000006E-14, 255.31717742813382
DataValue, -2.04, 0.1, 0, -1E-13, -1.28E-13, -1.4E-14, 474.31483494657755
DataValue, -1.98, 0.1, 0, -8.0000000000000013E-14, -8.5E-14, -4.4E-14, -165.54101560945836
DataValue, -1.92, 0.1, 0, -8.1000000000000008E-14, -6.2E-14, -4.8000000000000004E-14, 1334.1006389004601
DataValue, -1.86, 0.1, 0, -8.8E-14, -9.3000000000000008E-14, -1.6E-14, 288.35035914084318
DataValue, -1.8, 0.1, 0, -9.6000000000000007E-14, -9.4E-14, -3.5E-14, -1054.8626564313902
DataValue, -1.74, 0.1, 0, -7.5000000000000009E-14, -8.3000000000000012E-14, -4.9000000000000006E-14, -643.13522219138417
DataValue, -1.68, 0.1, 0, -8.4000000000000008E-14, -7.8000000000000008E-14, -1.7E-14, -704.45121576162137
DataValue, -1.62, 0.1, 0, -9.5000000000000012E-14, -7E-14, -2.2E-14, 550.453282234107
DataValue, -1.56, 0.1, 0, -8.6000000000000012E-14, -9.7E-14, -7E-15, 327.30967625762611
DataValue, -1.5, 0.1, 0, -1.0200000000000001E-13, -1.0100000000000001E-13, -5.3E-14, -1102.9121860101789
DataValue, -1.44, 0.1, 0, -9.5000000000000012E-14, -8.7000000000000008E-14, -2.9E-14, -575.8122311037971
DataValue, -1.3800000000000001, 0.1, 0, -8.9000000000000012E-14, -8.2E-14, -1.5000000000000002E-14, -371.7778567763819
DataValue, -1.32, 0.1, 0, -6.7E-14, -6.3000000000000009E-14, -1E-15, 714.32087231236574
DataValue, -1.26, 0.1, 0, -1.22E-13, -9.7E-14, -3.9000000000000004E-14, -185.57834639364273
DataValue, -1.2, 0.1, 0, -8.5E-14, -3.3000000000000005E-14, 3.0000000000000002E-15, -198.53774799389589
DataValue, -1.1400000000000001, 0.1, 0, -8.0000000000000013E-14, -5.3E-14, -1.7E-14, 123.78783889714138
DataValue, -1.08, 0.1, 0, -5.4000000000000003E-14, -8.7000000000000008E-14, -2.8E-14, 454.86490919476529
DataValue, -1.02, 0.1, 0, -6.0000000000000009E-14, -6.9000000000000009E-14, -9.0000000000000011E-15, 2669.5505012590011
DataValue, -0.96, 0.1, 0, -1.0700000000000001E-13, -9.1E-14, -4E-15, -312.53344849579747
DataValue, -0.9, 0.1, 0, -8.9000000000000012E-14, -4.7E-14, -4.4E-14, -1030.8361593167094
DataValue, -0.84, 0.1, 0, -6.9000000000000009E-14, -8.1000000000000008E-14, -2E-15, 256.77209007853583
DataValue, -0.78, 0.1, 0, -6.4E-14, -7.5000000000000009E-14, -3.7E-14, -423.16804044804405
DataValue, -0.72, 0.1, 0, -9.8000000000000012E-14, -6.1E-14, -3.2E-14, 403.18190716973186
DataValue, -0.66, 0.1, 0, -1.2100000000000002E-13, -1.0100000000000001E-13, 4E-15, 237.97877361224892
DataValue, -0.6, 0.1, 0, -8.5E-14, -1.0100000000000001E-13, -3.4E-14, -870.93029104274672
DataValue, -0.54, 0.1, 0, -8.1000000000000008E-14, -8.8E-14, 1.5000000000000002E-14, -314.94904686904761
DataValue, -0.48, 0.1, 0, -9.4E-14, -6.9000000000000009E-14, 6.0000000000000005E-15, -493.35956550289552
DataValue, -0.42, 0.1, 0, -7.5000000000000009E-14, -6.9000000000000009E-14, -3.0000000000000002E-15, 352.3148085044628
DataValue, -0.36, 0.1, 0, -7.5000000000000009E-14, -9.7E-14, -6.8E-14, -4079.705865389376
DataValue, -0.3, 0.1, 0, -1.36E-13, -6.7E-14, -1.1E-14, -249.80930375809882
DataValue, -0.24, 0.1, 0, -5.8E-14, -6.0000000000000009E-14, -3.2E-14, 285.52380469888141
DataValue, -0.18, 0.1, 0, -9.2000000000000012E-14, -1.0200000000000001E-13, -7E-15, 222.064134761587
DataValue, -0.12, 0.1, 0, -8.0000000000000013E-14, -1.03E-13, -5.3E-14, -168.31479394159058
DataValue, -0.06, 0.1, 0, -5.4000000000000003E-14, -5E-14, -2.1000000000000002E-14, -202.81311238129987
DataValue, 0, 0.1, 0, -1.0400000000000001E-13, -5.700000000000001E-14, 1.1E-14, 390.26332073876222
DataValue, 0.06, 0.1, 0, -9.4E-14, -6.8E-14, -3.2E-14, 459.745761857897
DataValue, 0.12, 0.1, 0, -6.8E-14, -7.4E-14, -6.6000000000000009E-14, 411.87320431102307
DataValue, 0.18, 0.1, 0, -7.4E-14, -9.1E-14, -2.7000000000000002E-14, -203.22001211648117
DataValue, 0.24, 0.1, 0, -7.7E-14, 4.1E-14, -8.7000000000000008E-14, 54.021174140622911
DataValue, 0.3, 0.1, 0, -5.4000000000000003E-14, 8.3900000000000006E-13, -8.8600000000000006E-13, 23.452714474445521
DataValue, 0.36, 0.1, 0, -5.6E-14, 6.8380000000000005E-12, -6.763E-12, 29.448958353883413
DataValue, 0.42, 0.1, 0, -5.2000000000000006E-14, 4.9368E-11, -4.8654000000000003E-11, 31.877112998109038
DataValue, 0.48, 0.1, 0, -1.3300000000000001E-13, 2.94993E-10, -2.91216E-10, 37.415560957981072
DataValue, 0.54, 0.1, 0, -7E-14, 1.2199E-09, -1.20923E-09, 48.236606912202696
DataValue, 0.6, 0.1, 0, -7.3E-14, 3.54995E-09, -3.5375E-09, 64.960009735451834
DataValue, 0.66, 0.1, 0, -7.2000000000000009E-14, 7.73735E-09, -7.73539E-09, 88.0529504016029
DataValue, 0.72, 0.1, 0, -9.4E-14, 1.3870299999999999E-08, -1.38424E-08, 115.78427212380035
DataValue, 0.78, 0.1, 0, -7E-14, 2.1812199999999998E-08, -2.1807899999999997E-08, 147.38847948857173
DataValue, 0.84, 0.1, 0, -9.1E-14, 3.13096E-08, -3.12762E-08, 182.11569000117325
DataValue, 0.9, 0.1, 0, -6.7E-14, 4.2156599999999996E-08, -4.2135499999999994E-08, 218.56615160342574
DataValue, 0.96, 0.1, 0, -7E-14, 5.4214999999999993E-08, -5.4177199999999994E-08, 256.317914160608
DataValue, 1.02, 0.1, 0, -9.4E-14, 6.73269E-08, -6.70801E-08, 295.34669156033783
DataValue, 1.08, 0.1, 0, -9.0000000000000008E-14, 8.13906E-08, -8.1390299999999993E-08, 334.94896307162907
DataValue, 1.1400000000000001, 0.1, 0, -7.8000000000000008E-14, 9.6334199999999992E-08, -9.6248299999999992E-08, 376.22532530850452
DataValue, 1.2, 0.1, 0, -1.2600000000000002E-13, 1.1196849999999999E-07, -1.119187E-07, 419.05177462330755
DataValue, 1.26, 0.1, 0, -9.1E-14, 1.28276E-07, -1.28223E-07, 460.45724115178888
DataValue, 1.32, 0.1, 0, -6.3000000000000009E-14, 1.45304E-07, -1.45242E-07, 500.63657125876739
DataValue, 1.3800000000000001, 0.1, 0, -6.1E-14, 1.63021E-07, -1.63002E-07, 544.68799485311013
DataValue, 1.44, 0.1, 0, -6.9000000000000009E-14, 1.81116E-07, -1.81119E-07, 589.52720298711347
DataValue, 1.5, 0.1, 0, -7.8000000000000008E-14, 1.99823E-07, -1.99815E-07, 632.34567389610493
DataValue, 1.56, 0.1, 0, -1.0200000000000001E-13, 2.18964E-07, -2.19072E-07, 673.67512269387453
DataValue, 1.62, 0.1, 0, -8.5E-14, 2.38784E-07, -2.38764E-07, 715.62674777094094
DataValue, 1.68, 0.1, 0, -6.5E-14, 2.58939E-07, -2.58941E-07, 761.02245882732348
DataValue, 1.74, 0.1, 0, -1E-13, 2.79567E-07, -2.7963199999999997E-07, 802.226117719528
DataValue, 1.8, 0.1, 0, -9.0000000000000008E-14, 3.00719E-07, -3.00597E-07, 848.65853913755677
DataValue, 1.86, 0.1, 0, -9.7E-14, 3.22029E-07, -3.21888E-07, 894.64760124509667
DataValue, 1.92, 0.1, 0, -8.0000000000000013E-14, 3.43885E-07, -3.4393899999999997E-07, 936.30148921584544
DataValue, 1.98, 0.1, 0, -4.0000000000000006E-14, 3.66063E-07, -3.65936E-07, 977.49387594367658
DataValue, 2.04, 0.1, 0, -7.9E-14, 3.88802E-07, -3.88662E-07, 1022.2557183205099
DataValue, 2.1, 0.1, 0, -1.0700000000000001E-13, 4.1165799999999997E-07, -4.11632E-07, 1072.4202520178444
DataValue, 2.16, 0.1, 0, -6.9000000000000009E-14, 4.34835E-07, -4.3481399999999997E-07, 1114.1182530176673
DataValue, 2.22, 0.1, 0, -7.9E-14, 4.58473E-07, -4.58329E-07, 1156.8462360072958
DataValue, 2.2800000000000002, 0.1, 0, -6.4E-14, 4.82363E-07, -4.82161E-07, 1205.8086667980288
DataValue, 2.34, 0.1, 0, -1.0400000000000001E-13, 5.06447E-07, -5.06524E-07, 1248.4679229341925
DataValue, 2.4, 0.1, 0, -6.4E-14, 5.31028E-07, -5.30898E-07, 1287.9607333065953
DataValue, 2.46, 0.1, 0, -6.8E-14, 5.55901E-07, -5.55987E-07, 1330.8187057716848
DataValue, 2.52, 0.1, 0, -9.2000000000000012E-14, 5.81136E-07, -5.81074E-07, 1385.2335421512616
DataValue, 2.58, 0.1, 0, -8.3000000000000012E-14, 6.0620499999999994E-07, -6.0628E-07, 1433.0879180453685
DataValue, 2.64, 0.1, 0, -7.9E-14, 6.31893E-07, -6.31884E-07, 1470.4673681424015
DataValue, 2.7, 0.1, 0, -5.9E-14, 6.5775E-07, -6.57669E-07, 1524.3870724537205
DataValue, 2.7600000000000002, 0.1, 0, -8.0000000000000013E-14, 6.83646E-07, -6.83542E-07, 1572.2333015224306
DataValue, 2.82, 0.1, 0, -6.0000000000000009E-14, 7.0991799999999994E-07, -7.10036E-07, 1607.7742137808523
DataValue, 2.88, 0.1, 0, -6.9000000000000009E-14, 7.36624E-07, -7.36451E-07, 1659.9039262426797
DataValue, 2.94, 0.1, 0, -8.6000000000000012E-14, 7.63141E-07, -7.63191E-07, 1709.7805030344787
DataValue, 3, 0.1, 0, -9.8000000000000012E-14, 7.90181E-07, -7.9017599999999994E-07, 1723.1861145079331
DataValue, -3, 0.9, 0, -1.69E-13, -4.5000000000000004E-14, 2.7000000000000002E-14, 96.130074130407053
DataValue, -2.94, 0.9, 0, -1.16E-13, -8.4000000000000008E-14, -8E-15, 2759.5651625847772
DataValue, -2.88, 0.9, 0, -1.29E-13, -4.7E-14, -8E-15, 10139.881655700907
DataValue, -2.82, 0.9, 0, -1.5500000000000002E-13, -8.5E-14, -5.0000000000000008E-15, 998.79884582255613
DataValue, -2.7600000000000002, 0.9, 0, -1.19E-13, -5.3E-14, -2.0000000000000003E-14, -1639.2680313310455
DataValue, -2.7, 0.9, 0, -1.17E-13, -7.9E-14, -3.0000000000000005E-14, 143.93163860065394
DataValue, -2.64, 0.9, 0, -9.6000000000000007E-14, -1.22E-13, -2.9E-14, 787.707950905741
DataValue, -2.58, 0.9, 0, -1.1500000000000002E-13, -9.2000000000000012E-14, -1.0000000000000002E-14, -173.1234049066762
DataValue, -2.52, 0.9, 0, -1.22E-13, -6.1E-14, -3.5E-14, -330.66460025186359
DataValue, -2.46, 0.9, 0, -6.5E-14, -6.4E-14, -1.1E-14, -2379.4957128389769
DataValue, -2.4, 0.9, 0, -6.4E-14, -5.8E-14, -4.0000000000000006E-14, -1475.1866333035243
DataValue, -2.34, 0.9, 0, -7.2000000000000009E-14, -5.9E-14, -3.0000000000000002E-15, 313.96496876630482
DataValue, -2.2800000000000002, 0.9, 0, -8.9000000000000012E-14, -8.5E-14, 1.6E-14, 284.17687096321947
DataValue, -2.22, 0.9, 0, -1.0500000000000001E-13, -9.0000000000000008E-14, 2E-15, 543.5081990593269
DataValue, -2.16, 0.9, 0, -6.9000000000000009E-14, -1.06E-13, -1.8000000000000002E-14, -123.27300355476721
DataValue, -2.1, 0.9, 0, -9.0000000000000008E-14, -3.4E-14, -7E-15, -733.36443548209763
DataValue, -2.04, 0.9, 0, -1E-13, -9.0000000000000008E-14, -3.0000000000000002E-15, 270.31204143420109
DataValue, -1.98, 0.9, 0, -9.6000000000000007E-14, -5.3E-14, -7.9E-14, -573.2021429780641
DataValue, -1.92, 0.9, 0, -1.16E-13, -7.3E-14, -4E-15, 359.52559197565631
DataValue, -1.86, 0.9, 0, -7.9E-14, -7.4E-14, -2.3000000000000003E-14, 934.716540852338
DataValue, -1.8, 0.9, 0, -9.0000000000000008E-14, -8.3000000000000012E-14, -4.5000000000000004E-14, 613.04380311234831
DataValue, -1.74, 0.9, 0, -7.7E-14, -9.0000000000000008E-14, -5.3E-14, 964.2103248665386
DataValue, -1.68, 0.9, 0, -1E-13, -9.4E-14, 1.6E-14, -321.99613105058552
DataValue, -1.62, 0.9, 0, -9.6000000000000007E-14, -6.2E-14, -3.0000000000000002E-15, -1192.3270679396087
DataValue, -1.56, 0.9, 0, -1.2600000000000002E-13, -8.5E-14, -1.0000000000000002E-14, -765.0988846179971
DataValue, -1.5, 0.9, 0, -7.6E-14, -5.3E-14, -2.1000000000000002E-14, -422.88040507190334
DataValue, -1.44, 0.9, 0, -8.2E-14, -6.4E-14, -2.9E-14, 332.92510543880542
DataValue, -1.3800000000000001, 0.9, 0, -7.7E-14, -7.6E-14, -2.8E-14, 484.19083845326685
DataValue, -1.32, 0.9, 0, -4.8000000000000004E-14, -8.2E-14, -6.8E-14, 491.84835494326194
DataValue, -1.26, 0.9, 0, -1.09E-13, -9.7E-14, 4.2000000000000004E-14, 1042.8495605600019
DataValue, -1.2, 0.9, 0, -1.22E-13, -9.2000000000000012E-14, 1.9E-14, -491.84835494326109
DataValue, -1.1400000000000001, 0.9, 0, -7.9E-14, -7.6E-14, 1.3000000000000001E-14, 2267.47080068782
DataValue, -1.08, 0.9, 0, -9.6000000000000007E-14, -9.7E-14, 3.0000000000000002E-15, -417.12713961386663
DataValue, -1.02, 0.9, 0, -9.6000000000000007E-14, -5.700000000000001E-14, 3.5E-14, 
DataValue, -0.96, 0.9, 0, -7.1E-14, -9.7E-14, 3.1E-14, 1769.3218260271638
DataValue, -0.9, 0.9, 0, -6.8E-14, -6.1E-14, -3.0000000000000002E-15, -550.45328223410752
DataValue, -0.84, 0.9, 0, -5.5000000000000005E-14, -7.8000000000000008E-14, 2.6000000000000003E-14, 361.68829696914128
DataValue, -0.78, 0.9, 0, -7.9E-14, -8.5E-14, 6.0000000000000005E-15, 4739.7468246247681
