
SetupTitle, I/V List Sweep - Step Marking (ISRC)
PrimitiveTest, I/V List Sweep
TestParameter, Channel.UnitType, SMU, SMU, SMU, SMU
TestParameter, Channel.Unit, SMU2:HR, SMU4:HR, SMU1:HR, SMU3:HR
TestParameter, Channel.IName, IG_PGM, ID_PGM, ID_READ, IS_READ
TestParameter, Channel.VName, VG_PGM, VD_PGM, VD_READ, VS_READ
TestParameter, Channel.Mode, V, V, V, COMMON
TestParameter, Channel.Func, VAR1, VAR1, CONST, CONST
TestParameter, Channel.Index, index
TestParameter, Channel.Time, time
TestParameter, Measurement.Port.Unit, SMU2:HR, SMU4:HR, SMU1:HR, SMU3:HR
TestParameter, Measurement.Port.SeriesResistor, NONE, NONE, NONE, NONE
TestParameter, Measurement.Port.Filter, ON, ON, ON, ON
TestParameter, Measurement.Port.OutputVoltageComparison, 0, 0, 0, 0
TestParameter, Measurement.Primary.Sources
TestParameter, Measurement.Primary.Compliance, 0.1, 0.1
TestParameter, Measurement.Primary.PowerCompliance, 0, 0
TestParameter, Measurement.Aborting.Condition, CONTINUE AT ANY
TestParameter, Measurement.PostOutput.Retention, OFF
TestParameter, Measurement.Bias.Source, 2, 1.5, 0.1, 0
TestParameter, Measurement.Bias.Compliance, 0.1, 0.1, 0.1, 0.1
TestParameter, Measurement.Pulse.Period, 
TestParameter, Measurement.Pulse.MeasurementDelay, 0
TestParameter, Measurement.Pulse.AveragingCount, 1
TestParameter, Measurement.Monitor.Unit, SMU4:HR, SMU2:HR, SMU1:HR, SMU3:HR
TestParameter, Measurement.Monitor.Adc, HR ADC, HR ADC, HR ADC, HR ADC
TestParameter, Measurement.Monitor.Measurement, Compliance Side, Compliance Side, Compliance Side, Compliance Side
TestParameter, Measurement.Monitor.RangingMode, LIMITED, LIMITED, LIMITED, LIMITED
TestParameter, Measurement.Monitor.RangeBoundary, 1nA, 1nA, 1nA, 1nA
TestParameter, Measurement.Monitor.RangeRating, BY FULL RANGE, BY FULL RANGE, BY FULL RANGE, BY FULL RANGE
TestParameter, Measurement.Monitor.RangeRatingCoeff, 50, 50, 50, 50
TestParameter, Measurement.Timing.Hold, 0
TestParameter, Measurement.Timing.Delay
TestParameter, Measurement.Adc.HighSpeed.Mode, PLC
TestParameter, Measurement.Adc.HighSpeed.Coeff, 10
TestParameter, Measurement.Adc.HighResolution.AutoZero, OFF
TestParameter, Measurement.Adc.HighResolution.Mode, PLC
TestParameter, Measurement.Adc.HighResolution.Coeff, 10
TestParameter, Measurement.WaitTime.Source.Coeff, 1
TestParameter, Measurement.WaitTime.Source.Offset, 0
TestParameter, Measurement.WaitTime.Monitor.Coeff, 1
TestParameter, Measurement.WaitTime.Monitor.Offset, 0
TestParameter, Output.Graph.Enabled, true
TestParameter, Output.Graph.AutoScaling, false
TestParameter, Output.Graph.XAxis.Data, time
TestParameter, Output.Graph.XAxis.Scale, Linear
TestParameter, Output.Graph.XAxis.Left, 0
TestParameter, Output.Graph.XAxis.Right, 500
TestParameter, Output.Graph.XAxis.RunTimeAutoScale, true
TestParameter, Output.Graph.YAxis.Data, ID_READ, ID_READ
TestParameter, Output.Graph.YAxis.Scale, Log, Linear
TestParameter, Output.Graph.YAxis.Bottom, 0, 0
TestParameter, Output.Graph.YAxis.Top, 0.1, 0.1
TestParameter, Output.Graph.YAxis.Group, , 
TestParameter, Output.Graph.YAxis.RunTimeAutoScale, false, true
TestParameter, Output.List.Data, VD_PGM, VG_PGM, VD_READ, VS_READ, time, ID_PGM, IG_PGM, ID_READ, IS_READ
TestParameter, AutoAnalysis.Interpolation, false
TestParameter, AutoAnalysis.Var2StepCount, 1
TestParameter, AutoAnalysis.Var2StepScript, 
TestParameter, AutoAnalysis.Line1.Enabled, false
TestParameter, AutoAnalysis.Line1.Type, 1
TestParameter, AutoAnalysis.Line1.Fix, True
TestParameter, AutoAnalysis.Line1.YAxis, 0
TestParameter, AutoAnalysis.Line1.Point1.Type, 0
TestParameter, AutoAnalysis.Line1.Point1.XY.X, 
TestParameter, AutoAnalysis.Line1.Point1.XY.Y, 
TestParameter, AutoAnalysis.Line1.Point1.Data.Var, 
TestParameter, AutoAnalysis.Line1.Point1.Data.Condition, 
TestParameter, AutoAnalysis.Line1.Point1.Data.Start, false
TestParameter, AutoAnalysis.Line1.Point1.Data.StartVar, 
TestParameter, AutoAnalysis.Line1.Point1.Data.StartCondition, 
TestParameter, AutoAnalysis.Line1.Point2.Type, 0
TestParameter, AutoAnalysis.Line1.Point2.XY.X, 
TestParameter, AutoAnalysis.Line1.Point2.XY.Y, 
TestParameter, AutoAnalysis.Line1.Point2.Data.Var, 
TestParameter, AutoAnalysis.Line1.Point2.Data.Condition, 
TestParameter, AutoAnalysis.Line1.Point2.Data.Start, false
TestParameter, AutoAnalysis.Line1.Point2.Data.StartVar, 
TestParameter, AutoAnalysis.Line1.Point2.Data.StartCondition, 
TestParameter, AutoAnalysis.Line1.GradientExpr, 0
TestParameter, AutoAnalysis.Line2.Enabled, false
TestParameter, AutoAnalysis.Line2.Type, 1
TestParameter, AutoAnalysis.Line2.Fix, True
TestParameter, AutoAnalysis.Line2.YAxis, 0
TestParameter, AutoAnalysis.Line2.Point1.Type, 0
TestParameter, AutoAnalysis.Line2.Point1.XY.X, 
TestParameter, AutoAnalysis.Line2.Point1.XY.Y, 
TestParameter, AutoAnalysis.Line2.Point1.Data.Var, 
TestParameter, AutoAnalysis.Line2.Point1.Data.Condition, 
TestParameter, AutoAnalysis.Line2.Point1.Data.Start, false
TestParameter, AutoAnalysis.Line2.Point1.Data.StartVar, 
TestParameter, AutoAnalysis.Line2.Point1.Data.StartCondition, 
TestParameter, AutoAnalysis.Line2.Point2.Type, 0
TestParameter, AutoAnalysis.Line2.Point2.XY.X, 
TestParameter, AutoAnalysis.Line2.Point2.XY.Y, 
TestParameter, AutoAnalysis.Line2.Point2.Data.Var, 
TestParameter, AutoAnalysis.Line2.Point2.Data.Condition, 
TestParameter, AutoAnalysis.Line2.Point2.Data.Start, false
TestParameter, AutoAnalysis.Line2.Point2.Data.StartVar, 
TestParameter, AutoAnalysis.Line2.Point2.Data.StartCondition, 
TestParameter, AutoAnalysis.Line2.GradientExpr, 0
TestParameter, AutoAnalysis.Marker.Enabled, false
TestParameter, AutoAnalysis.Marker.Data.Var, 
TestParameter, AutoAnalysis.Marker.Data.Condition, 
TestParameter, AutoAnalysis.Marker.Data.Start, false
TestParameter, AutoAnalysis.Marker.Data.StartVar, 
TestParameter, AutoAnalysis.Marker.Data.StartCondition, 
MetaData, TestRecord.EntryPoint, true
MetaData, TestRecord.RecordTime, 12/24/2025 12:57:43
MetaData, TestRecord.TestTarget, IGZO_ALD_#1_2T0C_LIST_SWEEP_R2C0
MetaData, TestRecord.IterationIndex, 2
MetaData, TestRecord.Preservation, true
MetaData, TestRecord.Flag, 
MetaData, TestRecord.Remarks, 
MetaData, TestRecord.LinkKey, 72d9e72a-539d-410e-96e4-7199866d98b0
MetaData, TestRecord.Parameters, 
Dimension1, 200, 200, 200, 200, 200, 200, 200, 200, 200
Dimension2, 1, 1, 1, 1, 1, 1, 1, 1, 1
DataName, VG_PGM, VD_PGM, VD_READ, VS_READ, time, ID_PGM, IG_PGM, ID_READ, IS_READ
DataValue, 2, 1.5, 0.1, 0, 0.09424, 7.3E-14, -5.0000000000000008E-15, 1.19999E-06, -1.1984800000000001E-06
DataValue, 2, 1.5, 0.1, 0, 1.0621800000000001, 1.6E-14, 1.0000000000000002E-14, 1.1926E-06, -1.19188E-06
DataValue, 2, 1.5, 0.1, 0, 1.97432, 4.9000000000000006E-14, 1.2000000000000001E-14, 1.1874900000000002E-06, -1.18697E-06
DataValue, 2, 1.5, 0.1, 0, 2.8861800000000004, 1.8000000000000002E-14, 2.0000000000000003E-14, 1.1832400000000002E-06, -1.1828400000000002E-06
DataValue, 2, 1.5, 0.1, 0, 3.7983200000000004, 1.2000000000000001E-14, -5.0000000000000008E-15, 1.1797100000000002E-06, -1.17946E-06
DataValue, -2, 1.5, 0.1, 0, 4.71046, 6.4E-14, -3.5E-14, 8.07861E-07, -8.06998E-07
DataValue, -2, 1.5, 0.1, 0, 5.64376, 6.0000000000000005E-15, -1E-15, 8.0415E-07, -8.0357799999999994E-07
DataValue, -2, 1.5, 0.1, 0, 6.5559, 3.4E-14, -1.2000000000000001E-14, 8.01241E-07, -8.00769E-07
DataValue, -2, 1.5, 0.1, 0, 7.468090000000001, 2.1000000000000002E-14, 6.0000000000000005E-15, 7.98578E-07, -7.98124E-07
DataValue, -2, 1.5, 0.1, 0, 8.3803, 2.1000000000000002E-14, 0, 7.96268E-07, -7.95863E-07
DataValue, -2, 0, 0.1, 0, 9.2956, 3.0000000000000002E-15, -8E-15, 7.94118E-07, -7.9373899999999993E-07
DataValue, -2, 0, 0.1, 0, 10.20757, 2.1000000000000002E-14, 1.0000000000000002E-14, 7.92171E-07, -7.91809E-07
DataValue, -2, 0, 0.1, 0, 11.119430000000001, -1E-15, 1.3000000000000001E-14, 7.90328E-07, -7.89977E-07
DataValue, -2, 0, 0.1, 0, 12.03143, 1.4E-14, 1.2700000000000001E-13, 7.88574E-07, -7.88213E-07
DataValue, -2, 0, 0.1, 0, 12.943410000000002, 2.5E-14, -8E-15, 7.86788E-07, -7.86475E-07
DataValue, -2, 0, 0.1, 0, 13.85523, 1.6E-14, 2.1000000000000002E-14, 7.85257E-07, -7.8494399999999994E-07
DataValue, -2, 0, 0.1, 0, 14.767410000000002, 7E-15, 1.4E-14, 7.8358999999999994E-07, -7.83302E-07
DataValue, -2, 0, 0.1, 0, 15.679210000000001, 3.9000000000000004E-14, -1.6E-14, 7.82097E-07, -7.81815E-07
DataValue, -2, 0, 0.1, 0, 16.59129, 1.7E-14, -5.0000000000000008E-15, 7.8068E-07, -7.8041399999999994E-07
DataValue, -2, 0, 0.1, 0, 17.503390000000003, 6.0000000000000005E-15, 1.1E-14, 7.79268E-07, -7.78962E-07
DataValue, -2, 0, 0.1, 0, 18.41514, -3.4E-14, -4E-15, 7.77847E-07, -7.77584E-07
DataValue, -2, 0, 0.1, 0, 19.32729, 9.0000000000000011E-15, 1.3000000000000001E-14, 7.76587E-07, -7.7632899999999994E-07
DataValue, -2, 0, 0.1, 0, 20.239310000000003, 3.4E-14, -9.0000000000000011E-15, 7.75333E-07, -7.75095E-07
DataValue, -2, 0, 0.1, 0, 21.151040000000002, -9.0000000000000011E-15, 1.1E-14, 7.74165E-07, -7.73914E-07
DataValue, -2, 0, 0.1, 0, 22.063160000000003, 1.6E-14, 2.3000000000000003E-14, 7.73014E-07, -7.7276599999999995E-07
DataValue, -2, 0, 0.1, 0, 22.975250000000003, 1.6E-14, 2E-15, 7.7184899999999994E-07, -7.7159599999999994E-07
DataValue, -2, 0, 0.1, 0, 23.887330000000002, 3.2E-14, 1.9E-14, 7.70704E-07, -7.70441E-07
DataValue, -2, 0, 0.1, 0, 24.799460000000003, 2.9E-14, 1.0000000000000002E-14, 7.69647E-07, -7.69409E-07
DataValue, -2, 0, 0.1, 0, 25.711250000000003, 1E-15, 1.4E-14, 7.68593E-07, -7.68377E-07
DataValue, -2, 0, 0.1, 0, 26.623340000000002, 2.2E-14, 3.1E-14, 7.67587E-07, -7.67385E-07
DataValue, -2, 0, 0.1, 0, 27.53515, 3.0000000000000002E-15, 3.6000000000000004E-14, 7.66537E-07, -7.6635E-07
DataValue, -2, 0, 0.1, 0, 28.447300000000002, 4E-15, 1.0000000000000002E-14, 7.65558E-07, -7.65364E-07
DataValue, -2, 0, 0.1, 0, 29.35903, -8E-15, -4E-15, 7.64625E-07, -7.64424E-07
DataValue, -2, 0, 0.1, 0, 30.27079, 2.4000000000000002E-14, 2.2E-14, 7.63646E-07, -7.63463E-07
DataValue, -2, 0, 0.1, 0, 31.182790000000004, -2.3000000000000003E-14, 0, 7.62737E-07, -7.62499E-07
DataValue, -2, 0, 0.1, 0, 32.09483, 1.9E-14, 2.3000000000000003E-14, 7.61848E-07, -7.61666E-07
DataValue, -2, 0, 0.1, 0, 33.00665, 2.1000000000000002E-14, 1.1E-14, 7.61076E-07, -7.60866E-07
DataValue, -2, 0, 0.1, 0, 33.91875, 1.1E-14, 8E-15, 7.60216E-07, -7.60028E-07
DataValue, -2, 0, 0.1, 0, 34.8308, 4.5000000000000004E-14, 1.5000000000000002E-14, 7.5935999999999994E-07, -7.59158E-07
DataValue, -2, 0, 0.1, 0, 35.742830000000005, 5.0000000000000008E-15, -1.8000000000000002E-14, 7.5848E-07, -7.5830899999999994E-07
DataValue, -2, 0, 0.1, 0, 36.654560000000004, 3.0000000000000005E-14, -3.1E-14, 7.57717E-07, -7.57551E-07
DataValue, -2, 0, 0.1, 0, 37.56671, 4E-15, 2E-15, 7.5687E-07, -7.56643E-07
DataValue, -2, 0, 0.1, 0, 38.478750000000005, -3.0000000000000002E-15, -1.7E-14, 7.55987E-07, -7.5583899999999994E-07
DataValue, -2, 0, 0.1, 0, 39.390730000000005, 9.0000000000000011E-15, 1.2000000000000001E-14, 7.55197E-07, -7.55025E-07
DataValue, -2, 0, 0.1, 0, 40.30277, 1E-15, 1.0000000000000002E-14, 7.54461E-07, -7.54275E-07
DataValue, -2, 0, 0.1, 0, 41.214780000000005, 2E-15, 0, 7.53648E-07, -7.5349899999999994E-07
DataValue, -2, 0, 0.1, 0, 42.126560000000005, 1.0000000000000002E-14, 4E-15, 7.52906E-07, -7.52761E-07
DataValue, -2, 0, 0.1, 0, 43.0384, -3.0000000000000005E-14, -7E-15, 7.5215E-07, -7.51968E-07
DataValue, -2, 0, 0.1, 0, 43.95038, 1.9E-14, 1E-15, 7.51423E-07, -7.51252E-07
DataValue, -2, 0, 0.1, 0, 44.862460000000006, 2.3000000000000003E-14, 1.2000000000000001E-14, 7.5069499999999993E-07, -7.50541E-07
DataValue, -2, 0, 0.1, 0, 45.774510000000006, 5.0000000000000008E-15, 1.1E-14, 7.50022E-07, -7.49835E-07
DataValue, -2, 0, 0.1, 0, 46.68666, 2.4000000000000002E-14, 3.4E-14, 7.49284E-07, -7.4912E-07
DataValue, -2, 0, 0.1, 0, 47.59868, 1.1E-14, -7E-15, 7.48594E-07, -7.48445E-07
DataValue, -2, 0, 0.1, 0, 48.510720000000006, -7E-15, 3.0000000000000002E-15, 7.47833E-07, -7.47675E-07
DataValue, -2, 0, 0.1, 0, 49.42244, -1.4E-14, -4E-15, 7.47115E-07, -7.4698999999999994E-07
DataValue, -2, 0, 0.1, 0, 50.33418, -8E-15, 2E-15, 7.46468E-07, -7.46331E-07
DataValue, -2, 0, 0.1, 0, 51.246, -1E-15, 1.2000000000000001E-14, 7.45821E-07, -7.45661E-07
DataValue, -2, 0, 0.1, 0, 52.15773, 0, -7E-15, 7.45155E-07, -7.45021E-07
DataValue, -2, 0, 0.1, 0, 53.069720000000004, 1.2000000000000001E-14, -1.4E-14, 7.44573E-07, -7.44435E-07
DataValue, -2, 0, 0.1, 0, 53.981710000000007, 1.4E-14, -1.4E-14, 7.43935E-07, -7.43807E-07
DataValue, -2, 0, 0.1, 0, 54.893730000000005, -4E-15, 0, 7.43334E-07, -7.43196E-07
DataValue, -2, 0, 0.1, 0, 55.805720000000008, 3.0000000000000002E-15, 1.7E-14, 7.42741E-07, -7.42604E-07
DataValue, -2, 0, 0.1, 0, 56.717490000000005, 5.0000000000000008E-15, 8E-15, 7.42139E-07, -7.42045E-07
DataValue, -2, 0, 0.1, 0, 57.62953, 2.5E-14, 0, 7.41694E-07, -7.41576E-07
DataValue, -2, 0, 0.1, 0, 58.541550000000008, 1.0000000000000002E-14, -1.2000000000000001E-14, 7.4107899999999994E-07, -7.40988E-07
DataValue, -2, 0, 0.1, 0, 59.453720000000004, -1.7E-14, 1.3000000000000001E-14, 7.40532E-07, -7.40433E-07
DataValue, -2, 0, 0.1, 0, 60.365460000000006, 1.0000000000000002E-14, -7E-15, 7.39984E-07, -7.3982499999999994E-07
DataValue, -2, 0, 0.1, 0, 61.277570000000004, 2.7000000000000002E-14, -4E-15, 7.39365E-07, -7.39237E-07
DataValue, -2, 0, 0.1, 0, 62.18939, 0, 1.1E-14, 7.38814E-07, -7.38669E-07
DataValue, -2, 0, 0.1, 0, 63.101500000000009, -1.1E-14, 2.7000000000000002E-14, 7.38213E-07, -7.38077E-07
DataValue, -2, 0, 0.1, 0, 64.013550000000009, -1.4E-14, 3.0000000000000002E-15, 7.37637E-07, -7.37496E-07
DataValue, -2, 0, 0.1, 0, 64.92569, -1.4E-14, -4E-15, 7.37072E-07, -7.36926E-07
DataValue, -2, 0, 0.1, 0, 65.837460000000007, -9.0000000000000011E-15, -2.4000000000000002E-14, 7.36494E-07, -7.3637299999999995E-07
DataValue, -2, 0, 0.1, 0, 66.7492, -1E-15, 6.0000000000000005E-15, 7.3594299999999993E-07, -7.35838E-07
DataValue, -2, 0, 0.1, 0, 67.661, -2.5E-14, 1E-15, 7.3539E-07, -7.35271E-07
DataValue, -2, 0, 0.1, 0, 68.572780000000009, -1.9E-14, 0, 7.3481E-07, -7.3470799999999994E-07
DataValue, -2, 0, 0.1, 0, 69.48497, -1.7E-14, 2E-15, 7.34287E-07, -7.34158E-07
DataValue, -2, 0, 0.1, 0, 70.397020000000012, -6.0000000000000005E-15, -1E-15, 7.33775E-07, -7.33649E-07
DataValue, -2, 0, 0.1, 0, 71.31076, -2.1000000000000002E-14, -2.1000000000000002E-14, 7.3326199999999994E-07, -7.33142E-07
DataValue, -2, 0, 0.1, 0, 72.22278, -2E-15, -6.0000000000000005E-15, 7.32735E-07, -7.32605E-07
DataValue, -2, 0, 0.1, 0, 73.134530000000012, -2.9E-14, -2.0000000000000003E-14, 7.32181E-07, -7.32048E-07
DataValue, -2, 0, 0.1, 0, 74.04639, 0, -3.0000000000000005E-14, 7.31649E-07, -7.31527E-07
DataValue, -2, 0, 0.1, 0, 74.958360000000013, -4E-15, -1.9E-14, 7.31149E-07, -7.31057E-07
DataValue, -2, 0, 0.1, 0, 75.87039, -1.4E-14, -1.1E-14, 7.30659E-07, -7.30534E-07
DataValue, -2, 0, 0.1, 0, 76.782360000000011, -3.0000000000000002E-15, -1.6E-14, 7.30137E-07, -7.30042E-07
DataValue, -2, 0, 0.1, 0, 77.694150000000008, -2.5E-14, -2E-15, 7.29665E-07, -7.29531E-07
DataValue, -2, 0, 0.1, 0, 78.605920000000012, -1.5000000000000002E-14, -1.7E-14, 7.29169E-07, -7.2906E-07
DataValue, -2, 0, 0.1, 0, 79.51779, -1.5000000000000002E-14, -5.0000000000000008E-15, 7.28681E-07, -7.28559E-07
DataValue, -2, 0, 0.1, 0, 80.429880000000011, -5.0000000000000008E-15, 8E-15, 7.28193E-07, -7.28097E-07
DataValue, -2, 0, 0.1, 0, 81.341680000000011, -4.0000000000000006E-14, -3.0000000000000002E-15, 7.2773499999999994E-07, -7.2763499999999994E-07
DataValue, -2, 0, 0.1, 0, 82.25372, -1.4E-14, -1.2000000000000001E-14, 7.27276E-07, -7.27159E-07
DataValue, -2, 0, 0.1, 0, 83.165820000000011, 6.0000000000000005E-15, 1E-15, 7.26785E-07, -7.26668E-07
DataValue, -2, 0, 0.1, 0, 84.07765, -1.1E-14, 2E-15, 7.26295E-07, -7.26184E-07
DataValue, -2, 0, 0.1, 0, 84.989770000000007, -3.0000000000000005E-14, 1.2000000000000001E-14, 7.25804E-07, -7.25707E-07
DataValue, -2, 0, 0.1, 0, 85.90176000000001, -2.1000000000000002E-14, 7E-15, 7.25364E-07, -7.25263E-07
DataValue, -2, 0, 0.1, 0, 86.81382, -2.3000000000000003E-14, -3.5E-14, 7.24869E-07, -7.24776E-07
DataValue, -2, 0, 0.1, 0, 87.72589, -7E-15, -1.1E-14, 7.24422E-07, -7.24313E-07
DataValue, -2, 0, 0.1, 0, 88.63796, -3.1E-14, 2E-15, 7.23956E-07, -7.23874E-07
DataValue, -2, 0, 0.1, 0, 89.55001, -4.1E-14, -9.0000000000000011E-15, 7.23542E-07, -7.23434E-07
DataValue, -2, 0, 0.1, 0, 90.461990000000014, -1.2000000000000001E-14, -2.0000000000000003E-14, 7.23106E-07, -7.23028E-07
DataValue, -2, 0, 0.1, 0, 91.37375, -3.0000000000000005E-14, 1E-15, 7.22669E-07, -7.2256E-07
DataValue, -2, 0, 0.1, 0, 92.285800000000009, -2.9E-14, -2.3000000000000003E-14, 7.22217E-07, -7.22107E-07
DataValue, -2, 0, 0.1, 0, 93.197510000000008, -5.0000000000000008E-15, -2.6000000000000003E-14, 7.21814E-07, -7.217E-07
DataValue, -2, 0, 0.1, 0, 94.10962, -2.1000000000000002E-14, -1.7E-14, 7.21349E-07, -7.21258E-07
DataValue, -2, 0, 0.1, 0, 95.02159, -6.0000000000000005E-15, -2E-15, 7.2095E-07, -7.2084199999999994E-07
DataValue, -2, 0, 0.1, 0, 95.9333, -2.2E-14, -2.0000000000000003E-14, 7.20478E-07, -7.20366E-07
DataValue, -2, 0, 0.1, 0, 96.845300000000009, -6.0000000000000005E-15, -2.1000000000000002E-14, 7.20032E-07, -7.1995E-07
DataValue, -2, 0, 0.1, 0, 97.757340000000013, -1.7E-14, 0, 7.19632E-07, -7.19525E-07
DataValue, -2, 0, 0.1, 0, 98.669090000000011, -1.5000000000000002E-14, -1.0000000000000002E-14, 7.19214E-07, -7.19127E-07
DataValue, -2, 0, 0.1, 0, 99.580840000000009, -7E-15, -1.0000000000000002E-14, 7.1878599999999994E-07, -7.18688E-07
DataValue, -2, 0, 0.1, 0, 100.49289, -1.5000000000000002E-14, -2.2E-14, 7.18343E-07, -7.18258E-07
DataValue, -2, 0, 0.1, 0, 101.40488, -2.5E-14, -2.8E-14, 7.17889E-07, -7.17801E-07
DataValue, -2, 0, 0.1, 0, 102.31671000000002, -3.5E-14, -2.9E-14, 7.17485E-07, -7.17395E-07
DataValue, -2, 0, 0.1, 0, 103.22876000000001, -1.2000000000000001E-14, -2.7000000000000002E-14, 7.17101E-07, -7.1699499999999994E-07
DataValue, -2, 0, 0.1, 0, 104.14048000000001, -6.0000000000000005E-15, -5.0000000000000008E-15, 7.1668399999999993E-07, -7.16566E-07
DataValue, -2, 0, 0.1, 0, 105.05234000000002, -3.8E-14, -7E-15, 7.1627399999999995E-07, -7.16177E-07
DataValue, -2, 0, 0.1, 0, 105.96435000000001, -1.1E-14, -2.9E-14, 7.15835E-07, -7.15763E-07
DataValue, -2, 0, 0.1, 0, 106.87652000000001, -2.2E-14, -1.3000000000000001E-14, 7.15443E-07, -7.15337E-07
DataValue, -2, 0, 0.1, 0, 107.78862000000001, -2.3000000000000003E-14, -2.5E-14, 7.15044E-07, -7.14945E-07
DataValue, -2, 0, 0.1, 0, 108.70069000000001, -4E-15, -5E-14, 7.14647E-07, -7.14557E-07
DataValue, -2, 0, 0.1, 0, 109.61242000000001, -4.4E-14, -2.2E-14, 7.14271E-07, -7.14184E-07
DataValue, -2, 0, 0.1, 0, 110.52411000000001, -8E-15, 1E-15, 7.13875E-07, -7.1379199999999994E-07
DataValue, -2, 0, 0.1, 0, 111.43611000000001, 4E-15, 6.0000000000000005E-15, 7.13507E-07, -7.13406E-07
DataValue, -2, 0, 0.1, 0, 112.34789, -3.2E-14, -2.7000000000000002E-14, 7.13087E-07, -7.13008E-07
DataValue, -2, 0, 0.1, 0, 113.25996, 8E-15, -1.5000000000000002E-14, 7.12714E-07, -7.12617E-07
DataValue, -2, 0, 0.1, 0, 114.17192000000001, -3.6000000000000004E-14, -3.3000000000000005E-14, 7.12367E-07, -7.1227E-07
DataValue, -2, 0, 0.1, 0, 115.08367000000001, -2.0000000000000003E-14, -2.7000000000000002E-14, 7.12014E-07, -7.11916E-07
DataValue, -2, 0, 0.1, 0, 115.99576, -2.4000000000000002E-14, -3.4E-14, 7.11617E-07, -7.11538E-07
DataValue, -2, 0, 0.1, 0, 116.90750000000001, -3.0000000000000002E-15, -6.0000000000000005E-15, 7.11261E-07, -7.1120699999999994E-07
DataValue, -2, 0, 0.1, 0, 117.81943000000001, 2E-15, -1.6E-14, 7.10905E-07, -7.10824E-07
DataValue, -2, 0, 0.1, 0, 118.73120000000002, -3.2E-14, -2.2E-14, 7.10538E-07, -7.10443E-07
DataValue, -2, 0, 0.1, 0, 119.64326000000001, -3.0000000000000005E-14, -1.9E-14, 7.10163E-07, -7.10093E-07
DataValue, -2, 0, 0.1, 0, 120.55501000000001, -1.5000000000000002E-14, -1.6E-14, 7.09773E-07, -7.09712E-07
