
SetupTitle, I/V List Sweep - Step Marking (ISRC)
PrimitiveTest, I/V List Sweep
TestParameter, Channel.UnitType, SMU, SMU, SMU, SMU
TestParameter, Channel.Unit, SMU2:HR, SMU4:HR, SMU1:HR, SMU3:HR
TestParameter, Channel.IName, IG_PGM, ID_PGM, ID_READ, IS_READ
TestParameter, Channel.VName, VG_PGM, VD_PGM, VD_READ, VS_READ
TestParameter, Channel.Mode, V, V, V, COMMON
TestParameter, Channel.Func, VAR1, VAR1, CONST, CONST
TestParameter, Channel.Index, index
TestParameter, Channel.Time, time
TestParameter, Measurement.Port.Unit, SMU2:HR, SMU4:HR, SMU1:HR, SMU3:HR
TestParameter, Measurement.Port.SeriesResistor, NONE, NONE, NONE, NONE
TestParameter, Measurement.Port.Filter, ON, ON, ON, ON
TestParameter, Measurement.Port.OutputVoltageComparison, 0, 0, 0, 0
TestParameter, Measurement.Primary.Sources
TestParameter, Measurement.Primary.Compliance, 0.1, 0.1
TestParameter, Measurement.Primary.PowerCompliance, 0, 0
TestParameter, Measurement.Aborting.Condition, CONTINUE AT ANY
TestParameter, Measurement.PostOutput.Retention, OFF
TestParameter, Measurement.Bias.Source, 2, 1.5, 0.1, 0
TestParameter, Measurement.Bias.Compliance, 0.1, 0.1, 0.1, 0.1
TestParameter, Measurement.Pulse.Period, 
TestParameter, Measurement.Pulse.MeasurementDelay, 0
TestParameter, Measurement.Pulse.AveragingCount, 1
TestParameter, Measurement.Monitor.Unit, SMU4:HR, SMU2:HR, SMU1:HR, SMU3:HR
TestParameter, Measurement.Monitor.Adc, HR ADC, HR ADC, HR ADC, HR ADC
TestParameter, Measurement.Monitor.Measurement, Compliance Side, Compliance Side, Compliance Side, Compliance Side
TestParameter, Measurement.Monitor.RangingMode, LIMITED, LIMITED, LIMITED, LIMITED
TestParameter, Measurement.Monitor.RangeBoundary, 1nA, 1nA, 1nA, 1nA
TestParameter, Measurement.Monitor.RangeRating, BY FULL RANGE, BY FULL RANGE, BY FULL RANGE, BY FULL RANGE
TestParameter, Measurement.Monitor.RangeRatingCoeff, 50, 50, 50, 50
TestParameter, Measurement.Timing.Hold, 0
TestParameter, Measurement.Timing.Delay
TestParameter, Measurement.Adc.HighSpeed.Mode, PLC
TestParameter, Measurement.Adc.HighSpeed.Coeff, 10
TestParameter, Measurement.Adc.HighResolution.AutoZero, OFF
TestParameter, Measurement.Adc.HighResolution.Mode, PLC
TestParameter, Measurement.Adc.HighResolution.Coeff, 10
TestParameter, Measurement.WaitTime.Source.Coeff, 1
TestParameter, Measurement.WaitTime.Source.Offset, 0
TestParameter, Measurement.WaitTime.Monitor.Coeff, 1
TestParameter, Measurement.WaitTime.Monitor.Offset, 0
TestParameter, Output.Graph.Enabled, true
TestParameter, Output.Graph.AutoScaling, false
TestParameter, Output.Graph.XAxis.Data, time
TestParameter, Output.Graph.XAxis.Scale, Linear
TestParameter, Output.Graph.XAxis.Left, 0
TestParameter, Output.Graph.XAxis.Right, 500
TestParameter, Output.Graph.XAxis.RunTimeAutoScale, true
TestParameter, Output.Graph.YAxis.Data, ID_READ, ID_READ
TestParameter, Output.Graph.YAxis.Scale, Log, Linear
TestParameter, Output.Graph.YAxis.Bottom, 0, 0
TestParameter, Output.Graph.YAxis.Top, 0.1, 0.1
TestParameter, Output.Graph.YAxis.Group, , 
TestParameter, Output.Graph.YAxis.RunTimeAutoScale, false, true
TestParameter, Output.List.Data, VD_PGM, VG_PGM, VD_READ, VS_READ, time, ID_PGM, IG_PGM, ID_READ, IS_READ
TestParameter, AutoAnalysis.Interpolation, false
TestParameter, AutoAnalysis.Var2StepCount, 1
TestParameter, AutoAnalysis.Var2StepScript, 
TestParameter, AutoAnalysis.Line1.Enabled, false
TestParameter, AutoAnalysis.Line1.Type, 1
TestParameter, AutoAnalysis.Line1.Fix, True
TestParameter, AutoAnalysis.Line1.YAxis, 0
TestParameter, AutoAnalysis.Line1.Point1.Type, 0
TestParameter, AutoAnalysis.Line1.Point1.XY.X, 
TestParameter, AutoAnalysis.Line1.Point1.XY.Y, 
TestParameter, AutoAnalysis.Line1.Point1.Data.Var, 
TestParameter, AutoAnalysis.Line1.Point1.Data.Condition, 
TestParameter, AutoAnalysis.Line1.Point1.Data.Start, false
TestParameter, AutoAnalysis.Line1.Point1.Data.StartVar, 
TestParameter, AutoAnalysis.Line1.Point1.Data.StartCondition, 
TestParameter, AutoAnalysis.Line1.Point2.Type, 0
TestParameter, AutoAnalysis.Line1.Point2.XY.X, 
TestParameter, AutoAnalysis.Line1.Point2.XY.Y, 
TestParameter, AutoAnalysis.Line1.Point2.Data.Var, 
TestParameter, AutoAnalysis.Line1.Point2.Data.Condition, 
TestParameter, AutoAnalysis.Line1.Point2.Data.Start, false
TestParameter, AutoAnalysis.Line1.Point2.Data.StartVar, 
TestParameter, AutoAnalysis.Line1.Point2.Data.StartCondition, 
TestParameter, AutoAnalysis.Line1.GradientExpr, 0
TestParameter, AutoAnalysis.Line2.Enabled, false
TestParameter, AutoAnalysis.Line2.Type, 1
TestParameter, AutoAnalysis.Line2.Fix, True
TestParameter, AutoAnalysis.Line2.YAxis, 0
TestParameter, AutoAnalysis.Line2.Point1.Type, 0
TestParameter, AutoAnalysis.Line2.Point1.XY.X, 
TestParameter, AutoAnalysis.Line2.Point1.XY.Y, 
TestParameter, AutoAnalysis.Line2.Point1.Data.Var, 
TestParameter, AutoAnalysis.Line2.Point1.Data.Condition, 
TestParameter, AutoAnalysis.Line2.Point1.Data.Start, false
TestParameter, AutoAnalysis.Line2.Point1.Data.StartVar, 
TestParameter, AutoAnalysis.Line2.Point1.Data.StartCondition, 
TestParameter, AutoAnalysis.Line2.Point2.Type, 0
TestParameter, AutoAnalysis.Line2.Point2.XY.X, 
TestParameter, AutoAnalysis.Line2.Point2.XY.Y, 
TestParameter, AutoAnalysis.Line2.Point2.Data.Var, 
TestParameter, AutoAnalysis.Line2.Point2.Data.Condition, 
TestParameter, AutoAnalysis.Line2.Point2.Data.Start, false
TestParameter, AutoAnalysis.Line2.Point2.Data.StartVar, 
TestParameter, AutoAnalysis.Line2.Point2.Data.StartCondition, 
TestParameter, AutoAnalysis.Line2.GradientExpr, 0
TestParameter, AutoAnalysis.Marker.Enabled, false
TestParameter, AutoAnalysis.Marker.Data.Var, 
TestParameter, AutoAnalysis.Marker.Data.Condition, 
TestParameter, AutoAnalysis.Marker.Data.Start, false
TestParameter, AutoAnalysis.Marker.Data.StartVar, 
TestParameter, AutoAnalysis.Marker.Data.StartCondition, 
MetaData, TestRecord.EntryPoint, true
MetaData, TestRecord.RecordTime, 12/24/2025 13:02:44
MetaData, TestRecord.TestTarget, IGZO_ALD_#1_2T1C_LIST_SWEEP_R0C1
MetaData, TestRecord.IterationIndex, 3
MetaData, TestRecord.Preservation, true
MetaData, TestRecord.Flag, 
MetaData, TestRecord.Remarks, 
MetaData, TestRecord.LinkKey, 3b499316-bb15-4ca4-aa17-2d95876ca478
MetaData, TestRecord.Parameters, 
Dimension1, 200, 200, 200, 200, 200, 200, 200, 200, 200
Dimension2, 1, 1, 1, 1, 1, 1, 1, 1, 1
DataName, VG_PGM, VD_PGM, VD_READ, VS_READ, time, ID_PGM, IG_PGM, ID_READ, IS_READ
DataValue, 2, 1.5, 0.1, 0, 0.094230000000000008, 8.0900000000000009E-13, -2.4000000000000002E-14, 1.2187E-06, -1.21643E-06
DataValue, 2, 1.5, 0.1, 0, 1.06203, 9.3000000000000008E-14, -4.0000000000000006E-14, 1.2082300000000001E-06, -1.2071200000000002E-06
DataValue, 2, 1.5, 0.1, 0, 1.9741400000000002, 6.1E-14, -1.0000000000000002E-14, 1.201E-06, -1.2001900000000001E-06
DataValue, 2, 1.5, 0.1, 0, 2.88627, -7E-15, -1.8000000000000002E-14, 1.19514E-06, -1.19449E-06
DataValue, 2, 1.5, 0.1, 0, 3.7983400000000005, 2.0000000000000003E-14, -1.6E-14, 1.19017E-06, -1.18964E-06
DataValue, -2, 1.5, 0.1, 0, 4.71049, -4E-15, -8.5E-14, 1.1532600000000002E-06, -1.1527200000000001E-06
DataValue, -2, 1.5, 0.1, 0, 5.62263, -2.2E-14, -4.4E-14, 1.14885E-06, -1.1484100000000002E-06
DataValue, -2, 1.5, 0.1, 0, 6.5348000000000006, -3.2E-14, -3.1E-14, 1.14494E-06, -1.14454E-06
DataValue, -2, 1.5, 0.1, 0, 7.44739, -2.0000000000000003E-14, -4.2000000000000004E-14, 1.14124E-06, -1.14089E-06
DataValue, -2, 1.5, 0.1, 0, 8.3595800000000011, -1.4E-14, -3.1E-14, 1.13776E-06, -1.1374800000000002E-06
DataValue, -2, 0, 0.1, 0, 9.2747800000000016, -8.1000000000000008E-14, -4.0000000000000006E-14, 1.13465E-06, -1.13436E-06
DataValue, -2, 0, 0.1, 0, 10.186850000000002, -3.4E-14, -2.7000000000000002E-14, 1.1316700000000001E-06, -1.1314400000000001E-06
DataValue, -2, 0, 0.1, 0, 11.09891, -4.6000000000000006E-14, -1.7E-14, 1.1288100000000002E-06, -1.1286100000000002E-06
DataValue, -2, 0, 0.1, 0, 12.010700000000002, -1.9E-14, -3.1E-14, 1.12616E-06, -1.1259400000000001E-06
DataValue, -2, 0, 0.1, 0, 12.922690000000001, -2.2E-14, -2.5E-14, 1.12359E-06, -1.12342E-06
DataValue, -2, 0, 0.1, 0, 13.834670000000001, -4.0000000000000006E-14, -4.3000000000000006E-14, 1.12118E-06, -1.1210100000000002E-06
DataValue, -2, 0, 0.1, 0, 14.746670000000002, -3.1E-14, -1.8000000000000002E-14, 1.11884E-06, -1.1187000000000002E-06
DataValue, -2, 0, 0.1, 0, 15.658470000000001, -3.9000000000000004E-14, -3.1E-14, 1.1166E-06, -1.1164800000000001E-06
DataValue, -2, 0, 0.1, 0, 16.57055, -3.0000000000000005E-14, -3.2E-14, 1.1144E-06, -1.1143E-06
DataValue, -2, 0, 0.1, 0, 17.48264, -2.7000000000000002E-14, -4.5000000000000004E-14, 1.1123100000000002E-06, -1.11225E-06
DataValue, -2, 0, 0.1, 0, 18.394440000000003, -2.2E-14, -1.6E-14, 1.1103200000000001E-06, -1.11025E-06
DataValue, -2, 0, 0.1, 0, 19.30656, -4.3000000000000006E-14, -3.8E-14, 1.1083800000000001E-06, -1.10833E-06
DataValue, -2, 0, 0.1, 0, 20.218580000000003, -3.4E-14, -3.8E-14, 1.10653E-06, -1.10649E-06
DataValue, -2, 0, 0.1, 0, 21.130560000000003, -7E-15, -2.1000000000000002E-14, 1.10468E-06, -1.10464E-06
DataValue, -2, 0, 0.1, 0, 22.042650000000002, -2.1000000000000002E-14, -3.2E-14, 1.1028900000000002E-06, -1.1028800000000002E-06
DataValue, -2, 0, 0.1, 0, 22.954720000000002, -1.7E-14, -3.8E-14, 1.1011300000000001E-06, -1.1011300000000001E-06
DataValue, -2, 0, 0.1, 0, 23.86643, -4.8000000000000004E-14, -2.6000000000000003E-14, 1.09951E-06, -1.09948E-06
DataValue, -2, 0, 0.1, 0, 24.77852, -1.5000000000000002E-14, -2.2E-14, 1.09789E-06, -1.0978800000000002E-06
DataValue, -2, 0, 0.1, 0, 25.69047, -4.0000000000000006E-14, -3.3000000000000005E-14, 1.09628E-06, -1.09628E-06
DataValue, -2, 0, 0.1, 0, 26.602220000000003, -2.0000000000000003E-14, -1.6E-14, 1.0947200000000002E-06, -1.0946800000000002E-06
DataValue, -2, 0, 0.1, 0, 27.51424, -2.5E-14, -2.0000000000000003E-14, 1.09318E-06, -1.0931600000000001E-06
DataValue, -2, 0, 0.1, 0, 28.426070000000003, -1.5000000000000002E-14, -3.2E-14, 1.0917E-06, -1.0916900000000002E-06
DataValue, -2, 0, 0.1, 0, 29.337850000000003, -3.9000000000000004E-14, -2.1000000000000002E-14, 1.0902900000000001E-06, -1.09031E-06
DataValue, -2, 0, 0.1, 0, 30.249940000000002, -3.0000000000000005E-14, -4.4E-14, 1.0888100000000001E-06, -1.0888200000000002E-06
DataValue, -2, 0, 0.1, 0, 31.162110000000002, -3.2E-14, -3.3000000000000005E-14, 1.0874400000000002E-06, -1.0874400000000002E-06
DataValue, -2, 0, 0.1, 0, 32.07416, -1.4E-14, -4.9000000000000006E-14, 1.0860400000000001E-06, -1.08607E-06
DataValue, -2, 0, 0.1, 0, 32.986200000000004, -5.5000000000000005E-14, -3.0000000000000005E-14, 1.08478E-06, -1.0847700000000002E-06
DataValue, -2, 0, 0.1, 0, 33.89822, -4.6000000000000006E-14, -3.4E-14, 1.0834800000000002E-06, -1.0835100000000002E-06
DataValue, -2, 0, 0.1, 0, 34.81025, -3.5E-14, -4.1E-14, 1.0821900000000001E-06, -1.08221E-06
DataValue, -2, 0, 0.1, 0, 35.72229, -3.7E-14, -5.1000000000000004E-14, 1.0809700000000001E-06, -1.0809700000000001E-06
DataValue, -2, 0, 0.1, 0, 36.634060000000005, -3.0000000000000005E-14, -1.5000000000000002E-14, 1.0796900000000002E-06, -1.07974E-06
DataValue, -2, 0, 0.1, 0, 37.54581, -1.9E-14, -1.0000000000000002E-14, 1.07849E-06, -1.0785000000000001E-06
DataValue, -2, 0, 0.1, 0, 38.457600000000006, -3.9000000000000004E-14, -3.8E-14, 1.07734E-06, -1.0773900000000002E-06
DataValue, -2, 0, 0.1, 0, 39.369350000000004, -2.9E-14, -1.2000000000000001E-14, 1.0761300000000002E-06, -1.0761900000000001E-06
DataValue, -2, 0, 0.1, 0, 40.28117, -3.1E-14, -2.7000000000000002E-14, 1.0750100000000002E-06, -1.07506E-06
DataValue, -2, 0, 0.1, 0, 41.193090000000005, -4.5000000000000004E-14, -2.1000000000000002E-14, 1.07387E-06, -1.07394E-06
DataValue, -2, 0, 0.1, 0, 42.105120000000007, -4.4E-14, -3.4E-14, 1.07275E-06, -1.07285E-06
DataValue, -2, 0, 0.1, 0, 43.017120000000006, -6.0000000000000005E-15, -3.4E-14, 1.07161E-06, -1.0716500000000002E-06
DataValue, -2, 0, 0.1, 0, 43.929100000000005, -3.2E-14, -2.9E-14, 1.0705600000000001E-06, -1.07064E-06
DataValue, -2, 0, 0.1, 0, 44.84125, -2.0000000000000003E-14, -3.0000000000000002E-15, 1.06946E-06, -1.06956E-06
DataValue, -2, 0, 0.1, 0, 45.753040000000006, -6.3000000000000009E-14, -3.6000000000000004E-14, 1.06838E-06, -1.06847E-06
DataValue, -2, 0, 0.1, 0, 46.664970000000004, -3.5E-14, -3.8E-14, 1.0673400000000002E-06, -1.0674300000000001E-06
DataValue, -2, 0, 0.1, 0, 47.577020000000005, -1.7E-14, -4.2000000000000004E-14, 1.0662900000000002E-06, -1.06636E-06
DataValue, -2, 0, 0.1, 0, 48.48877, -3.8E-14, -1.0000000000000002E-14, 1.0652600000000002E-06, -1.06534E-06
DataValue, -2, 0, 0.1, 0, 49.40091, -1.6E-14, -3.0000000000000005E-14, 1.0642800000000002E-06, -1.0643300000000001E-06
DataValue, -2, 0, 0.1, 0, 50.31302, -4.0000000000000006E-14, -2.2E-14, 1.0633100000000001E-06, -1.06336E-06
DataValue, -2, 0, 0.1, 0, 51.2248, -4.4E-14, -4.0000000000000006E-14, 1.0622600000000001E-06, -1.06237E-06
DataValue, -2, 0, 0.1, 0, 52.136540000000004, -3.8E-14, -3.4E-14, 1.0613100000000002E-06, -1.0613700000000001E-06
DataValue, -2, 0, 0.1, 0, 53.048280000000005, -6.7E-14, -2.3000000000000003E-14, 1.06033E-06, -1.0603800000000001E-06
DataValue, -2, 0, 0.1, 0, 53.960310000000007, -4.9000000000000006E-14, -2.0000000000000003E-14, 1.0593600000000001E-06, -1.0594600000000001E-06
DataValue, -2, 0, 0.1, 0, 54.872490000000006, -3.6000000000000004E-14, -2.8E-14, 1.0583800000000002E-06, -1.0584700000000001E-06
DataValue, -2, 0, 0.1, 0, 55.78428, -4.0000000000000006E-14, -1.3000000000000001E-14, 1.05741E-06, -1.0575500000000002E-06
DataValue, -2, 0, 0.1, 0, 56.69637, -3.1E-14, -1.2000000000000001E-14, 1.0565600000000001E-06, -1.0566700000000002E-06
DataValue, -2, 0, 0.1, 0, 57.608340000000005, -5.4000000000000003E-14, -4.6000000000000006E-14, 1.0556400000000002E-06, -1.0557700000000001E-06
DataValue, -2, 0, 0.1, 0, 58.52038, -4.5000000000000004E-14, -3.3000000000000005E-14, 1.05473E-06, -1.05486E-06
DataValue, -2, 0, 0.1, 0, 59.432510000000008, -5E-14, -4.4E-14, 1.0538600000000002E-06, -1.0540300000000002E-06
DataValue, -2, 0, 0.1, 0, 60.344240000000006, -4.1E-14, -4.3000000000000006E-14, 1.05296E-06, -1.0531300000000001E-06
DataValue, -2, 0, 0.1, 0, 61.256020000000007, -5.2000000000000006E-14, -4.0000000000000006E-14, 1.05206E-06, -1.0522200000000002E-06
DataValue, -2, 0, 0.1, 0, 62.16803, -2.0000000000000003E-14, -3.3000000000000005E-14, 1.0512200000000001E-06, -1.0514E-06
DataValue, -2, 0, 0.1, 0, 63.079870000000007, -4.9000000000000006E-14, -3.0000000000000005E-14, 1.0504000000000001E-06, -1.05052E-06
DataValue, -2, 0, 0.1, 0, 63.991740000000007, -1.7E-14, -2.7000000000000002E-14, 1.0495400000000001E-06, -1.04969E-06
DataValue, -2, 0, 0.1, 0, 64.90347, -2.3000000000000003E-14, -2.7000000000000002E-14, 1.0486900000000002E-06, -1.04883E-06
DataValue, -2, 0, 0.1, 0, 65.8155, -3.1E-14, -1.2000000000000001E-14, 1.0478700000000002E-06, -1.04801E-06
DataValue, -2, 0, 0.1, 0, 66.72762, -5.3E-14, -3.7E-14, 1.04706E-06, -1.0472000000000001E-06
DataValue, -2, 0, 0.1, 0, 67.63966, -2.9E-14, -5.0000000000000008E-15, 1.0462500000000002E-06, -1.0463900000000002E-06
DataValue, -2, 0, 0.1, 0, 68.55177, -7.8000000000000008E-14, -2.2E-14, 1.04545E-06, -1.0456300000000002E-06
DataValue, -2, 0, 0.1, 0, 69.4636, -4.2000000000000004E-14, -2.1000000000000002E-14, 1.0446400000000002E-06, -1.04476E-06
DataValue, -2, 0, 0.1, 0, 70.37531, -2.8E-14, -5E-14, 1.0438500000000002E-06, -1.044E-06
DataValue, -2, 0, 0.1, 0, 71.28726, -3.2E-14, -3.7E-14, 1.0430300000000002E-06, -1.0431500000000001E-06
DataValue, -2, 0, 0.1, 0, 72.19925, -5.4000000000000003E-14, -2.5E-14, 1.0422400000000002E-06, -1.04238E-06
DataValue, -2, 0, 0.1, 0, 73.11126, -6.3000000000000009E-14, -3.9000000000000004E-14, 1.04149E-06, -1.0416400000000002E-06
DataValue, -2, 0, 0.1, 0, 74.02342, -4.0000000000000006E-14, -3.1E-14, 1.0407800000000001E-06, -1.0409100000000001E-06
DataValue, -2, 0, 0.1, 0, 74.93514, -3.9000000000000004E-14, -1.2000000000000001E-14, 1.0399900000000001E-06, -1.0401600000000002E-06
DataValue, -2, 0, 0.1, 0, 75.846970000000013, -6.3000000000000009E-14, -3.6000000000000004E-14, 1.03928E-06, -1.0394700000000002E-06
DataValue, -2, 0, 0.1, 0, 76.75873, -6.0000000000000009E-14, -3.7E-14, 1.03856E-06, -1.03875E-06
DataValue, -2, 0, 0.1, 0, 77.67086, -3.9000000000000004E-14, -3.9000000000000004E-14, 1.03777E-06, -1.03794E-06
DataValue, -2, 0, 0.1, 0, 78.582940000000008, -6.0000000000000009E-14, -2.3000000000000003E-14, 1.03708E-06, -1.0372300000000002E-06
DataValue, -2, 0, 0.1, 0, 79.494700000000009, -6.4E-14, -4.0000000000000006E-14, 1.03635E-06, -1.0365400000000002E-06
DataValue, -2, 0, 0.1, 0, 80.40675, -1.0000000000000002E-14, -5.700000000000001E-14, 1.0356400000000001E-06, -1.0358100000000002E-06
DataValue, -2, 0, 0.1, 0, 81.31878, -5.1000000000000004E-14, -3.4E-14, 1.03491E-06, -1.03513E-06
DataValue, -2, 0, 0.1, 0, 82.23077, -4.1E-14, -2.4000000000000002E-14, 1.0342300000000002E-06, -1.03441E-06
DataValue, -2, 0, 0.1, 0, 83.14276000000001, -4.4E-14, -3.6000000000000004E-14, 1.03352E-06, -1.03372E-06
DataValue, -2, 0, 0.1, 0, 84.054880000000011, -3.0000000000000005E-14, -1.3000000000000001E-14, 1.0328400000000001E-06, -1.03303E-06
DataValue, -2, 0, 0.1, 0, 84.96665, -4.0000000000000006E-14, -3.4E-14, 1.03217E-06, -1.03233E-06
DataValue, -2, 0, 0.1, 0, 85.87842, -2.9E-14, -1.7E-14, 1.03145E-06, -1.0316300000000002E-06
DataValue, -2, 0, 0.1, 0, 86.79018, -6.0000000000000009E-14, -3.2E-14, 1.0308000000000002E-06, -1.03095E-06
DataValue, -2, 0, 0.1, 0, 87.70225, -5.2000000000000006E-14, -2.7000000000000002E-14, 1.0301400000000001E-06, -1.03032E-06
DataValue, -2, 0, 0.1, 0, 88.613940000000014, -2.7000000000000002E-14, -4.2000000000000004E-14, 1.0294500000000002E-06, -1.02963E-06
DataValue, -2, 0, 0.1, 0, 89.526100000000014, -2.9E-14, -2.1000000000000002E-14, 1.02881E-06, -1.0290300000000002E-06
DataValue, -2, 0, 0.1, 0, 90.438210000000012, -6.5E-14, -4.1E-14, 1.0282300000000002E-06, -1.0283900000000001E-06
DataValue, -2, 0, 0.1, 0, 91.35222, -6.2E-14, -3.0000000000000005E-14, 1.0275700000000001E-06, -1.02768E-06
DataValue, -2, 0, 0.1, 0, 92.26424, -4.3000000000000006E-14, -2.9E-14, 1.02689E-06, -1.0270200000000002E-06
DataValue, -2, 0, 0.1, 0, 93.17598000000001, -4.1E-14, -4.7E-14, 1.02621E-06, -1.02634E-06
DataValue, -2, 0, 0.1, 0, 94.08776, -3.9000000000000004E-14, -3.5E-14, 1.0256000000000002E-06, -1.02574E-06
DataValue, -2, 0, 0.1, 0, 94.999760000000009, -4.5000000000000004E-14, -4.9000000000000006E-14, 1.0249000000000001E-06, -1.0250700000000002E-06
DataValue, -2, 0, 0.1, 0, 95.91177, -4.0000000000000006E-14, -3.4E-14, 1.02426E-06, -1.02442E-06
DataValue, -2, 0, 0.1, 0, 96.82353, -4.4E-14, -2.6000000000000003E-14, 1.0236600000000002E-06, -1.0238100000000001E-06
DataValue, -2, 0, 0.1, 0, 97.73555, -5.700000000000001E-14, -5.6E-14, 1.0230200000000001E-06, -1.0231600000000002E-06
DataValue, -2, 0, 0.1, 0, 98.647340000000014, -5.1000000000000004E-14, -3.6000000000000004E-14, 1.02241E-06, -1.0225700000000002E-06
DataValue, -2, 0, 0.1, 0, 99.559170000000009, -6.0000000000000009E-14, -3.7E-14, 1.02179E-06, -1.02192E-06
DataValue, -2, 0, 0.1, 0, 100.47094000000001, -6.0000000000000009E-14, -4.9000000000000006E-14, 1.0211800000000002E-06, -1.0213400000000001E-06
DataValue, -2, 0, 0.1, 0, 101.38308, -5.4000000000000003E-14, -3.0000000000000005E-14, 1.02057E-06, -1.02074E-06
DataValue, -2, 0, 0.1, 0, 102.29518, -5.3E-14, -3.2E-14, 1.01992E-06, -1.0201200000000001E-06
DataValue, -2, 0, 0.1, 0, 103.20695, -5.2000000000000006E-14, -5E-14, 1.01936E-06, -1.0195400000000002E-06
DataValue, -2, 0, 0.1, 0, 104.11876000000001, -6.0000000000000009E-14, -4.2000000000000004E-14, 1.01876E-06, -1.0189100000000002E-06
DataValue, -2, 0, 0.1, 0, 105.03047000000001, -7.3E-14, -4.9000000000000006E-14, 1.01814E-06, -1.01836E-06
DataValue, -2, 0, 0.1, 0, 105.94249, -3.3000000000000005E-14, -3.3000000000000005E-14, 1.01761E-06, -1.01777E-06
