
SetupTitle, I/V Sweep - Unit (transfer)
PrimitiveTest, I/V Sweep
TestParameter, Context.MainFrame, B1500A
TestParameter, Channel.UnitType, SMU, SMU, SMU
TestParameter, Channel.Unit, SMU3:HR, SMU1:HR, SMU2:HR
TestParameter, Channel.IName, IG, ID, IS
TestParameter, Channel.VName, VG, VD, VS
TestParameter, Channel.Mode, V, V, COMMON
TestParameter, Channel.Func, VAR1, VAR2, CONST
TestParameter, Channel.Index, 
TestParameter, Channel.Time, 
TestParameter, Measurement.Port.Unit, SMU3:HR, SMU1:HR, SMU2:HR
TestParameter, Measurement.Port.SeriesResistor, NONE, NONE, NONE
TestParameter, Measurement.Port.Filter, ON, ON, ON
TestParameter, Measurement.Port.OutputVoltageComparison, 0, 0, 0
TestParameter, Measurement.Primary.Locus, Single
TestParameter, Measurement.Primary.Scale, LINEAR
TestParameter, Measurement.Primary.Start, -3
TestParameter, Measurement.Primary.Stop, 3
TestParameter, Measurement.Primary.Step, 0.06
TestParameter, Measurement.Primary.Compliance, 0.1
TestParameter, Measurement.Primary.PowerCompliance, 0
TestParameter, Measurement.Aborting.Condition, CONTINUE AT ANY
TestParameter, Measurement.PostOutput.Value, START
TestParameter, Measurement.PostOutput.Retention, OFF
TestParameter, Measurement.Secondary.Start, 0.1
TestParameter, Measurement.Secondary.Count, 5
TestParameter, Measurement.Secondary.Step, 0.70000000000000007
TestParameter, Measurement.Secondary.Compliance, 0.1
TestParameter, Measurement.Secondary.PowerCompliance, 0
TestParameter, Measurement.Bias.Source, -3, 0.1, 0
TestParameter, Measurement.Bias.Compliance, 0.1, 0.1, 0.1
TestParameter, Measurement.Monitor.Unit, SMU3:HR, SMU1:HR, SMU2:HR
TestParameter, Measurement.Monitor.Adc, HR ADC, HR ADC, HR ADC
TestParameter, Measurement.Monitor.Measurement, Compliance Side, Compliance Side, Compliance Side
TestParameter, Measurement.Monitor.RangingMode, LIMITED, LIMITED, LIMITED
TestParameter, Measurement.Monitor.RangeBoundary, 1nA, 1nA, 1nA
TestParameter, Measurement.Monitor.RangeRating, BY FULL RANGE, BY FULL RANGE, BY FULL RANGE
TestParameter, Measurement.Monitor.RangeRatingCoeff, 50, 50, 50
TestParameter, Measurement.Timing.Hold, 0
TestParameter, Measurement.Timing.Delay, 0
TestParameter, Measurement.Adc.HighSpeed.Mode, PLC
TestParameter, Measurement.Adc.HighSpeed.Coeff, 5
TestParameter, Measurement.Adc.HighResolution.AutoZero, OFF
TestParameter, Measurement.Adc.HighResolution.Mode, PLC
TestParameter, Measurement.Adc.HighResolution.Coeff, 5
TestParameter, Measurement.WaitTime.Source.Coeff, 1
TestParameter, Measurement.WaitTime.Source.Offset, 0
TestParameter, Measurement.WaitTime.Monitor.Coeff, 1
TestParameter, Measurement.WaitTime.Monitor.Offset, 0
TestParameter, Function.User.Name, SS
TestParameter, Function.User.Unit, mV/dec
TestParameter, Function.User.Definition, diff(VG,log(ID))*1000
TestParameter, Output.Graph.Enabled, true
TestParameter, Output.Graph.AutoScaling, false
TestParameter, Output.Graph.XAxis.Data, VG
TestParameter, Output.Graph.XAxis.Scale, Linear
TestParameter, Output.Graph.XAxis.Left, -3
TestParameter, Output.Graph.XAxis.Right, 3
TestParameter, Output.Graph.XAxis.RunTimeAutoScale, true
TestParameter, Output.Graph.YAxis.Data, ID, IG
TestParameter, Output.Graph.YAxis.Scale, Log, Log
TestParameter, Output.Graph.YAxis.Bottom, 0, 1E-15
TestParameter, Output.Graph.YAxis.Top, 0.0001, 1E-12
TestParameter, Output.Graph.YAxis.Group, , 
TestParameter, Output.Graph.YAxis.RunTimeAutoScale, true, true
TestParameter, Output.List.Data, VG, VD, VS, IG, ID, IS, SS
TestParameter, Output.Scalar.Data, SS
TestParameter, AutoAnalysis.Interpolation, false
TestParameter, AutoAnalysis.Var2StepCount, 1
TestParameter, AutoAnalysis.Var2StepScript, 
TestParameter, AutoAnalysis.Line1.Enabled, false
TestParameter, AutoAnalysis.Line1.Type, 1
TestParameter, AutoAnalysis.Line1.Fix, True
TestParameter, AutoAnalysis.Line1.YAxis, 0
TestParameter, AutoAnalysis.Line1.Point1.Type, 0
TestParameter, AutoAnalysis.Line1.Point1.XY.X, 
TestParameter, AutoAnalysis.Line1.Point1.XY.Y, 
TestParameter, AutoAnalysis.Line1.Point1.Data.Var, 
TestParameter, AutoAnalysis.Line1.Point1.Data.Condition, 
TestParameter, AutoAnalysis.Line1.Point1.Data.Start, false
TestParameter, AutoAnalysis.Line1.Point1.Data.StartVar, 
TestParameter, AutoAnalysis.Line1.Point1.Data.StartCondition, 
TestParameter, AutoAnalysis.Line1.Point2.Type, 0
TestParameter, AutoAnalysis.Line1.Point2.XY.X, 
TestParameter, AutoAnalysis.Line1.Point2.XY.Y, 
TestParameter, AutoAnalysis.Line1.Point2.Data.Var, 
TestParameter, AutoAnalysis.Line1.Point2.Data.Condition, 
TestParameter, AutoAnalysis.Line1.Point2.Data.Start, false
TestParameter, AutoAnalysis.Line1.Point2.Data.StartVar, 
TestParameter, AutoAnalysis.Line1.Point2.Data.StartCondition, 
TestParameter, AutoAnalysis.Line1.GradientExpr, 0
TestParameter, AutoAnalysis.Line2.Enabled, false
TestParameter, AutoAnalysis.Line2.Type, 1
TestParameter, AutoAnalysis.Line2.Fix, True
TestParameter, AutoAnalysis.Line2.YAxis, 0
TestParameter, AutoAnalysis.Line2.Point1.Type, 0
TestParameter, AutoAnalysis.Line2.Point1.XY.X, 
TestParameter, AutoAnalysis.Line2.Point1.XY.Y, 
TestParameter, AutoAnalysis.Line2.Point1.Data.Var, 
TestParameter, AutoAnalysis.Line2.Point1.Data.Condition, 
TestParameter, AutoAnalysis.Line2.Point1.Data.Start, false
TestParameter, AutoAnalysis.Line2.Point1.Data.StartVar, 
TestParameter, AutoAnalysis.Line2.Point1.Data.StartCondition, 
TestParameter, AutoAnalysis.Line2.Point2.Type, 0
TestParameter, AutoAnalysis.Line2.Point2.XY.X, 
TestParameter, AutoAnalysis.Line2.Point2.XY.Y, 
TestParameter, AutoAnalysis.Line2.Point2.Data.Var, 
TestParameter, AutoAnalysis.Line2.Point2.Data.Condition, 
TestParameter, AutoAnalysis.Line2.Point2.Data.Start, false
TestParameter, AutoAnalysis.Line2.Point2.Data.StartVar, 
TestParameter, AutoAnalysis.Line2.Point2.Data.StartCondition, 
TestParameter, AutoAnalysis.Line2.GradientExpr, 0
TestParameter, AutoAnalysis.Marker.Enabled, false
TestParameter, AutoAnalysis.Marker.Data.Var, 
TestParameter, AutoAnalysis.Marker.Data.Condition, 
TestParameter, AutoAnalysis.Marker.Data.Start, false
TestParameter, AutoAnalysis.Marker.Data.StartVar, 
TestParameter, AutoAnalysis.Marker.Data.StartCondition, 
MetaData, TestRecord.EntryPoint, true
MetaData, TestRecord.RecordTime, 01/16/2026 10:51:19
MetaData, TestRecord.TestTarget, 251203_ALD_#8_R00
MetaData, TestRecord.IterationIndex, 9
MetaData, TestRecord.Preservation, true
MetaData, TestRecord.Flag, 
MetaData, TestRecord.Remarks, 
MetaData, TestRecord.LinkKey, 1ea6a39e-2834-473c-a730-396e7a9f7290
MetaData, TestRecord.Parameters, 
Dimension1, 101, 101, 101, 101, 101, 101, 101
Dimension2, 5, 5, 5, 5, 5, 5, 5
DataName, VG, VD, VS, IG, ID, IS, SS
DataValue, -3, 0.1, 0, -1.7400000000000002E-13, -2.1000000000000002E-14, -8.1000000000000008E-14, 37.963862028067865
DataValue, -2.94, 0.1, 0, -5.3E-14, -1.0200000000000001E-13, -4.8000000000000004E-14, 100.87559453898362
DataValue, -2.88, 0.1, 0, -8.6000000000000012E-14, -6.9000000000000009E-14, -4.9000000000000006E-14, -880.17551927790214
DataValue, -2.82, 0.1, 0, -8.0000000000000013E-14, -8.9000000000000012E-14, -9.3000000000000008E-14, -156.17463723790419
DataValue, -2.7600000000000002, 0.1, 0, -8.2E-14, -3.2E-14, -6.7E-14, -422.6189160909986
DataValue, -2.7, 0.1, 0, -9.4E-14, -6.7E-14, -6.8E-14, 125.9043202398146
DataValue, -2.64, 0.1, 0, -6.4E-14, -8.3000000000000012E-14, -6.1E-14, 4079.7058653893796
DataValue, -2.58, 0.1, 0, -8.3000000000000012E-14, -6.9000000000000009E-14, -5.8E-14, -117.9195192561
DataValue, -2.52, 0.1, 0, -9.3000000000000008E-14, -3.0000000000000005E-14, -6.6000000000000009E-14, -266.71593758842761
DataValue, -2.46, 0.1, 0, -5.9E-14, -4.4E-14, -6.4E-14, 119.34101495460278
DataValue, -2.4, 0.1, 0, -8.8E-14, -8.2E-14, -5.8E-14, 409.07072053863368
DataValue, -2.34, 0.1, 0, -5.5000000000000005E-14, -5.9E-14, -5.3E-14, 
DataValue, -2.2800000000000002, 0.1, 0, -6.7E-14, -8.2E-14, -6.1E-14, -527.72805874390281
DataValue, -2.22, 0.1, 0, -8.1000000000000008E-14, -4.7E-14, -6.7E-14, -516.50229709709231
DataValue, -2.16, 0.1, 0, -6.8E-14, -6.5E-14, -6.9000000000000009E-14, -1349.1106424047569
DataValue, -2.1, 0.1, 0, -6.7E-14, -4.3000000000000006E-14, -7.6E-14, 767.52808497285514
DataValue, -2.04, 0.1, 0, -8.4000000000000008E-14, -7.6E-14, -2.4000000000000002E-14, 210.69885797409549
DataValue, -1.98, 0.1, 0, -8.3000000000000012E-14, -7.6E-14, -3.6000000000000004E-14, -392.95091953417796
DataValue, -1.92, 0.1, 0, -7.4E-14, -5.6E-14, -1.0100000000000001E-13, -173.12340490667586
DataValue, -1.86, 0.1, 0, -8.7000000000000008E-14, -3.8E-14, -2.1000000000000002E-14, 210.61197966289578
DataValue, -1.8, 0.1, 0, -3.3000000000000005E-14, -9.9000000000000007E-14, -3.3000000000000005E-14, 382.58284110238446
DataValue, -1.74, 0.1, 0, -3.4E-14, -5.2000000000000006E-14, -7.6E-14, -247.80793951608729
DataValue, -1.68, 0.1, 0, -4.4E-14, -6.1E-14, -5.3E-14, -417.12713961386078
DataValue, -1.62, 0.1, 0, -6.5E-14, -3.9000000000000004E-14, -7.1E-14, -853.59464333618632
DataValue, -1.56, 0.1, 0, -2E-15, -5.3E-14, -4.6000000000000006E-14, 136.40500177869211
DataValue, -1.5, 0.1, 0, -5.1000000000000004E-14, -9.4E-14, -4.1E-14, 431.33919586153166
DataValue, -1.44, 0.1, 0, -4.9000000000000006E-14, -7E-14, -7.6E-14, -140.44691854835321
DataValue, -1.3800000000000001, 0.1, 0, -8.1000000000000008E-14, -4.0000000000000006E-14, -5.8E-14, 4259.7182949566422
DataValue, -1.32, 0.1, 0, -6.9000000000000009E-14, -7.2000000000000009E-14, -3.9000000000000004E-14, 322.95955274021873
DataValue, -1.26, 0.1, 0, -7.3E-14, -5.8E-14, -7.5000000000000009E-14, -311.81318201059435
DataValue, -1.2, 0.1, 0, -5.2000000000000006E-14, -4.9000000000000006E-14, -2.1000000000000002E-14, 831.89133725360875
DataValue, -1.1400000000000001, 0.1, 0, -6.9000000000000009E-14, -6.7E-14, -5.1000000000000004E-14, -303.55713053592194
DataValue, -1.08, 0.1, 0, -4.1E-14, -3.3000000000000005E-14, -7.8000000000000008E-14, -831.89133725361035
DataValue, -1.02, 0.1, 0, -4.7E-14, -5.8E-14, -6.1E-14, 206.52982510335698
DataValue, -0.96, 0.1, 0, -6.5E-14, -5.9E-14, -7.9E-14, 359.27482805443486
DataValue, -0.9, 0.1, 0, -4.6000000000000006E-14, -8.1000000000000008E-14, -5.9E-14, -139.75237432238896
DataValue, -0.84, 0.1, 0, -9.0000000000000008E-14, -2.5E-14, -4.7E-14, -270.75480178758181
DataValue, -0.78, 0.1, 0, -1.0400000000000001E-13, -5.2000000000000006E-14, -5.1000000000000004E-14, 123.61207879470416
DataValue, -0.72, 0.1, 0, -7.9E-14, -6.6000000000000009E-14, -4.8000000000000004E-14, 340.11544830103105
DataValue, -0.66, 0.1, 0, -1.1E-14, -7.4E-14, -4.9000000000000006E-14, -60.227957861026724
DataValue, -0.6, 0.1, 0, -8.5E-14, -9.0000000000000011E-15, -5.3E-14, 946.7328222125401
DataValue, -0.54, 0.1, 0, -7.6E-14, -8.4000000000000008E-14, -6.7E-14, 60.693032723908722
DataValue, -0.48, 0.1, 0, -5.3E-14, -6.5E-14, -8.6000000000000012E-14, -567.88847993919842
DataValue, -0.42, 0.1, 0, -4.5000000000000004E-14, -6.8E-14, -7.3E-14, -7739.8449587566483
DataValue, -0.36, 0.1, 0, -6.7E-14, -6.4E-14, -5.9E-14, -754.41002341448041
DataValue, -0.3, 0.1, 0, -4.9000000000000006E-14, -5.8E-14, -7.2000000000000009E-14, 376.82083227134092
DataValue, -0.24, 0.1, 0, -4.7E-14, -8.8E-14, -7.2000000000000009E-14, -808.51634457481191
DataValue, -0.18, 0.1, 0, -5.1000000000000004E-14, -5E-14, -7.9E-14, -327.45465783146773
DataValue, -0.12, 0.1, 0, -7E-15, -6.1E-14, -1.18E-13, 72.118587577033935
DataValue, -0.06, 0.1, 0, -5.8E-14, 2.6400000000000004E-13, -3.9200000000000005E-13, 30.336372532844958
DataValue, 0, 0.1, 0, -4.5000000000000004E-14, 3.1860000000000004E-12, -3.2620000000000004E-12, 25.413813696031138
DataValue, 0.06, 0.1, 0, -3.2E-14, 2.9667E-11, -2.9628E-11, 27.633279053865667
DataValue, 0.12, 0.1, 0, -3.7E-14, 2.4502400000000003E-10, -2.43773E-10, 30.708288705484168
DataValue, 0.18, 0.1, 0, -5E-14, 1.47701E-09, -1.46717E-09, 37.755677250204357
DataValue, 0.24, 0.1, 0, -5.2000000000000006E-14, 5.8822E-09, -5.85745E-09, 50.594109570926577
DataValue, 0.3, 0.1, 0, -8E-15, 1.5828899999999997E-08, -1.57942E-08, 70.615145993728575
DataValue, 0.36, 0.1, 0, -6.7E-14, 3.2178E-08, -3.21325E-08, 96.834979754536491
DataValue, 0.42, 0.1, 0, -4.9000000000000006E-14, 5.4655999999999997E-08, -5.4599299999999994E-08, 127.46937788601335
DataValue, 0.48, 0.1, 0, -6.0000000000000005E-15, 8.2490699999999991E-08, -8.2430399999999986E-08, 160.82770000649475
DataValue, 0.54, 0.1, 0, -2.4000000000000002E-14, 1.15261E-07, -1.15203E-07, 195.75356009006683
DataValue, 0.6, 0.1, 0, -6.9000000000000009E-14, 1.52277E-07, -1.52226E-07, 231.891273019782
DataValue, 0.66, 0.1, 0, -4.9000000000000006E-14, 1.93385E-07, -1.93327E-07, 268.71773466728069
DataValue, 0.72, 0.1, 0, -1.7E-14, 2.3799899999999999E-07, -2.37939E-07, 306.45783764517233
DataValue, 0.78, 0.1, 0, -8.5E-14, 2.86075E-07, -2.86016E-07, 344.5569631643483
DataValue, 0.84, 0.1, 0, -7.9E-14, 3.37154E-07, -3.37096E-07, 383.59561754343417
DataValue, 0.9, 0.1, 0, -8.9000000000000012E-14, 3.91147E-07, -3.9107199999999997E-07, 422.85596649947371
DataValue, 0.96, 0.1, 0, -2.6000000000000003E-14, 4.4779E-07, -4.47694E-07, 462.7785530200336
DataValue, 1.02, 0.1, 0, -7.6E-14, 5.06937E-07, -5.06845E-07, 503.0905398046105
DataValue, 1.08, 0.1, 0, -2.9E-14, 5.68414E-07, -5.6833E-07, 544.67236539006365
DataValue, 1.1400000000000001, 0.1, 0, -6.3000000000000009E-14, 6.31882E-07, -6.31787E-07, 586.20789863444838
DataValue, 1.2, 0.1, 0, -6.1E-14, 6.97537E-07, -6.9745999999999995E-07, 626.837471518634
DataValue, 1.26, 0.1, 0, -3.7E-14, 7.6520199999999995E-07, -7.65101E-07, 668.40305038756912
DataValue, 1.32, 0.1, 0, -3.1E-14, 8.34713E-07, -8.34599E-07, 710.704805917558
DataValue, 1.3800000000000001, 0.1, 0, -5.700000000000001E-14, 9.0595199999999993E-07, -9.05827E-07, 753.63563220619881
DataValue, 1.44, 0.1, 0, -2.0000000000000003E-14, 9.78789E-07, -9.78698E-07, 796.701164920241
DataValue, 1.5, 0.1, 0, -5.2000000000000006E-14, 1.05322E-06, -1.053113E-06, 840.00379012382643
DataValue, 1.56, 0.1, 0, -7.4E-14, 1.129096E-06, -1.128966E-06, 886.54150651100906
DataValue, 1.62, 0.1, 0, -2.4000000000000002E-14, 1.20588E-06, -1.20601E-06, 931.08311782613873
DataValue, 1.68, 0.1, 0, -5.6E-14, 1.2844100000000002E-06, -1.2846300000000001E-06, 973.005079027136
DataValue, 1.74, 0.1, 0, -8E-15, 1.3641600000000002E-06, -1.3643200000000001E-06, 1019.6087878499776
DataValue, 1.8, 0.1, 0, -2.7000000000000002E-14, 1.4448300000000001E-06, -1.4450100000000002E-06, 1064.8291749739115
DataValue, 1.86, 0.1, 0, -6.6000000000000009E-14, 1.52689E-06, -1.5270300000000001E-06, 1110.9168660162163
DataValue, 1.92, 0.1, 0, -4.4E-14, 1.60964E-06, -1.60984E-06, 1158.5010898459423
DataValue, 1.98, 0.1, 0, -7.5000000000000009E-14, 1.6935300000000002E-06, -1.6936700000000002E-06, 1205.8807088664451
DataValue, 2.04, 0.1, 0, -1.6E-14, 1.7780600000000001E-06, -1.7782100000000003E-06, 1253.0004970491252
DataValue, 2.1, 0.1, 0, -5.3E-14, 1.86374E-06, -1.8639000000000003E-06, 1300.3781543852033
DataValue, 2.16, 0.1, 0, -5.1000000000000004E-14, 1.9499500000000003E-06, -1.9500100000000002E-06, 1348.8215411593822
DataValue, 2.22, 0.1, 0, 1E-15, 2.03715E-06, -2.0371900000000003E-06, 1396.0963427691077
DataValue, 2.2800000000000002, 0.1, 0, -4.7E-14, 2.1249700000000004E-06, -2.1249700000000004E-06, 1447.4270430794995
DataValue, 2.34, 0.1, 0, -2.0000000000000003E-14, 2.21324E-06, -2.2131400000000003E-06, 1498.4745435134505
DataValue, 2.4, 0.1, 0, -7.5000000000000009E-14, 2.30214E-06, -2.3021000000000004E-06, 1548.4524288634257
DataValue, 2.46, 0.1, 0, -5E-14, 2.3915800000000004E-06, -2.3915600000000003E-06, 1599.2285257042281
DataValue, 2.52, 0.1, 0, -1.6E-14, 2.4815300000000003E-06, -2.4813500000000004E-06, 1650.3007540178096
DataValue, 2.58, 0.1, 0, -2.6000000000000003E-14, 2.5719600000000003E-06, -2.5718E-06, 1703.0556544198787
DataValue, 2.64, 0.1, 0, -4.0000000000000006E-14, 2.66269E-06, -2.6625200000000005E-06, 1759.7875738427524
DataValue, 2.7, 0.1, 0, -5.8E-14, 2.75346E-06, -2.75332E-06, 1812.2608676968569
DataValue, 2.7600000000000002, 0.1, 0, -5.8E-14, 2.8449700000000003E-06, -2.8446800000000004E-06, 1863.1293045473333
DataValue, 2.82, 0.1, 0, -5E-14, 2.9366400000000002E-06, -2.9362800000000005E-06, 1919.5416217029774
DataValue, 2.88, 0.1, 0, -6.9000000000000009E-14, 3.0285000000000003E-06, -3.0282100000000004E-06, 1972.6160961628461
DataValue, 2.94, 0.1, 0, -5.8E-14, 3.1208300000000002E-06, -3.1203300000000004E-06, 2027.5641621347927
DataValue, 3, 0.1, 0, -7E-15, 3.2131500000000003E-06, -3.2126300000000004E-06, 2058.1233023279938
DataValue, -3, 0.8, 0, -2.32E-13, -2.0000000000000003E-14, -9.5000000000000012E-14, -139.28128938874383
DataValue, -2.94, 0.8, 0, -1.0400000000000001E-13, -1.3000000000000001E-14, -5.4000000000000003E-14, 101.81096281139155
DataValue, -2.88, 0.8, 0, -7E-14, -6.5E-14, -6.4E-14, 111.87384186951512
DataValue, -2.82, 0.8, 0, -7.8000000000000008E-14, -3.8E-14, -5.6E-14, 1033.8395388391016
DataValue, -2.7600000000000002, 0.8, 0, -9.9000000000000007E-14, -7.3E-14, -5.3E-14, 230.19510486199465
DataValue, -2.7, 0.8, 0, -7.8000000000000008E-14, -6.4E-14, -6.4E-14, -611.88626103735635
DataValue, -2.64, 0.8, 0, -6.4E-14, -6.0000000000000009E-14, -4.1E-14, -90.520283025432391
DataValue, -2.58, 0.8, 0, -6.3000000000000009E-14, -1.7E-14, -2.6000000000000003E-14, 958.74869524567612
DataValue, -2.52, 0.8, 0, -1.7E-14, -6.8E-14, -7.2000000000000009E-14, -1979.39379091469
DataValue, -2.46, 0.8, 0, -6.5E-14, -1.6E-14, -6.1E-14, 4139.71012869077
DataValue, -2.4, 0.8, 0, -5.2000000000000006E-14, -7E-14, -3.6000000000000004E-14, 77.674961020790036
DataValue, -2.34, 0.8, 0, -7.8000000000000008E-14, -7.5000000000000009E-14, -4.9000000000000006E-14, 704.45121576162012
DataValue, -2.2800000000000002, 0.8, 0, -8.3000000000000012E-14, -8.3000000000000012E-14, -5.3E-14, -2189.4519450731946
DataValue, -2.22, 0.8, 0, -3.1E-14, -7.1E-14, -6.7E-14, -279.162890188255
DataValue, -2.16, 0.8, 0, -6.5E-14, -5.4000000000000003E-14, -5.8E-14, -209.13194763397232
DataValue, -2.1, 0.8, 0, -4.8000000000000004E-14, -4.0000000000000006E-14, -1.06E-13, 183.09237922696889
DataValue, -2.04, 0.8, 0, -6.0000000000000009E-14, -1.0400000000000001E-13, -8.8E-14, 247.16388922965456
DataValue, -1.98, 0.8, 0, -5.700000000000001E-14, -6.5E-14, -6.4E-14, -205.49778900431383
DataValue, -1.92, 0.8, 0, -6.4E-14, -5.8E-14, -6.0000000000000009E-14, -1889.3649086403657
DataValue, -1.86, 0.8, 0, -8.5E-14, -6.1E-14, -5.9E-14, -6899.8260834497642
DataValue, -1.8, 0.8, 0, -6.8E-14, -5.700000000000001E-14, -5.8E-14, 
DataValue, -1.74, 0.8, 0, -4.2000000000000004E-14, -6.1E-14, -4.2000000000000004E-14, -392.95091953417335
DataValue, -1.68, 0.8, 0, -5.8E-14, -4.2000000000000004E-14, -9.4E-14, 7379.8373955086327
DataValue, -1.62, 0.8, 0, -7.2000000000000009E-14, -6.2E-14, -6.0000000000000009E-14, 228.56696226068391
DataValue, -1.56, 0.8, 0, -3.0000000000000005E-14, -7.1E-14, -3.6000000000000004E-14, -232.460617620149
DataValue, -1.5, 0.8, 0, -8.6000000000000012E-14, -3.7E-14, -6.6000000000000009E-14, -276.47318239462487
DataValue, -1.44, 0.8, 0, -4.7E-14, -4.6000000000000006E-14, -9.5000000000000012E-14, 192.55808201483154
DataValue, -1.3800000000000001, 0.8, 0, -9.3000000000000008E-14, -6.9000000000000009E-14, -2.3000000000000003E-14, 191.78339223776169
DataValue, -1.32, 0.8, 0, -7.4E-14, -8.6000000000000012E-14, -9.7E-14, -52.44305179901356
DataValue, -1.26, 0.8, 0, -3.4E-14, -7E-15, -7.4E-14, 3499.6571159841842
DataValue, -1.2, 0.8, 0, -7.4E-14, -8.9000000000000012E-14, -8.7000000000000008E-14, 109.22870719522061
DataValue, -1.1400000000000001, 0.8, 0, -4.8000000000000004E-14, -2.1000000000000002E-14, -5.9E-14, -909.59019801725185
DataValue, -1.08, 0.8, 0, -9.4E-14, -7.8000000000000008E-14, -8.1000000000000008E-14, 81.231131483715544
DataValue, -1.02, 0.8, 0, -6.0000000000000009E-14, -9.2000000000000012E-14, -5.2000000000000006E-14, -382.58284110238446
DataValue, -0.96, 0.8, 0, -8.1000000000000008E-14, -5.700000000000001E-14, -4.9000000000000006E-14, -203.40260545915282
