
SetupTitle, I/V List Sweep - Step Marking (ISRC)
PrimitiveTest, I/V List Sweep
TestParameter, Channel.UnitType, SMU, SMU, SMU, SMU
TestParameter, Channel.Unit, SMU2:HR, SMU4:HR, SMU1:HR, SMU3:HR
TestParameter, Channel.IName, IG_PGM, ID_PGM, ID_READ, IS_READ
TestParameter, Channel.VName, VG_PGM, VD_PGM, VD_READ, VS_READ
TestParameter, Channel.Mode, V, V, V, COMMON
TestParameter, Channel.Func, VAR1, VAR1, CONST, CONST
TestParameter, Channel.Index, index
TestParameter, Channel.Time, time
TestParameter, Measurement.Port.Unit, SMU2:HR, SMU4:HR, SMU1:HR, SMU3:HR
TestParameter, Measurement.Port.SeriesResistor, NONE, NONE, NONE, NONE
TestParameter, Measurement.Port.Filter, ON, ON, ON, ON
TestParameter, Measurement.Port.OutputVoltageComparison, 0, 0, 0, 0
TestParameter, Measurement.Primary.Sources
TestParameter, Measurement.Primary.Compliance, 0.1, 0.1
TestParameter, Measurement.Primary.PowerCompliance, 0, 0
TestParameter, Measurement.Aborting.Condition, CONTINUE AT ANY
TestParameter, Measurement.PostOutput.Retention, OFF
TestParameter, Measurement.Bias.Source, 2, 1.5, 0.1, 0
TestParameter, Measurement.Bias.Compliance, 0.1, 0.1, 0.1, 0.1
TestParameter, Measurement.Pulse.Period, 
TestParameter, Measurement.Pulse.MeasurementDelay, 0
TestParameter, Measurement.Pulse.AveragingCount, 1
TestParameter, Measurement.Monitor.Unit, SMU4:HR, SMU2:HR, SMU1:HR, SMU3:HR
TestParameter, Measurement.Monitor.Adc, HR ADC, HR ADC, HR ADC, HR ADC
TestParameter, Measurement.Monitor.Measurement, Compliance Side, Compliance Side, Compliance Side, Compliance Side
TestParameter, Measurement.Monitor.RangingMode, LIMITED, LIMITED, LIMITED, LIMITED
TestParameter, Measurement.Monitor.RangeBoundary, 1nA, 1nA, 1nA, 1nA
TestParameter, Measurement.Monitor.RangeRating, BY FULL RANGE, BY FULL RANGE, BY FULL RANGE, BY FULL RANGE
TestParameter, Measurement.Monitor.RangeRatingCoeff, 50, 50, 50, 50
TestParameter, Measurement.Timing.Hold, 0
TestParameter, Measurement.Timing.Delay
TestParameter, Measurement.Adc.HighSpeed.Mode, PLC
TestParameter, Measurement.Adc.HighSpeed.Coeff, 10
TestParameter, Measurement.Adc.HighResolution.AutoZero, OFF
TestParameter, Measurement.Adc.HighResolution.Mode, PLC
TestParameter, Measurement.Adc.HighResolution.Coeff, 10
TestParameter, Measurement.WaitTime.Source.Coeff, 1
TestParameter, Measurement.WaitTime.Source.Offset, 0
TestParameter, Measurement.WaitTime.Monitor.Coeff, 1
TestParameter, Measurement.WaitTime.Monitor.Offset, 0
TestParameter, Output.Graph.Enabled, true
TestParameter, Output.Graph.AutoScaling, false
TestParameter, Output.Graph.XAxis.Data, time
TestParameter, Output.Graph.XAxis.Scale, Linear
TestParameter, Output.Graph.XAxis.Left, 0
TestParameter, Output.Graph.XAxis.Right, 500
TestParameter, Output.Graph.XAxis.RunTimeAutoScale, true
TestParameter, Output.Graph.YAxis.Data, ID_READ, ID_READ
TestParameter, Output.Graph.YAxis.Scale, Log, Linear
TestParameter, Output.Graph.YAxis.Bottom, 0, 0
TestParameter, Output.Graph.YAxis.Top, 0.1, 0.1
TestParameter, Output.Graph.YAxis.Group, , 
TestParameter, Output.Graph.YAxis.RunTimeAutoScale, false, true
TestParameter, Output.List.Data, VD_PGM, VG_PGM, VD_READ, VS_READ, time, ID_PGM, IG_PGM, ID_READ, IS_READ
TestParameter, AutoAnalysis.Interpolation, false
TestParameter, AutoAnalysis.Var2StepCount, 1
TestParameter, AutoAnalysis.Var2StepScript, 
TestParameter, AutoAnalysis.Line1.Enabled, false
TestParameter, AutoAnalysis.Line1.Type, 1
TestParameter, AutoAnalysis.Line1.Fix, True
TestParameter, AutoAnalysis.Line1.YAxis, 0
TestParameter, AutoAnalysis.Line1.Point1.Type, 0
TestParameter, AutoAnalysis.Line1.Point1.XY.X, 
TestParameter, AutoAnalysis.Line1.Point1.XY.Y, 
TestParameter, AutoAnalysis.Line1.Point1.Data.Var, 
TestParameter, AutoAnalysis.Line1.Point1.Data.Condition, 
TestParameter, AutoAnalysis.Line1.Point1.Data.Start, false
TestParameter, AutoAnalysis.Line1.Point1.Data.StartVar, 
TestParameter, AutoAnalysis.Line1.Point1.Data.StartCondition, 
TestParameter, AutoAnalysis.Line1.Point2.Type, 0
TestParameter, AutoAnalysis.Line1.Point2.XY.X, 
TestParameter, AutoAnalysis.Line1.Point2.XY.Y, 
TestParameter, AutoAnalysis.Line1.Point2.Data.Var, 
TestParameter, AutoAnalysis.Line1.Point2.Data.Condition, 
TestParameter, AutoAnalysis.Line1.Point2.Data.Start, false
TestParameter, AutoAnalysis.Line1.Point2.Data.StartVar, 
TestParameter, AutoAnalysis.Line1.Point2.Data.StartCondition, 
TestParameter, AutoAnalysis.Line1.GradientExpr, 0
TestParameter, AutoAnalysis.Line2.Enabled, false
TestParameter, AutoAnalysis.Line2.Type, 1
TestParameter, AutoAnalysis.Line2.Fix, True
TestParameter, AutoAnalysis.Line2.YAxis, 0
TestParameter, AutoAnalysis.Line2.Point1.Type, 0
TestParameter, AutoAnalysis.Line2.Point1.XY.X, 
TestParameter, AutoAnalysis.Line2.Point1.XY.Y, 
TestParameter, AutoAnalysis.Line2.Point1.Data.Var, 
TestParameter, AutoAnalysis.Line2.Point1.Data.Condition, 
TestParameter, AutoAnalysis.Line2.Point1.Data.Start, false
TestParameter, AutoAnalysis.Line2.Point1.Data.StartVar, 
TestParameter, AutoAnalysis.Line2.Point1.Data.StartCondition, 
TestParameter, AutoAnalysis.Line2.Point2.Type, 0
TestParameter, AutoAnalysis.Line2.Point2.XY.X, 
TestParameter, AutoAnalysis.Line2.Point2.XY.Y, 
TestParameter, AutoAnalysis.Line2.Point2.Data.Var, 
TestParameter, AutoAnalysis.Line2.Point2.Data.Condition, 
TestParameter, AutoAnalysis.Line2.Point2.Data.Start, false
TestParameter, AutoAnalysis.Line2.Point2.Data.StartVar, 
TestParameter, AutoAnalysis.Line2.Point2.Data.StartCondition, 
TestParameter, AutoAnalysis.Line2.GradientExpr, 0
TestParameter, AutoAnalysis.Marker.Enabled, false
TestParameter, AutoAnalysis.Marker.Data.Var, 
TestParameter, AutoAnalysis.Marker.Data.Condition, 
TestParameter, AutoAnalysis.Marker.Data.Start, false
TestParameter, AutoAnalysis.Marker.Data.StartVar, 
TestParameter, AutoAnalysis.Marker.Data.StartCondition, 
MetaData, TestRecord.EntryPoint, true
MetaData, TestRecord.RecordTime, 12/24/2025 14:40:29
MetaData, TestRecord.TestTarget, IGZO_ALD_#1_2T1C_LIST_SWEEP_R0C1_VD_PGM_CONST
MetaData, TestRecord.IterationIndex, 4
MetaData, TestRecord.Preservation, true
MetaData, TestRecord.Flag, 
MetaData, TestRecord.Remarks, 
MetaData, TestRecord.LinkKey, 9725c892-2c3e-49c1-b202-07a63a935c6e
MetaData, TestRecord.Parameters, 
Dimension1, 200, 200, 200, 200, 200, 200, 200, 200, 200
Dimension2, 1, 1, 1, 1, 1, 1, 1, 1, 1
DataName, VG_PGM, VD_PGM, VD_READ, VS_READ, time, ID_PGM, IG_PGM, ID_READ, IS_READ
DataValue, 2, 1.5, 0.1, 0, 0.094230000000000008, 7.76E-13, -3.0000000000000002E-15, 1.2743200000000002E-06, -1.27361E-06
DataValue, 2, 1.5, 0.1, 0, 1.06221, 8.9000000000000012E-14, -2.9E-14, 1.27012E-06, -1.26983E-06
DataValue, 2, 1.5, 0.1, 0, 1.9740600000000002, 3.2E-14, -2.7000000000000002E-14, 1.26706E-06, -1.26686E-06
DataValue, 2, 1.5, 0.1, 0, 2.8858400000000004, 2.8E-14, -7E-15, 1.26446E-06, -1.2643100000000002E-06
DataValue, 2, 1.5, 0.1, 0, 3.7979100000000003, 3.0000000000000002E-15, -1E-15, 1.2621400000000002E-06, -1.26205E-06
DataValue, -2, 1.5, 0.1, 0, 4.71028, -1.3000000000000001E-14, -7.7E-14, 1.2265500000000001E-06, -1.2263500000000001E-06
DataValue, -2, 1.5, 0.1, 0, 5.62206, -1.5000000000000002E-14, -3.7E-14, 1.22416E-06, -1.2240500000000002E-06
DataValue, -2, 1.5, 0.1, 0, 6.53389, -1.1E-14, -1.5000000000000002E-14, 1.22199E-06, -1.2219100000000002E-06
DataValue, -2, 1.5, 0.1, 0, 7.4456900000000008, -2.1000000000000002E-14, -2.3000000000000003E-14, 1.2199600000000001E-06, -1.2199000000000002E-06
DataValue, -2, 1.5, 0.1, 0, 8.35754, -2.6000000000000003E-14, -2.1000000000000002E-14, 1.2181200000000002E-06, -1.2181200000000002E-06
DataValue, -2, 1.5, 0.1, 0, 9.2697200000000013, -5E-14, -3.2E-14, 1.2163700000000001E-06, -1.21639E-06
DataValue, -2, 1.5, 0.1, 0, 10.181920000000002, -3.2E-14, -3.5E-14, 1.2147300000000002E-06, -1.2147300000000002E-06
DataValue, -2, 1.5, 0.1, 0, 11.093810000000001, -3.0000000000000005E-14, -2.6000000000000003E-14, 1.2131500000000002E-06, -1.2131200000000002E-06
DataValue, -2, 1.5, 0.1, 0, 12.00595, -4.2000000000000004E-14, -3.1E-14, 1.2116000000000002E-06, -1.21161E-06
DataValue, -2, 1.5, 0.1, 0, 12.91815, -1.4E-14, -4.2000000000000004E-14, 1.2101500000000002E-06, -1.2102200000000002E-06
DataValue, -2, 1.5, 0.1, 0, 13.830010000000002, -2.1000000000000002E-14, -2.8E-14, 1.2087700000000002E-06, -1.20885E-06
DataValue, -2, 1.5, 0.1, 0, 14.741880000000002, -7E-15, -2.8E-14, 1.2074200000000002E-06, -1.20746E-06
DataValue, -2, 1.5, 0.1, 0, 15.654100000000002, -3.5E-14, -3.2E-14, 1.20614E-06, -1.20621E-06
DataValue, -2, 1.5, 0.1, 0, 16.56595, -1.8000000000000002E-14, -3.0000000000000005E-14, 1.2048500000000002E-06, -1.2049500000000002E-06
DataValue, -2, 1.5, 0.1, 0, 17.47813, -4.0000000000000006E-14, -4.9000000000000006E-14, 1.2036600000000002E-06, -1.20371E-06
DataValue, -2, 1.5, 0.1, 0, 18.39001, -2.2E-14, -4E-15, 1.20249E-06, -1.2025300000000001E-06
DataValue, -2, 1.5, 0.1, 0, 19.301840000000002, -1.2000000000000001E-14, -2.9E-14, 1.20134E-06, -1.2014200000000002E-06
DataValue, -2, 1.5, 0.1, 0, 20.213720000000002, -1E-15, -2.5E-14, 1.2001900000000001E-06, -1.20032E-06
DataValue, -2, 1.5, 0.1, 0, 21.12593, -3.6000000000000004E-14, -4.0000000000000006E-14, 1.1991100000000002E-06, -1.1992E-06
DataValue, -2, 1.5, 0.1, 0, 22.03809, -1.7E-14, -3.0000000000000005E-14, 1.1980300000000002E-06, -1.19817E-06
DataValue, -2, 1.5, 0.1, 0, 22.95013, -3.1E-14, -2.9E-14, 1.19695E-06, -1.1970600000000001E-06
DataValue, -2, 1.5, 0.1, 0, 23.862180000000002, -2.7000000000000002E-14, -5.1000000000000004E-14, 1.1959E-06, -1.196E-06
DataValue, -2, 1.5, 0.1, 0, 24.774060000000002, -3.8E-14, -2.4000000000000002E-14, 1.1948700000000002E-06, -1.1949600000000002E-06
DataValue, -2, 1.5, 0.1, 0, 25.68589, -1.2000000000000001E-14, -2.0000000000000003E-14, 1.19383E-06, -1.1939800000000002E-06
DataValue, -2, 1.5, 0.1, 0, 26.59802, -4.5000000000000004E-14, -1.9E-14, 1.19284E-06, -1.1929800000000001E-06
DataValue, -2, 1.5, 0.1, 0, 27.510170000000002, -3.3000000000000005E-14, 1E-15, 1.1918900000000001E-06, -1.19198E-06
DataValue, -2, 1.5, 0.1, 0, 28.421940000000003, -2.4000000000000002E-14, -3.0000000000000002E-15, 1.1909000000000001E-06, -1.1910000000000001E-06
DataValue, -2, 1.5, 0.1, 0, 29.33416, -3.5E-14, 1E-15, 1.18994E-06, -1.1900800000000001E-06
DataValue, -2, 1.5, 0.1, 0, 30.24604, -2.1000000000000002E-14, -2.1000000000000002E-14, 1.18911E-06, -1.1892700000000002E-06
DataValue, -2, 1.5, 0.1, 0, 31.1579, -5.1000000000000004E-14, -2.3000000000000003E-14, 1.1882000000000001E-06, -1.1883700000000002E-06
DataValue, -2, 1.5, 0.1, 0, 32.0698, -4.6000000000000006E-14, -4.9000000000000006E-14, 1.1873100000000001E-06, -1.18746E-06
DataValue, -2, 1.5, 0.1, 0, 32.98209, -4.2000000000000004E-14, -2.5E-14, 1.1864700000000002E-06, -1.1866200000000001E-06
DataValue, -2, 1.5, 0.1, 0, 33.89426, -5.8E-14, -1.5000000000000002E-14, 1.18562E-06, -1.1858000000000002E-06
DataValue, -2, 1.5, 0.1, 0, 34.80655, -3.9000000000000004E-14, -2.1000000000000002E-14, 1.1847500000000002E-06, -1.185E-06
DataValue, -2, 1.5, 0.1, 0, 35.71876, -3.3000000000000005E-14, -2.3000000000000003E-14, 1.1839600000000002E-06, -1.1841200000000002E-06
DataValue, -2, 1.5, 0.1, 0, 36.63094, -2.4000000000000002E-14, -4.1E-14, 1.18312E-06, -1.1833000000000002E-06
DataValue, -2, 1.5, 0.1, 0, 37.543020000000006, -3.6000000000000004E-14, -3.7E-14, 1.1822800000000002E-06, -1.1825100000000002E-06
DataValue, -2, 1.5, 0.1, 0, 38.454930000000004, -3.2E-14, -1.8000000000000002E-14, 1.18154E-06, -1.1817100000000001E-06
DataValue, -2, 1.5, 0.1, 0, 39.36677, -1.5000000000000002E-14, -3.6000000000000004E-14, 1.1807700000000002E-06, -1.18097E-06
DataValue, -2, 1.5, 0.1, 0, 40.27897, -5.4000000000000003E-14, -2.3000000000000003E-14, 1.1800300000000001E-06, -1.1802300000000001E-06
DataValue, -2, 1.5, 0.1, 0, 41.19104, -6.0000000000000009E-14, -9.0000000000000011E-15, 1.17923E-06, -1.17946E-06
DataValue, -2, 1.5, 0.1, 0, 42.10314, -2.4000000000000002E-14, -3.3000000000000005E-14, 1.17851E-06, -1.1786900000000002E-06
DataValue, -2, 1.5, 0.1, 0, 43.015, -4.0000000000000006E-14, -3.0000000000000005E-14, 1.1777700000000002E-06, -1.1779700000000002E-06
DataValue, -2, 1.5, 0.1, 0, 43.927150000000005, -3.9000000000000004E-14, -3.8E-14, 1.1771400000000002E-06, -1.1772700000000002E-06
DataValue, -2, 1.5, 0.1, 0, 44.839290000000005, -4.1E-14, 1.1E-14, 1.17643E-06, -1.1765700000000001E-06
DataValue, -2, 1.5, 0.1, 0, 45.75146, -1.2000000000000001E-14, -2.5E-14, 1.1756900000000002E-06, -1.1758800000000001E-06
DataValue, -2, 1.5, 0.1, 0, 46.663680000000006, -6.5E-14, -4.2000000000000004E-14, 1.1750300000000002E-06, -1.1751700000000002E-06
DataValue, -2, 1.5, 0.1, 0, 47.57585, -3.3000000000000005E-14, -4.1E-14, 1.1743400000000002E-06, -1.1745400000000002E-06
DataValue, -2, 1.5, 0.1, 0, 48.48803, -4.8000000000000004E-14, -5.4000000000000003E-14, 1.1736500000000002E-06, -1.1738200000000002E-06
DataValue, -2, 1.5, 0.1, 0, 49.400160000000007, -4.6000000000000006E-14, -4.5000000000000004E-14, 1.1729800000000001E-06, -1.17313E-06
DataValue, -2, 1.5, 0.1, 0, 50.312360000000005, -5.5000000000000005E-14, -2.3000000000000003E-14, 1.1722900000000001E-06, -1.17248E-06
DataValue, -2, 1.5, 0.1, 0, 51.224480000000007, -4.4E-14, -3.7E-14, 1.1716000000000001E-06, -1.17179E-06
DataValue, -2, 1.5, 0.1, 0, 52.13658, -2.7000000000000002E-14, -1.7E-14, 1.1709100000000002E-06, -1.17112E-06
DataValue, -2, 1.5, 0.1, 0, 53.048690000000008, -4.5000000000000004E-14, -2.7000000000000002E-14, 1.1703200000000002E-06, -1.17054E-06
DataValue, -2, 1.5, 0.1, 0, 53.960530000000006, -3.1E-14, -2.7000000000000002E-14, 1.16965E-06, -1.1698500000000001E-06
DataValue, -2, 1.5, 0.1, 0, 54.872350000000004, -5.5000000000000005E-14, -3.9000000000000004E-14, 1.16902E-06, -1.16922E-06
DataValue, -2, 1.5, 0.1, 0, 55.784220000000005, -3.0000000000000002E-15, -2.2E-14, 1.1683700000000001E-06, -1.16852E-06
DataValue, -2, 1.5, 0.1, 0, 56.69608, -1.2000000000000001E-14, -3.3000000000000005E-14, 1.1677800000000002E-06, -1.1679500000000002E-06
DataValue, -2, 1.5, 0.1, 0, 57.60793, -4.5000000000000004E-14, -2.5E-14, 1.16714E-06, -1.1673300000000002E-06
DataValue, -2, 1.5, 0.1, 0, 58.520260000000007, -3.5E-14, -4.5000000000000004E-14, 1.1664400000000002E-06, -1.16668E-06
DataValue, -2, 1.5, 0.1, 0, 59.432370000000006, -2.1000000000000002E-14, -5.3E-14, 1.16582E-06, -1.1660100000000002E-06
DataValue, -2, 1.5, 0.1, 0, 60.344240000000006, -6.0000000000000005E-15, -3.5E-14, 1.1652400000000001E-06, -1.1654700000000001E-06
DataValue, -2, 1.5, 0.1, 0, 61.256310000000006, -3.1E-14, -2.0000000000000003E-14, 1.1646600000000002E-06, -1.1649E-06
DataValue, -2, 1.5, 0.1, 0, 62.16819, -2.1000000000000002E-14, -1.6E-14, 1.16407E-06, -1.1642500000000001E-06
DataValue, -2, 1.5, 0.1, 0, 63.080330000000004, -2.7000000000000002E-14, -1.3000000000000001E-14, 1.1634600000000001E-06, -1.1636600000000001E-06
DataValue, -2, 1.5, 0.1, 0, 63.992460000000008, -3.4E-14, -2.9E-14, 1.1628700000000001E-06, -1.16305E-06
DataValue, -2, 1.5, 0.1, 0, 64.904310000000009, -8E-15, -3.0000000000000005E-14, 1.16227E-06, -1.1625200000000002E-06
DataValue, -2, 1.5, 0.1, 0, 65.816420000000008, -3.4E-14, -8E-15, 1.1617500000000001E-06, -1.1619100000000001E-06
DataValue, -2, 1.5, 0.1, 0, 66.72857, -3.4E-14, -4.6000000000000006E-14, 1.16111E-06, -1.1613600000000002E-06
DataValue, -2, 1.5, 0.1, 0, 67.64045, -5.700000000000001E-14, -2.5E-14, 1.1605100000000002E-06, -1.1607600000000001E-06
DataValue, -2, 1.5, 0.1, 0, 68.552630000000008, -3.6000000000000004E-14, -1.2000000000000001E-14, 1.1599400000000002E-06, -1.1601700000000002E-06
DataValue, -2, 1.5, 0.1, 0, 69.46486, -4.6000000000000006E-14, -3.0000000000000005E-14, 1.15937E-06, -1.1596E-06
DataValue, -2, 1.5, 0.1, 0, 70.376650000000012, -3.0000000000000005E-14, -1.4E-14, 1.1588300000000002E-06, -1.15903E-06
DataValue, -2, 1.5, 0.1, 0, 71.28861, -4.1E-14, -4.3000000000000006E-14, 1.1583000000000002E-06, -1.1585600000000002E-06
DataValue, -2, 1.5, 0.1, 0, 72.2008, -1.5000000000000002E-14, -1.3000000000000001E-14, 1.1577700000000002E-06, -1.15801E-06
DataValue, -2, 1.5, 0.1, 0, 73.112990000000011, -3.0000000000000005E-14, -3.9000000000000004E-14, 1.15723E-06, -1.15745E-06
DataValue, -2, 1.5, 0.1, 0, 74.02504, -1.8000000000000002E-14, -2.0000000000000003E-14, 1.15669E-06, -1.1569100000000002E-06
DataValue, -2, 1.5, 0.1, 0, 74.9372, -2.7000000000000002E-14, -3.6000000000000004E-14, 1.15617E-06, -1.15637E-06
DataValue, -2, 1.5, 0.1, 0, 75.849060000000009, -2.9E-14, -3.2E-14, 1.1556000000000002E-06, -1.1558300000000002E-06
DataValue, -2, 1.5, 0.1, 0, 76.76128, -3.0000000000000005E-14, -2.4000000000000002E-14, 1.15512E-06, -1.15532E-06
DataValue, -2, 1.5, 0.1, 0, 77.67343000000001, -2.9E-14, -1.7E-14, 1.15455E-06, -1.1547400000000002E-06
DataValue, -2, 1.5, 0.1, 0, 78.58569, -5.4000000000000003E-14, -3.5E-14, 1.15403E-06, -1.15423E-06
DataValue, -2, 1.5, 0.1, 0, 79.49782, -4.4E-14, -2.3000000000000003E-14, 1.15353E-06, -1.1537400000000001E-06
DataValue, -2, 1.5, 0.1, 0, 80.409900000000007, -3.9000000000000004E-14, -3.7E-14, 1.1529900000000002E-06, -1.1532200000000002E-06
DataValue, -2, 1.5, 0.1, 0, 81.32195, -4.4E-14, -1.6E-14, 1.15252E-06, -1.15275E-06
DataValue, -2, 1.5, 0.1, 0, 82.23385, -4.8000000000000004E-14, -3.2E-14, 1.1520100000000002E-06, -1.15221E-06
DataValue, -2, 1.5, 0.1, 0, 83.14592, -5E-14, -1.5000000000000002E-14, 1.1514700000000001E-06, -1.1516800000000002E-06
DataValue, -2, 1.5, 0.1, 0, 84.05808, -3.2E-14, -2.4000000000000002E-14, 1.15087E-06, -1.15109E-06
DataValue, -2, 1.5, 0.1, 0, 84.969910000000013, -6.1E-14, -3.4E-14, 1.1504E-06, -1.1506200000000002E-06
DataValue, -2, 1.5, 0.1, 0, 85.88215000000001, -3.5E-14, -4.8000000000000004E-14, 1.14995E-06, -1.15014E-06
DataValue, -2, 1.5, 0.1, 0, 86.79429, -4.6000000000000006E-14, -2.6000000000000003E-14, 1.14935E-06, -1.1495900000000001E-06
DataValue, -2, 1.5, 0.1, 0, 87.70636, -4.9000000000000006E-14, -4.3000000000000006E-14, 1.14895E-06, -1.1491700000000002E-06
DataValue, -2, 1.5, 0.1, 0, 88.61845000000001, -4.8000000000000004E-14, -4.6000000000000006E-14, 1.1484400000000001E-06, -1.14866E-06
DataValue, -2, 1.5, 0.1, 0, 89.53051, -5.700000000000001E-14, -4.3000000000000006E-14, 1.14794E-06, -1.14819E-06
DataValue, -2, 1.5, 0.1, 0, 90.44265, -6.2E-14, -4.3000000000000006E-14, 1.1474200000000002E-06, -1.1476600000000002E-06
DataValue, -2, 1.5, 0.1, 0, 91.354480000000009, -4.5000000000000004E-14, -4.0000000000000006E-14, 1.1468900000000001E-06, -1.1471000000000002E-06
DataValue, -2, 1.5, 0.1, 0, 92.26654, -6.2E-14, -4.1E-14, 1.14642E-06, -1.1466600000000001E-06
DataValue, -2, 1.5, 0.1, 0, 93.178480000000008, -1.8000000000000002E-14, -3.4E-14, 1.14602E-06, -1.14622E-06
DataValue, -2, 1.5, 0.1, 0, 94.090300000000013, -2.7000000000000002E-14, -5.2000000000000006E-14, 1.1455E-06, -1.14572E-06
DataValue, -2, 1.5, 0.1, 0, 95.00211, -5.4000000000000003E-14, -4.5000000000000004E-14, 1.14504E-06, -1.1453E-06
DataValue, -2, 1.5, 0.1, 0, 95.91419, -4.1E-14, -4.2000000000000004E-14, 1.14454E-06, -1.1447500000000001E-06
DataValue, -2, 1.5, 0.1, 0, 96.82626, -5E-14, -2.3000000000000003E-14, 1.1440600000000002E-06, -1.1443000000000002E-06
DataValue, -2, 1.5, 0.1, 0, 97.73851, -5.1000000000000004E-14, -2.3000000000000003E-14, 1.14359E-06, -1.14382E-06
DataValue, -2, 1.5, 0.1, 0, 98.650340000000014, -3.6000000000000004E-14, -3.6000000000000004E-14, 1.14312E-06, -1.14336E-06
DataValue, -2, 1.5, 0.1, 0, 99.562390000000008, -4.0000000000000006E-14, -3.5E-14, 1.1426700000000001E-06, -1.14293E-06
DataValue, -2, 1.5, 0.1, 0, 100.47451000000001, -5.8E-14, -3.9000000000000004E-14, 1.1422500000000002E-06, -1.1424800000000002E-06
DataValue, -2, 1.5, 0.1, 0, 101.38659000000001, -3.0000000000000005E-14, -4.1E-14, 1.1417600000000002E-06, -1.1419800000000001E-06
DataValue, -2, 1.5, 0.1, 0, 102.29879000000001, -4.4E-14, -3.7E-14, 1.1412700000000002E-06, -1.14148E-06
DataValue, -2, 1.5, 0.1, 0, 103.21065000000002, -2.7000000000000002E-14, -3.2E-14, 1.1408400000000002E-06, -1.1411000000000002E-06
