
SetupTitle, I/V Sweep - Unit (transfer)
PrimitiveTest, I/V Sweep
TestParameter, Context.MainFrame, B1500A
TestParameter, Channel.UnitType, SMU, SMU, SMU
TestParameter, Channel.Unit, SMU1:HR, SMU3:HR, SMU4:HR
TestParameter, Channel.IName, IG, ID, IS
TestParameter, Channel.VName, VG, VD, VS
TestParameter, Channel.Mode, V, V, COMMON
TestParameter, Channel.Func, VAR1, VAR2, CONST
TestParameter, Channel.Index, 
TestParameter, Channel.Time, 
TestParameter, Measurement.Port.Unit, SMU1:HR, SMU3:HR, SMU4:HR
TestParameter, Measurement.Port.SeriesResistor, NONE, NONE, NONE
TestParameter, Measurement.Port.Filter, ON, ON, ON
TestParameter, Measurement.Port.OutputVoltageComparison, 0, 0, 0
TestParameter, Measurement.Primary.Locus, Single
TestParameter, Measurement.Primary.Scale, LINEAR
TestParameter, Measurement.Primary.Start, -3
TestParameter, Measurement.Primary.Stop, 3
TestParameter, Measurement.Primary.Step, 0.05
TestParameter, Measurement.Primary.Compliance, 0.1
TestParameter, Measurement.Primary.PowerCompliance, 0
TestParameter, Measurement.Aborting.Condition, CONTINUE AT ANY
TestParameter, Measurement.PostOutput.Value, START
TestParameter, Measurement.PostOutput.Retention, OFF
TestParameter, Measurement.Secondary.Start, 0.1
TestParameter, Measurement.Secondary.Count, 3
TestParameter, Measurement.Secondary.Step, 1.4000000000000001
TestParameter, Measurement.Secondary.Compliance, 0.1
TestParameter, Measurement.Secondary.PowerCompliance, 0
TestParameter, Measurement.Bias.Source, -3, 0.1, 0
TestParameter, Measurement.Bias.Compliance, 0.1, 0.1, 0.1
TestParameter, Measurement.Monitor.Unit, SMU1:HR, SMU3:HR, SMU4:HR
TestParameter, Measurement.Monitor.Adc, HR ADC, HR ADC, HR ADC
TestParameter, Measurement.Monitor.Measurement, Compliance Side, Compliance Side, Compliance Side
TestParameter, Measurement.Monitor.RangingMode, LIMITED, LIMITED, LIMITED
TestParameter, Measurement.Monitor.RangeBoundary, 1nA, 1nA, 1nA
TestParameter, Measurement.Monitor.RangeRating, BY FULL RANGE, BY FULL RANGE, BY FULL RANGE
TestParameter, Measurement.Monitor.RangeRatingCoeff, 50, 50, 50
TestParameter, Measurement.Timing.Hold, 0
TestParameter, Measurement.Timing.Delay, 0
TestParameter, Measurement.Adc.HighSpeed.Mode, PLC
TestParameter, Measurement.Adc.HighSpeed.Coeff, 5
TestParameter, Measurement.Adc.HighResolution.AutoZero, OFF
TestParameter, Measurement.Adc.HighResolution.Mode, PLC
TestParameter, Measurement.Adc.HighResolution.Coeff, 5
TestParameter, Measurement.WaitTime.Source.Coeff, 1
TestParameter, Measurement.WaitTime.Source.Offset, 0
TestParameter, Measurement.WaitTime.Monitor.Coeff, 1
TestParameter, Measurement.WaitTime.Monitor.Offset, 0
TestParameter, Function.User.Name, SS, ICH
TestParameter, Function.User.Unit, mV/dec, A
TestParameter, Function.User.Definition, diff(VG,log(ID))*1000, ID+IG
TestParameter, Output.Graph.Enabled, true
TestParameter, Output.Graph.AutoScaling, false
TestParameter, Output.Graph.XAxis.Data, VG
TestParameter, Output.Graph.XAxis.Scale, Linear
TestParameter, Output.Graph.XAxis.Left, -3
TestParameter, Output.Graph.XAxis.Right, 3
TestParameter, Output.Graph.XAxis.RunTimeAutoScale, false
TestParameter, Output.Graph.YAxis.Data, ICH, IG
TestParameter, Output.Graph.YAxis.Scale, Log, Log
TestParameter, Output.Graph.YAxis.Bottom, 0, 1E-15
TestParameter, Output.Graph.YAxis.Top, 1, 1E-12
TestParameter, Output.Graph.YAxis.Group, , 
TestParameter, Output.Graph.YAxis.RunTimeAutoScale, true, true
TestParameter, Output.List.Data, VG, VD, VS, IG, ID, IS, SS, ICH
TestParameter, Output.Scalar.Data, SS
TestParameter, AutoAnalysis.Interpolation, false
TestParameter, AutoAnalysis.Var2StepCount, 1
TestParameter, AutoAnalysis.Var2StepScript, 
TestParameter, AutoAnalysis.Line1.Enabled, false
TestParameter, AutoAnalysis.Line1.Type, 1
TestParameter, AutoAnalysis.Line1.Fix, True
TestParameter, AutoAnalysis.Line1.YAxis, 0
TestParameter, AutoAnalysis.Line1.Point1.Type, 0
TestParameter, AutoAnalysis.Line1.Point1.XY.X, 
TestParameter, AutoAnalysis.Line1.Point1.XY.Y, 
TestParameter, AutoAnalysis.Line1.Point1.Data.Var, 
TestParameter, AutoAnalysis.Line1.Point1.Data.Condition, 
TestParameter, AutoAnalysis.Line1.Point1.Data.Start, false
TestParameter, AutoAnalysis.Line1.Point1.Data.StartVar, 
TestParameter, AutoAnalysis.Line1.Point1.Data.StartCondition, 
TestParameter, AutoAnalysis.Line1.Point2.Type, 0
TestParameter, AutoAnalysis.Line1.Point2.XY.X, 
TestParameter, AutoAnalysis.Line1.Point2.XY.Y, 
TestParameter, AutoAnalysis.Line1.Point2.Data.Var, 
TestParameter, AutoAnalysis.Line1.Point2.Data.Condition, 
TestParameter, AutoAnalysis.Line1.Point2.Data.Start, false
TestParameter, AutoAnalysis.Line1.Point2.Data.StartVar, 
TestParameter, AutoAnalysis.Line1.Point2.Data.StartCondition, 
TestParameter, AutoAnalysis.Line1.GradientExpr, 0
TestParameter, AutoAnalysis.Line2.Enabled, false
TestParameter, AutoAnalysis.Line2.Type, 1
TestParameter, AutoAnalysis.Line2.Fix, True
TestParameter, AutoAnalysis.Line2.YAxis, 0
TestParameter, AutoAnalysis.Line2.Point1.Type, 0
TestParameter, AutoAnalysis.Line2.Point1.XY.X, 
TestParameter, AutoAnalysis.Line2.Point1.XY.Y, 
TestParameter, AutoAnalysis.Line2.Point1.Data.Var, 
TestParameter, AutoAnalysis.Line2.Point1.Data.Condition, 
TestParameter, AutoAnalysis.Line2.Point1.Data.Start, false
TestParameter, AutoAnalysis.Line2.Point1.Data.StartVar, 
TestParameter, AutoAnalysis.Line2.Point1.Data.StartCondition, 
TestParameter, AutoAnalysis.Line2.Point2.Type, 0
TestParameter, AutoAnalysis.Line2.Point2.XY.X, 
TestParameter, AutoAnalysis.Line2.Point2.XY.Y, 
TestParameter, AutoAnalysis.Line2.Point2.Data.Var, 
TestParameter, AutoAnalysis.Line2.Point2.Data.Condition, 
TestParameter, AutoAnalysis.Line2.Point2.Data.Start, false
TestParameter, AutoAnalysis.Line2.Point2.Data.StartVar, 
TestParameter, AutoAnalysis.Line2.Point2.Data.StartCondition, 
TestParameter, AutoAnalysis.Line2.GradientExpr, 0
TestParameter, AutoAnalysis.Marker.Enabled, false
TestParameter, AutoAnalysis.Marker.Data.Var, 
TestParameter, AutoAnalysis.Marker.Data.Condition, 
TestParameter, AutoAnalysis.Marker.Data.Start, false
TestParameter, AutoAnalysis.Marker.Data.StartVar, 
TestParameter, AutoAnalysis.Marker.Data.StartCondition, 
MetaData, TestRecord.EntryPoint, true
MetaData, TestRecord.RecordTime, 12/24/2025 11:09:20
MetaData, TestRecord.TestTarget, 
MetaData, TestRecord.IterationIndex, 3
MetaData, TestRecord.Preservation, true
MetaData, TestRecord.Flag, 
MetaData, TestRecord.Remarks, 
MetaData, TestRecord.LinkKey, d6f12f29-5c9a-49fb-9383-b1e774f7c7d5
MetaData, TestRecord.Parameters, 
Dimension1, 121, 121, 121, 121, 121, 121, 121, 121
Dimension2, 3, 3, 3, 3, 3, 3, 3, 3
DataName, VG, VD, VS, IG, ID, IS, SS, ICH
DataValue, -3, 0.1, 0, -1.6870000000000002E-12, 3.38E-13, 2.32E-13, -41.733681144257105, -1.3490000000000002E-12
DataValue, -2.95, 0.1, 0, -4.73E-13, 1.0200000000000001E-13, 2.06E-13, -77.492563673672166, -3.71E-13
DataValue, -2.9, 0.1, 0, -3.2500000000000003E-13, 9.3000000000000008E-14, 7.3E-14, -71.118849427767657, -2.32E-13
DataValue, -2.85, 0.1, 0, -2.57E-13, 2.5E-14, 5.5000000000000005E-14, -88.385905403877345, -2.32E-13
DataValue, -2.8000000000000003, 0.1, 0, -1.8500000000000002E-13, 3.0000000000000005E-14, 4.8000000000000004E-14, -448.14201177245729, -1.5500000000000002E-13
DataValue, -2.75, 0.1, 0, -2.38E-13, 2.0000000000000003E-14, 1.28E-13, -109.13566679372956, -2.1799999999999998E-13
DataValue, -2.7, 0.1, 0, -1.77E-13, 1.2000000000000001E-14, 5.1000000000000004E-14, -43.429448190325267, -1.65E-13
DataValue, -2.65, 0.1, 0, -1.7800000000000002E-13, -2E-15, 1.3000000000000001E-14, -72.134752044448035, -1.8000000000000002E-13
DataValue, -2.6, 0.1, 0, -1.03E-13, -3.0000000000000002E-15, 4.5000000000000004E-14, 51.389834236974927, -1.06E-13
DataValue, -2.5500000000000003, 0.1, 0, -1.42E-13, -1.4E-14, 5.700000000000001E-14, -0, -1.56E-13
DataValue, -2.5, 0.1, 0, -1.0500000000000001E-13, 0, 2.4000000000000002E-14, 120.9659996566597, -1.0500000000000001E-13
DataValue, -2.45, 0.1, 0, -1.3100000000000002E-13, -3.2E-14, -1.2000000000000001E-14, 0, -1.63E-13
DataValue, -2.4, 0.1, 0, -1.24E-13, -1.9E-14, 6.1E-14, -405.08777619254448, -1.43E-13
DataValue, -2.35, 0.1, 0, -1.19E-13, -2.5E-14, 4.6000000000000006E-14, -155.79869835537724, -1.44E-13
DataValue, -2.3000000000000003, 0.1, 0, -1.1500000000000002E-13, -1.0000000000000002E-14, -2.7000000000000002E-14, -224.07100588622865, -1.2500000000000002E-13
DataValue, -2.25, 0.1, 0, -9.4E-14, -1.6E-14, -7.1E-14, -280.36732520571661, -1.1000000000000001E-13
DataValue, -2.2, 0.1, 0, -1.03E-13, -7E-15, 4.2000000000000004E-14, 123.3151731188219, -1.1E-13
DataValue, -2.15, 0.1, 0, -1.2700000000000001E-13, -3.6000000000000004E-14, 5.5000000000000005E-14, 54.398692268197578, -1.63E-13
DataValue, -2.1, 0.1, 0, -1.36E-13, -4.4E-14, -1.0000000000000002E-14, 1849.5494617729676, -1.8E-13
DataValue, -2.05, 0.1, 0, -1.09E-13, -3.8E-14, 3.5E-14, -67.494393569839261, -1.47E-13
DataValue, -2, 0.1, 0, -7.8000000000000008E-14, -1.0000000000000002E-14, 3.5E-14, 3849.7835400478725, -8.8E-14
DataValue, -1.95, 0.1, 0, -8.0000000000000013E-14, -3.9000000000000004E-14, -2.1000000000000002E-14, -0, -1.1900000000000002E-13
DataValue, -1.9000000000000001, 0.1, 0, -1.23E-13, 0, -3.0000000000000005E-14, -161.54065629778114, -1.23E-13
DataValue, -1.85, 0.1, 0, -7.4E-14, -2.1000000000000002E-14, 2.4000000000000002E-14, 0, -9.5E-14
DataValue, -1.8, 0.1, 0, -5E-14, -4.1E-14, 6.3000000000000009E-14, -154.64862199470227, -9.1E-14
DataValue, -1.75, 0.1, 0, -7.9E-14, -1.1E-14, -4.5000000000000004E-14, -33.107924801815678, -9.0000000000000008E-14
DataValue, -1.7, 0.1, 0, -4.3000000000000006E-14, 2E-15, 5.0000000000000008E-15, 70.984048177202354, -4.1000000000000008E-14
DataValue, -1.6500000000000001, 0.1, 0, -4.5000000000000004E-14, -4.5000000000000004E-14, 3.6000000000000004E-14, 30.010162850041279, -9.0000000000000008E-14
DataValue, -1.6, 0.1, 0, -3.8E-14, -5.6E-14, 3.1E-14, -195.7615188971227, -9.4E-14
DataValue, -1.55, 0.1, 0, 9.0000000000000011E-15, -2.7000000000000002E-14, -8.3000000000000012E-14, -130.33473890180426, -1.8E-14
DataValue, -1.5, 0.1, 0, 4.1E-14, -2.6000000000000003E-14, -1.0200000000000001E-13, 95.422710387481359, 1.5E-14
DataValue, -1.45, 0.1, 0, 1.16E-13, -7.7E-14, -5.1000000000000004E-14, 75.365280025712948, 3.9000000000000011E-14
DataValue, -1.4000000000000001, 0.1, 0, 2.1900000000000003E-13, -9.8000000000000012E-14, -6.5E-14, 280.36732520571314, 1.2100000000000002E-13
DataValue, -1.35, 0.1, 0, 3.4700000000000004E-13, -1.1000000000000001E-13, -2.1500000000000002E-13, 149.85629918855332, 2.37E-13
DataValue, -1.3, 0.1, 0, 4.93E-13, -1.9100000000000002E-13, -2.44E-13, 163.20518979072207, 3.0200000000000003E-13
DataValue, -1.25, 0.1, 0, 6.6700000000000009E-13, -2.0300000000000002E-13, -2.92E-13, -108.51399882455361, 4.64E-13
DataValue, -1.2, 0.1, 0, 7.3800000000000009E-13, -7.6E-14, -3.97E-13, -5024.8341581418445, 6.6200000000000011E-13
DataValue, -1.1500000000000001, 0.1, 0, 6.4400000000000008E-13, 1.99E-13, -4.4400000000000003E-13, 54.820811896507372, 8.4300000000000014E-13
DataValue, -1.1, 0.1, 0, 5.7900000000000006E-13, 4.71E-13, -6.170000000000001E-13, 72.53061607721169, 1.0500000000000002E-12
DataValue, -1.05, 0.1, 0, 4.93E-13, 7.9000000000000007E-13, -8.5500000000000009E-13, 105.70893638205233, 1.283E-12
DataValue, -1, 0.1, 0, 3.2000000000000005E-13, 1.2130000000000002E-12, -1.2980000000000001E-12, 117.67110432664933, 1.5330000000000002E-12
DataValue, -0.95000000000000007, 0.1, 0, 1.52E-13, 1.8480000000000002E-12, -1.884E-12, 125.2659436069368, 2.0000000000000004E-12
DataValue, -0.9, 0.1, 0, 1.8000000000000002E-14, 2.695E-12, -2.719E-12, 133.93763551796454, 2.7130000000000003E-12
DataValue, -0.85, 0.1, 0, -6.0000000000000005E-15, 3.899E-12, -3.928E-12, 137.7757184432341, 3.8930000000000005E-12
DataValue, -0.8, 0.1, 0, -6.2E-14, 5.569E-12, -5.6280000000000007E-12, 143.50101452061449, 5.507E-12
DataValue, -0.75, 0.1, 0, -2.1000000000000002E-14, 7.827E-12, -7.843E-12, 149.23628711068329, 7.8060000000000013E-12
DataValue, -0.70000000000000007, 0.1, 0, -4.3000000000000006E-14, 1.0884000000000001E-11, -1.0869000000000001E-11, 152.7970428737633, 1.0841E-11
DataValue, -0.65, 0.1, 0, -3.7E-14, 1.506E-11, -1.5039000000000002E-11, 157.29162735921983, 1.5023E-11
DataValue, -0.6, 0.1, 0, -2.3000000000000003E-14, 2.0554E-11, -2.0583E-11, 162.36316840978623, 2.0531E-11
DataValue, -0.55, 0.1, 0, -4.4E-14, 2.7881000000000004E-11, -2.7882000000000003E-11, 166.14832310445181, 2.7837000000000004E-11
DataValue, -0.5, 0.1, 0, -4.0000000000000006E-14, 3.7522E-11, -3.7445E-11, 169.60586196258055, 3.7482E-11
DataValue, -0.45, 0.1, 0, -4.4E-14, 5.0277000000000006E-11, -5.0195E-11, 173.41814930682574, 5.0233000000000004E-11
DataValue, -0.4, 0.1, 0, -3.0000000000000002E-15, 6.6791E-11, -6.6696E-11, 178.46485820277812, 6.6788E-11
DataValue, -0.35000000000000003, 0.1, 0, -4.1E-14, 8.8048E-11, -8.7924E-11, 182.0776610682619, 8.8007E-11
DataValue, -0.3, 0.1, 0, -2.5E-14, 1.15675E-10, -1.1537800000000002E-10, 185.5765631568251, 1.1565000000000001E-10
DataValue, -0.25, 0.1, 0, -6.2E-14, 1.5091900000000002E-10, -1.5069600000000002E-10, 189.83846432101328, 1.5085700000000004E-10
DataValue, -0.2, 0.1, 0, -5.6E-14, 1.9588900000000003E-10, -1.9554500000000002E-10, 193.44950413192646, 1.9583300000000004E-10
DataValue, -0.15, 0.1, 0, -1.2000000000000001E-14, 2.53072E-10, -2.52525E-10, 197.6945820022957, 2.5306E-10
DataValue, -0.1, 0.1, 0, -2.0000000000000003E-14, 3.24855E-10, -3.2411100000000004E-10, 202.23298464010122, 3.24835E-10
DataValue, -0.05, 0.1, 0, -2.6000000000000003E-14, 4.1494800000000003E-10, -4.14048E-10, 206.53953407455876, 4.14922E-10
DataValue, 0, 0.1, 0, -4.7E-14, 5.2718300000000006E-10, -5.2614900000000008E-10, 210.67741662946628, 5.2713600000000007E-10
DataValue, 0.05, 0.1, 0, -4.4E-14, 6.670150000000001E-10, -6.6576000000000009E-10, 215.19263548984307, 6.6697100000000014E-10
DataValue, 0.1, 0.1, 0, -3.9000000000000004E-14, 8.3903100000000006E-10, -8.3739800000000011E-10, 220.39397644574024, 8.38992E-10
DataValue, 0.15, 0.1, 0, -3.1E-14, 1.05E-09, -1.047852E-09, 225.75066436489459, 1.0499690000000001E-09
DataValue, 0.2, 0.1, 0, -1.5000000000000002E-14, 1.30664E-09, -1.30311E-09, 230.84481903944322, 1.306625E-09
DataValue, 0.25, 0.1, 0, -9.0000000000000011E-15, 1.61928E-09, -1.61627E-09, 235.2093976385238, 1.619271E-09
DataValue, 0.3, 0.1, 0, -9.0000000000000011E-15, 1.99893E-09, -1.9949E-09, 239.6186482627171, 1.998921E-09
DataValue, 0.35000000000000003, 0.1, 0, -5.9E-14, 2.45791E-09, -2.45285E-09, 245.26909869176984, 2.4578509999999996E-09
DataValue, 0.4, 0.1, 0, -4.5000000000000004E-14, 3.00515E-09, -2.99928E-09, 251.54211379132212, 3.0051050000000002E-09
DataValue, 0.45, 0.1, 0, -2E-15, 3.65779E-09, -3.65052E-09, 256.75577137413154, 3.6577880000000002E-09
DataValue, 0.5, 0.1, 0, -6.0000000000000009E-14, 4.43622E-09, -4.4278E-09, 262.57034711027927, 4.43616E-09
DataValue, 0.55, 0.1, 0, -4.7E-14, 5.35328E-09, -5.34232E-09, 269.49827107621155, 5.353233E-09
DataValue, 0.6, 0.1, 0, -5.2000000000000006E-14, 6.42928E-09, -6.41631E-09, 275.68415070869463, 6.429228E-09
DataValue, 0.65, 0.1, 0, -6.0000000000000005E-15, 7.69402E-09, -7.67983E-09, 282.29003002981136, 7.694014E-09
DataValue, 0.70000000000000007, 0.1, 0, -6.8E-14, 9.1624E-09, -9.14598E-09, 289.94858139661341, 9.162332E-09
DataValue, 0.75, 0.1, 0, -1.3000000000000001E-14, 1.086267E-08, -1.084291E-08, 298.14545363291955, 1.0862657000000001E-08
DataValue, 0.8, 0.1, 0, -7E-15, 1.2813699999999999E-08, -1.2793199999999998E-08, 305.50449971213607, 1.2813692999999998E-08
DataValue, 0.85, 0.1, 0, -5.3E-14, 1.5069299999999997E-08, -1.5047899999999998E-08, 312.99910943516466, 1.5069246999999997E-08
DataValue, 0.9, 0.1, 0, -1.0000000000000002E-14, 1.76371E-08, -1.76131E-08, 322.14384573486058, 1.763709E-08
DataValue, 0.95000000000000007, 0.1, 0, -1.4E-14, 2.0554499999999997E-08, -2.05254E-08, 331.18824033935459, 2.0554485999999996E-08
DataValue, 1, 0.1, 0, -3.6000000000000004E-14, 2.3853899999999998E-08, -2.3817599999999997E-08, 341.1756976998023, 2.3853863999999996E-08
DataValue, 1.05, 0.1, 0, -3.9000000000000004E-14, 2.7554999999999998E-08, -2.7519199999999997E-08, 351.59342355455357, 2.7554961E-08
DataValue, 1.1, 0.1, 0, -2.7000000000000002E-14, 3.17016E-08, -3.16597E-08, 361.21279506301164, 3.1701573E-08
DataValue, 1.1500000000000001, 0.1, 0, 8E-15, 3.6344E-08, -3.6293899999999995E-08, 372.56074584568, 3.6344008E-08
DataValue, 1.2, 0.1, 0, -3.0000000000000002E-15, 4.1462099999999996E-08, -4.1407499999999995E-08, 385.36796473281134, 4.1462097E-08
DataValue, 1.25, 0.1, 0, -1.2000000000000001E-14, 4.7111699999999996E-08, -4.7053099999999997E-08, 397.36268461874914, 4.7111688E-08
DataValue, 1.3, 0.1, 0, -2.7000000000000002E-14, 5.3326799999999994E-08, -5.3257499999999992E-08, 410.10585532485084, 5.3326772999999995E-08
DataValue, 1.35, 0.1, 0, -4.6000000000000006E-14, 6.0121099999999992E-08, -6.00438E-08, 422.72167717470791, 6.0121054E-08
DataValue, 1.4000000000000001, 0.1, 0, -2.2E-14, 6.755899999999999E-08, -6.747309999999999E-08, 436.57243952362609, 6.7558977999999989E-08
DataValue, 1.45, 0.1, 0, -1.4E-14, 7.5597099999999991E-08, -7.55057E-08, 451.92877140796656, 7.5597085999999993E-08
DataValue, 1.5, 0.1, 0, -5E-14, 8.4291E-08, -8.4186099999999989E-08, 467.00728672978221, 8.429095E-08
DataValue, 1.55, 0.1, 0, -3.6000000000000004E-14, 9.3648399999999988E-08, -9.3537599999999992E-08, 483.03914149277983, 9.364836399999999E-08
DataValue, 1.6, 0.1, 0, -1.8000000000000002E-14, 1.0367879999999999E-07, -1.035573E-07, 498.38865814145981, 1.0367878199999999E-07
DataValue, 1.6500000000000001, 0.1, 0, -5E-14, 1.1445639999999999E-07, -1.1432389999999999E-07, 515.27498341901548, 1.1445634999999999E-07
DataValue, 1.7, 0.1, 0, -1.2000000000000001E-14, 1.25885E-07, -1.25732E-07, 533.679127614859, 1.25884988E-07
DataValue, 1.75, 0.1, 0, -1.1E-14, 1.38044E-07, -1.37869E-07, 550.54108970265509, 1.38043989E-07
DataValue, 1.8, 0.1, 0, -1.7E-14, 1.50959E-07, -1.50783E-07, 568.94622106296481, 1.5095898299999999E-07
DataValue, 1.85, 0.1, 0, -3.2E-14, 1.6457E-07, -1.64371E-07, 588.90202038767109, 1.64569968E-07
DataValue, 1.9000000000000001, 0.1, 0, -3.4E-14, 1.78898E-07, -1.78671E-07, 607.99234651077279, 1.78897966E-07
DataValue, 1.95, 0.1, 0, -2.2E-14, 1.93991E-07, -1.93752E-07, 628.10052929319875, 1.93990978E-07
DataValue, 2, 0.1, 0, -1.8000000000000002E-14, 2.09773E-07, -2.09511E-07, 649.62531402260652, 2.09772982E-07
DataValue, 2.05, 0.1, 0, -4.9000000000000006E-14, 2.26274E-07, -2.25988E-07, 670.41760132451759, 2.26273951E-07
DataValue, 2.1, 0.1, 0, -2.1000000000000002E-14, 2.4351699999999997E-07, -2.43227E-07, 692.22364518423092, 2.4351697899999995E-07
DataValue, 2.15, 0.1, 0, -3.8E-14, 2.61441E-07, -2.61123E-07, 715.29311322549063, 2.6144096200000004E-07
DataValue, 2.2, 0.1, 0, -1.6E-14, 2.80056E-07, -2.79687E-07, 737.30754208207691, 2.8005598399999997E-07
DataValue, 2.25, 0.1, 0, -1.9E-14, 2.99417E-07, -2.99028E-07, 761.06301575829809, 2.9941698099999997E-07
DataValue, 2.3000000000000003, 0.1, 0, -3.1E-14, 3.19381E-07, -3.1898E-07, 786.23908242398, 3.19380969E-07
DataValue, 2.35, 0.1, 0, -1E-15, 3.40027E-07, -3.39573E-07, 810.58182652587891, 3.40026999E-07
DataValue, 2.4, 0.1, 0, -1E-15, 3.61316E-07, -3.60848E-07, 834.33760921113435, 3.61315999E-07
DataValue, 2.45, 0.1, 0, -1.9E-14, 3.8332399999999997E-07, -3.82816E-07, 859.61070899197307, 3.8332398099999996E-07
DataValue, 2.5, 0.1, 0, -3.3000000000000005E-14, 4.05891E-07, -4.0533299999999997E-07, 887.14735110874358, 4.05890967E-07
DataValue, 2.5500000000000003, 0.1, 0, -3.9000000000000004E-14, 4.29062E-07, -4.28484E-07, 913.58718555618441, 4.29061961E-07
DataValue, 2.6, 0.1, 0, -3.8E-14, 4.5284199999999997E-07, -4.52224E-07, 941.39545316761985, 4.52841962E-07
DataValue, 2.65, 0.1, 0, -2.2E-14, 4.77148E-07, -4.76499E-07, 969.1020572581923, 4.77147978E-07
