
SetupTitle, I/V Sweep - Unit (transfer)
PrimitiveTest, I/V Sweep
TestParameter, Context.MainFrame, B1500A
TestParameter, Channel.UnitType, SMU, SMU, SMU
TestParameter, Channel.Unit, SMU3:HR, SMU1:HR, SMU2:HR
TestParameter, Channel.IName, IG, ID, IS
TestParameter, Channel.VName, VG, VD, VS
TestParameter, Channel.Mode, V, V, COMMON
TestParameter, Channel.Func, VAR1, VAR2, CONST
TestParameter, Channel.Index, 
TestParameter, Channel.Time, 
TestParameter, Measurement.Port.Unit, SMU3:HR, SMU1:HR, SMU2:HR
TestParameter, Measurement.Port.SeriesResistor, NONE, NONE, NONE
TestParameter, Measurement.Port.Filter, ON, ON, ON
TestParameter, Measurement.Port.OutputVoltageComparison, 0, 0, 0
TestParameter, Measurement.Primary.Locus, Single
TestParameter, Measurement.Primary.Scale, LINEAR
TestParameter, Measurement.Primary.Start, -3
TestParameter, Measurement.Primary.Stop, 3
TestParameter, Measurement.Primary.Step, 0.06
TestParameter, Measurement.Primary.Compliance, 0.1
TestParameter, Measurement.Primary.PowerCompliance, 0
TestParameter, Measurement.Aborting.Condition, CONTINUE AT ANY
TestParameter, Measurement.PostOutput.Value, START
TestParameter, Measurement.PostOutput.Retention, OFF
TestParameter, Measurement.Secondary.Start, 0.1
TestParameter, Measurement.Secondary.Count, 5
TestParameter, Measurement.Secondary.Step, 0.70000000000000007
TestParameter, Measurement.Secondary.Compliance, 0.1
TestParameter, Measurement.Secondary.PowerCompliance, 0
TestParameter, Measurement.Bias.Source, -3, 0.1, 0
TestParameter, Measurement.Bias.Compliance, 0.1, 0.1, 0.1
TestParameter, Measurement.Monitor.Unit, SMU3:HR, SMU1:HR, SMU2:HR
TestParameter, Measurement.Monitor.Adc, HR ADC, HR ADC, HR ADC
TestParameter, Measurement.Monitor.Measurement, Compliance Side, Compliance Side, Compliance Side
TestParameter, Measurement.Monitor.RangingMode, LIMITED, LIMITED, LIMITED
TestParameter, Measurement.Monitor.RangeBoundary, 1nA, 1nA, 1nA
TestParameter, Measurement.Monitor.RangeRating, BY FULL RANGE, BY FULL RANGE, BY FULL RANGE
TestParameter, Measurement.Monitor.RangeRatingCoeff, 50, 50, 50
TestParameter, Measurement.Timing.Hold, 0
TestParameter, Measurement.Timing.Delay, 0
TestParameter, Measurement.Adc.HighSpeed.Mode, PLC
TestParameter, Measurement.Adc.HighSpeed.Coeff, 5
TestParameter, Measurement.Adc.HighResolution.AutoZero, OFF
TestParameter, Measurement.Adc.HighResolution.Mode, PLC
TestParameter, Measurement.Adc.HighResolution.Coeff, 5
TestParameter, Measurement.WaitTime.Source.Coeff, 1
TestParameter, Measurement.WaitTime.Source.Offset, 0
TestParameter, Measurement.WaitTime.Monitor.Coeff, 1
TestParameter, Measurement.WaitTime.Monitor.Offset, 0
TestParameter, Function.User.Name, SS
TestParameter, Function.User.Unit, mV/dec
TestParameter, Function.User.Definition, diff(VG,log(ID))*1000
TestParameter, Output.Graph.Enabled, true
TestParameter, Output.Graph.AutoScaling, false
TestParameter, Output.Graph.XAxis.Data, VG
TestParameter, Output.Graph.XAxis.Scale, Linear
TestParameter, Output.Graph.XAxis.Left, -3
TestParameter, Output.Graph.XAxis.Right, 3
TestParameter, Output.Graph.XAxis.RunTimeAutoScale, true
TestParameter, Output.Graph.YAxis.Data, ID, IG
TestParameter, Output.Graph.YAxis.Scale, Log, Log
TestParameter, Output.Graph.YAxis.Bottom, 0, 1E-15
TestParameter, Output.Graph.YAxis.Top, 0.0001, 1E-12
TestParameter, Output.Graph.YAxis.Group, , 
TestParameter, Output.Graph.YAxis.RunTimeAutoScale, true, true
TestParameter, Output.List.Data, VG, VD, VS, IG, ID, IS, SS
TestParameter, Output.Scalar.Data, SS
TestParameter, AutoAnalysis.Interpolation, false
TestParameter, AutoAnalysis.Var2StepCount, 1
TestParameter, AutoAnalysis.Var2StepScript, 
TestParameter, AutoAnalysis.Line1.Enabled, false
TestParameter, AutoAnalysis.Line1.Type, 1
TestParameter, AutoAnalysis.Line1.Fix, True
TestParameter, AutoAnalysis.Line1.YAxis, 0
TestParameter, AutoAnalysis.Line1.Point1.Type, 0
TestParameter, AutoAnalysis.Line1.Point1.XY.X, 
TestParameter, AutoAnalysis.Line1.Point1.XY.Y, 
TestParameter, AutoAnalysis.Line1.Point1.Data.Var, 
TestParameter, AutoAnalysis.Line1.Point1.Data.Condition, 
TestParameter, AutoAnalysis.Line1.Point1.Data.Start, false
TestParameter, AutoAnalysis.Line1.Point1.Data.StartVar, 
TestParameter, AutoAnalysis.Line1.Point1.Data.StartCondition, 
TestParameter, AutoAnalysis.Line1.Point2.Type, 0
TestParameter, AutoAnalysis.Line1.Point2.XY.X, 
TestParameter, AutoAnalysis.Line1.Point2.XY.Y, 
TestParameter, AutoAnalysis.Line1.Point2.Data.Var, 
TestParameter, AutoAnalysis.Line1.Point2.Data.Condition, 
TestParameter, AutoAnalysis.Line1.Point2.Data.Start, false
TestParameter, AutoAnalysis.Line1.Point2.Data.StartVar, 
TestParameter, AutoAnalysis.Line1.Point2.Data.StartCondition, 
TestParameter, AutoAnalysis.Line1.GradientExpr, 0
TestParameter, AutoAnalysis.Line2.Enabled, false
TestParameter, AutoAnalysis.Line2.Type, 1
TestParameter, AutoAnalysis.Line2.Fix, True
TestParameter, AutoAnalysis.Line2.YAxis, 0
TestParameter, AutoAnalysis.Line2.Point1.Type, 0
TestParameter, AutoAnalysis.Line2.Point1.XY.X, 
TestParameter, AutoAnalysis.Line2.Point1.XY.Y, 
TestParameter, AutoAnalysis.Line2.Point1.Data.Var, 
TestParameter, AutoAnalysis.Line2.Point1.Data.Condition, 
TestParameter, AutoAnalysis.Line2.Point1.Data.Start, false
TestParameter, AutoAnalysis.Line2.Point1.Data.StartVar, 
TestParameter, AutoAnalysis.Line2.Point1.Data.StartCondition, 
TestParameter, AutoAnalysis.Line2.Point2.Type, 0
TestParameter, AutoAnalysis.Line2.Point2.XY.X, 
TestParameter, AutoAnalysis.Line2.Point2.XY.Y, 
TestParameter, AutoAnalysis.Line2.Point2.Data.Var, 
TestParameter, AutoAnalysis.Line2.Point2.Data.Condition, 
TestParameter, AutoAnalysis.Line2.Point2.Data.Start, false
TestParameter, AutoAnalysis.Line2.Point2.Data.StartVar, 
TestParameter, AutoAnalysis.Line2.Point2.Data.StartCondition, 
TestParameter, AutoAnalysis.Line2.GradientExpr, 0
TestParameter, AutoAnalysis.Marker.Enabled, false
TestParameter, AutoAnalysis.Marker.Data.Var, 
TestParameter, AutoAnalysis.Marker.Data.Condition, 
TestParameter, AutoAnalysis.Marker.Data.Start, false
TestParameter, AutoAnalysis.Marker.Data.StartVar, 
TestParameter, AutoAnalysis.Marker.Data.StartCondition, 
MetaData, TestRecord.EntryPoint, true
MetaData, TestRecord.RecordTime, 01/16/2026 10:47:57
MetaData, TestRecord.TestTarget, 251203_ALD_#8_R00
MetaData, TestRecord.IterationIndex, 8
MetaData, TestRecord.Preservation, true
MetaData, TestRecord.Flag, 
MetaData, TestRecord.Remarks, 
MetaData, TestRecord.LinkKey, 20732905-8f6f-40ba-83e2-d46c4ce3affa
MetaData, TestRecord.Parameters, 
Dimension1, 101, 101, 101, 101, 101, 101, 101
Dimension2, 5, 5, 5, 5, 5, 5, 5
DataName, VG, VD, VS, IG, ID, IS, SS
DataValue, -3, 0.1, 0, -1.59E-13, -3.2E-14, -4.9000000000000006E-14, 72.751652171996312
DataValue, -2.94, 0.1, 0, -9.6000000000000007E-14, -7.3E-14, -1.1E-14, 214.43283514697271
DataValue, -2.88, 0.1, 0, -9.1E-14, -5.6E-14, -5.8E-14, -120.64877974705073
DataValue, -2.82, 0.1, 0, -6.0000000000000009E-14, -2.7000000000000002E-14, -6.0000000000000009E-14, -3299.636331574518
DataValue, -2.7600000000000002, 0.1, 0, -8.6000000000000012E-14, -5.4000000000000003E-14, -6.3000000000000009E-14, 129.91641059882267
DataValue, -2.7, 0.1, 0, -8.7000000000000008E-14, -6.8E-14, -3.0000000000000005E-14, 520.55394540680015
DataValue, -2.64, 0.1, 0, -5.2000000000000006E-14, -6.8E-14, -8.3000000000000012E-14, -152.76494998468598
DataValue, -2.58, 0.1, 0, -5E-14, -3.1E-14, -3.3000000000000005E-14, 465.424560961404
DataValue, -2.52, 0.1, 0, -1.0400000000000001E-13, -8.8E-14, -5.4000000000000003E-14, 110.31425683639829
DataValue, -2.46, 0.1, 0, -9.4E-14, -9.2000000000000012E-14, -6.6000000000000009E-14, 5339.77527333314
DataValue, -2.4, 0.1, 0, -8.9000000000000012E-14, -9.0000000000000008E-14, -8.2E-14, -396.98178471062118
DataValue, -2.34, 0.1, 0, -4.8000000000000004E-14, -6.8E-14, -6.6000000000000009E-14, -218.75218397612457
DataValue, -2.2800000000000002, 0.1, 0, -8.2E-14, -5.2000000000000006E-14, -7.6E-14, 874.62841904106108
DataValue, -2.22, 0.1, 0, -5.5000000000000005E-14, -7.8000000000000008E-14, -5.2000000000000006E-14, 1098.908224042988
DataValue, -2.16, 0.1, 0, -6.2E-14, -5.8E-14, -9.3000000000000008E-14, -134.68422752522776
DataValue, -2.1, 0.1, 0, -7.2000000000000009E-14, -3.2E-14, -9.2000000000000012E-14, -932.9998949752204
DataValue, -2.04, 0.1, 0, -4.3000000000000006E-14, -5.1000000000000004E-14, -2.2E-14, 
DataValue, -1.98, 0.1, 0, -5.5000000000000005E-14, -3.2E-14, -7.3E-14, 311.15290174804909
DataValue, -1.92, 0.1, 0, -4.6000000000000006E-14, -7.5000000000000009E-14, -7E-14, 186.00672597920573
DataValue, -1.86, 0.1, 0, -3.1E-14, -6.1E-14, -2.4000000000000002E-14, -1439.1662805129197
DataValue, -1.8, 0.1, 0, -7.5000000000000009E-14, -6.9000000000000009E-14, -3.6000000000000004E-14, 973.76798539067681
DataValue, -1.74, 0.1, 0, -6.0000000000000009E-14, -6.9000000000000009E-14, -4.3000000000000006E-14, -690.99151008024126
DataValue, -1.68, 0.1, 0, -5.8E-14, -5.8E-14, -5.3E-14, -424.23396053690954
DataValue, -1.62, 0.1, 0, -5.1000000000000004E-14, -5.2000000000000006E-14, -3.7E-14, -266.94838744267065
DataValue, -1.56, 0.1, 0, -6.5E-14, 3.7E-14, -8.7000000000000008E-14, -6179.8058203619385
DataValue, -1.5, 0.1, 0, -5.1000000000000004E-14, -5.1000000000000004E-14, -3.5E-14, 107.48162520797816
DataValue, -1.44, 0.1, 0, -5.700000000000001E-14, -1.1300000000000001E-13, -5.6E-14, 528.50060486550444
DataValue, -1.3800000000000001, 0.1, 0, -8.1000000000000008E-14, -6.4E-14, -6.1E-14, -107.48162520797796
DataValue, -1.32, 0.1, 0, -7E-14, -3.7E-14, -5.5000000000000005E-14, -284.89117739448608
DataValue, -1.26, 0.1, 0, -9.4E-14, -4.2000000000000004E-14, -7.6E-14, 158.20074291073311
DataValue, -1.2, 0.1, 0, -3.6000000000000004E-14, -7.9E-14, -6.4E-14, 308.11516275981057
DataValue, -1.1400000000000001, 0.1, 0, -5.9E-14, -6.2E-14, -3.2E-14, -728.35319254840124
DataValue, -1.08, 0.1, 0, -3.9000000000000004E-14, -6.7E-14, -6.7E-14, 7499.8399972693551
DataValue, -1.02, 0.1, 0, -4.7E-14, -6.3000000000000009E-14, -6.5E-14, -285.37252800976682
DataValue, -0.96, 0.1, 0, -3.3000000000000005E-14, -4.4E-14, -5.700000000000001E-14, 898.66508273023339
DataValue, -0.9, 0.1, 0, -7.5000000000000009E-14, -7.2000000000000009E-14, -6.1E-14, -597.99463854767816
DataValue, -0.84, 0.1, 0, -6.3000000000000009E-14, -3.6000000000000004E-14, -5.6E-14, -1018.8224418844789
DataValue, -0.78, 0.1, 0, -4.7E-14, -6.4E-14, -6.6000000000000009E-14, 180.45755818902265
DataValue, -0.72, 0.1, 0, -5.9E-14, -7E-14, -4.4E-14, -1035.9847979243054
DataValue, -0.66, 0.1, 0, -5.1000000000000004E-14, -5.700000000000001E-14, -7.2000000000000009E-14, -1619.2589881029717
DataValue, -0.6, 0.1, 0, -7.9E-14, -6.5E-14, -4.8000000000000004E-14, 818.53449013728346
DataValue, -0.54, 0.1, 0, -1.4E-14, -6.6000000000000009E-14, -4.9000000000000006E-14, 467.96482640844812
DataValue, -0.48, 0.1, 0, -7.7E-14, -8.4000000000000008E-14, -9.3000000000000008E-14, 2699.5554970127628
DataValue, -0.42, 0.1, 0, -7E-14, -6.9000000000000009E-14, -1.1500000000000002E-13, 1739.3101260134552
DataValue, -0.36, 0.1, 0, -7.1E-14, -9.0000000000000008E-14, -4.6000000000000006E-14, -138.43853509750869
DataValue, -0.3, 0.1, 0, -4.5000000000000004E-14, -2.9E-14, -6.5E-14, -167.68675259801159
DataValue, -0.24, 0.1, 0, -1.9E-14, -4.4E-14, -5.6E-14, 148.6820378289554
DataValue, -0.18, 0.1, 0, -7.7E-14, -6.5E-14, -8.0000000000000013E-14, 1379.1299960038862
DataValue, -0.12, 0.1, 0, -2.3000000000000003E-14, -4.8000000000000004E-14, -8.4000000000000008E-14, 60.853717170202053
DataValue, -0.06, 0.1, 0, -4.7E-14, 4.67E-13, -5.65E-13, 26.08606254010099
DataValue, 0, 0.1, 0, -4.8000000000000004E-14, 4.7760000000000007E-12, -4.872E-12, 26.294704799884848
DataValue, 0.06, 0.1, 0, -5E-14, 4.4801000000000005E-11, -4.4656E-11, 27.749646285538621
DataValue, 0.12, 0.1, 0, -9.0000000000000008E-14, 3.60677E-10, -3.5883000000000004E-10, 31.449287201725525
DataValue, 0.18, 0.1, 0, -5.4000000000000003E-14, 2.03428E-09, -2.0211E-09, 39.621937868994273
DataValue, 0.24, 0.1, 0, -9.3000000000000008E-14, 7.45476E-09, -7.42823E-09, 53.987136944655212
DataValue, 0.3, 0.1, 0, -2.7000000000000002E-14, 1.8781899999999997E-08, -1.8741E-08, 75.578534465582436
DataValue, 0.36, 0.1, 0, -4.1E-14, 3.64742E-08, -3.6426299999999994E-08, 103.13748552440828
DataValue, 0.42, 0.1, 0, -8.0000000000000013E-14, 6.0122799999999991E-08, -6.0067999999999992E-08, 134.62044674907759
DataValue, 0.48, 0.1, 0, -6.6000000000000009E-14, 8.8943399999999986E-08, -8.8887699999999992E-08, 168.50856530127396
DataValue, 0.54, 0.1, 0, -2.5E-14, 1.2255E-07, -1.225E-07, 203.7901704101445
DataValue, 0.6, 0.1, 0, -1.6E-14, 1.60267E-07, -1.60201E-07, 240.25165249425939
DataValue, 0.66, 0.1, 0, -4.5000000000000004E-14, 2.01945E-07, -2.0188599999999999E-07, 277.37187816670439
DataValue, 0.72, 0.1, 0, -3.9000000000000004E-14, 2.4702099999999997E-07, -2.46949E-07, 315.22800463036549
DataValue, 0.78, 0.1, 0, -3.3000000000000005E-14, 2.95501E-07, -2.95449E-07, 353.3591876873939
DataValue, 0.84, 0.1, 0, -5E-14, 3.46912E-07, -3.46832E-07, 392.57615903952194
DataValue, 0.9, 0.1, 0, -4.6000000000000006E-14, 4.0115399999999997E-07, -4.01069E-07, 432.03640752903124
DataValue, 0.96, 0.1, 0, -4.3000000000000006E-14, 4.5798E-07, -4.57895E-07, 472.0615811645373
DataValue, 1.02, 0.1, 0, -4.9000000000000006E-14, 5.17262E-07, -5.17168E-07, 512.38129731412846
DataValue, 1.08, 0.1, 0, -5.1000000000000004E-14, 5.7884E-07, -5.78759E-07, 554.01422902523348
DataValue, 1.1400000000000001, 0.1, 0, -6.4E-14, 6.42361E-07, -6.42277E-07, 595.57968263439659
DataValue, 1.2, 0.1, 0, -4.4E-14, 7.08047E-07, -7.07932E-07, 636.45455663506721
DataValue, 1.26, 0.1, 0, 9.0000000000000011E-15, 7.75645E-07, -7.75548E-07, 678.32395850870125
DataValue, 1.32, 0.1, 0, -7.7E-14, 8.45068E-07, -8.44945E-07, 720.813295332006
DataValue, 1.3800000000000001, 0.1, 0, -5.2000000000000006E-14, 9.16144E-07, -9.16026E-07, 763.93679909046034
DataValue, 1.44, 0.1, 0, -3.1E-14, 9.88806E-07, -9.88686E-07, 807.15551095700982
DataValue, 1.5, 0.1, 0, -2.2E-14, 1.062993E-06, -1.062862E-06, 850.46309974025712
DataValue, 1.56, 0.1, 0, -3.8E-14, 1.138649E-06, -1.138524E-06, 897.056875541637
DataValue, 1.62, 0.1, 0, -7.3E-14, 1.21514E-06, -1.2152300000000002E-06, 942.30807293794157
DataValue, 1.68, 0.1, 0, -4.4E-14, 1.2932900000000001E-06, -1.2935200000000001E-06, 983.779247817446
DataValue, 1.74, 0.1, 0, -3.9000000000000004E-14, 1.37278E-06, -1.37297E-06, 1030.2601458685306
DataValue, 1.8, 0.1, 0, -5.4000000000000003E-14, 1.4530500000000002E-06, -1.45329E-06, 1076.073086172285
DataValue, 1.86, 0.1, 0, -4.0000000000000006E-14, 1.53473E-06, -1.5349200000000003E-06, 1121.7489269239943
DataValue, 1.92, 0.1, 0, -6.0000000000000005E-15, 1.6171100000000002E-06, -1.6172300000000001E-06, 1169.6889395597264
DataValue, 1.98, 0.1, 0, -1.2000000000000001E-14, 1.7005400000000001E-06, -1.7007100000000002E-06, 1217.0567835593577
DataValue, 2.04, 0.1, 0, -6.7E-14, 1.7846800000000001E-06, -1.7848500000000002E-06, 1263.9680873850448
DataValue, 2.1, 0.1, 0, -4.0000000000000006E-14, 1.8699E-06, -1.8700100000000002E-06, 1311.7120692943208
DataValue, 2.16, 0.1, 0, -6.8E-14, 1.95565E-06, -1.95579E-06, 1360.2196086741537
DataValue, 2.22, 0.1, 0, -2.8E-14, 2.0423600000000003E-06, -2.0424500000000002E-06, 1407.8718908390092
DataValue, 2.2800000000000002, 0.1, 0, -4.6000000000000006E-14, 2.12965E-06, -2.1297400000000004E-06, 1459.4132325907617
DataValue, 2.34, 0.1, 0, -2.0000000000000003E-14, 2.2173900000000003E-06, -2.2173900000000003E-06, 1511.4878025677424
DataValue, 2.4, 0.1, 0, -3.6000000000000004E-14, 2.30562E-06, -2.3056300000000004E-06, 1561.528345710673
DataValue, 2.46, 0.1, 0, -5.700000000000001E-14, 2.3945100000000004E-06, -2.3944600000000003E-06, 1610.9033983021168
DataValue, 2.52, 0.1, 0, -1.1E-14, 2.4839300000000005E-06, -2.4838300000000002E-06, 1663.1030342135146
DataValue, 2.58, 0.1, 0, -2.8E-14, 2.5736700000000005E-06, -2.5735600000000004E-06, 1716.7276540469754
DataValue, 2.64, 0.1, 0, -2.6000000000000003E-14, 2.6637700000000002E-06, -2.6636000000000002E-06, 1772.4381724323691
DataValue, 2.7, 0.1, 0, -7E-15, 2.75395E-06, -2.7537100000000003E-06, 1826.5500590685188
DataValue, 2.7600000000000002, 0.1, 0, -1.4E-14, 2.8446500000000004E-06, -2.84438E-06, 1878.1503299643462
DataValue, 2.82, 0.1, 0, -1.4E-14, 2.9356500000000004E-06, -2.9353400000000003E-06, 1931.0641127849613
DataValue, 2.88, 0.1, 0, -6.8E-14, 3.0270300000000004E-06, -3.0266800000000005E-06, 1986.94041350453
DataValue, 2.94, 0.1, 0, -4.5000000000000004E-14, 3.1184100000000004E-06, -3.11808E-06, 2043.4831528696634
DataValue, 3, 0.1, 0, -2.4000000000000002E-14, 3.2101100000000003E-06, -3.2096400000000004E-06, 2070.2542198788592
DataValue, -3, 0.8, 0, -2.48E-13, -4.9000000000000006E-14, -5.6E-14, -213.59733168651178
DataValue, -2.94, 0.8, 0, -1.03E-13, -3.7E-14, -4.5000000000000004E-14, 449.33254136511709
DataValue, -2.88, 0.8, 0, -1.2000000000000002E-13, -6.4E-14, -5.8E-14, 352.60329339274921
DataValue, -2.82, 0.8, 0, -7.2000000000000009E-14, -5.2000000000000006E-14, -6.6000000000000009E-14, -189.71655372794285
DataValue, -2.7600000000000002, 0.8, 0, -8.5E-14, -3.4E-14, -5.9E-14, 1098.9082240429837
DataValue, -2.7, 0.8, 0, -9.7E-14, -5.8E-14, -4.8000000000000004E-14, 224.68439456685303
DataValue, -2.64, 0.8, 0, -5.8E-14, -5.8E-14, -7.7E-14, 3539.6609909768144
DataValue, -2.58, 0.8, 0, -9.5000000000000012E-14, -6.0000000000000009E-14, -5.1000000000000004E-14, -517.68405706754015
DataValue, -2.52, 0.8, 0, -4.5000000000000004E-14, -4.6000000000000006E-14, -6.6000000000000009E-14, -658.1777937296489
DataValue, -2.46, 0.8, 0, -7.6E-14, -5E-14, -4.9000000000000006E-14, 425.18141511013221
DataValue, -2.4, 0.8, 0, -6.2E-14, -6.1E-14, -1.0200000000000001E-13, -795.635199744376
DataValue, -2.34, 0.8, 0, -6.4E-14, -4.3000000000000006E-14, -7.1E-14, -147.23257995598391
DataValue, -2.2800000000000002, 0.8, 0, -4.9000000000000006E-14, -2.7000000000000002E-14, -4.8000000000000004E-14, 5219.7701068430006
DataValue, -2.22, 0.8, 0, -7.6E-14, -4.4E-14, -5.8E-14, 164.49288750818494
DataValue, -2.16, 0.8, 0, -6.4E-14, -5.6E-14, -6.7E-14, 434.38383075954948
DataValue, -2.1, 0.8, 0, -6.0000000000000009E-14, -5.8E-14, -4.5000000000000004E-14, -384.8872432668291
DataValue, -2.04, 0.8, 0, -2.2E-14, -4.1E-14, -8.4000000000000008E-14, -932.9998949752204
DataValue, -1.98, 0.8, 0, -8.7000000000000008E-14, -5.1000000000000004E-14, -6.2E-14, 179.51855780490649
DataValue, -1.92, 0.8, 0, -7.3E-14, -8.0000000000000013E-14, -6.3000000000000009E-14, 322.3731300419127
DataValue, -1.86, 0.8, 0, -4.3000000000000006E-14, -7.4E-14, -7.6E-14, -502.319232421089
DataValue, -1.8, 0.8, 0, -4.9000000000000006E-14, -6.3000000000000009E-14, -7.4E-14, 692.55386347905164
DataValue, -1.74, 0.8, 0, -6.2E-14, -8.8E-14, -4.3000000000000006E-14, 254.24494217433707
DataValue, -1.68, 0.8, 0, -6.7E-14, -1.0100000000000001E-13, -7.6E-14, 10619.887004690125
DataValue, -1.62, 0.8, 0, -7.2000000000000009E-14, -8.9000000000000012E-14, -5.8E-14, -303.32688037810073
DataValue, -1.56, 0.8, 0, -5.5000000000000005E-14, -6.8E-14, -8.7000000000000008E-14, -304.343122820135
DataValue, -1.5, 0.8, 0, -5.3E-14, -6.0000000000000009E-14, -6.0000000000000009E-14, -8099.8518496837805
DataValue, -1.44, 0.8, 0, -6.2E-14, -6.7E-14, -4.5000000000000004E-14, -200.72360835533567
DataValue, -1.3800000000000001, 0.8, 0, -8.4000000000000008E-14, -3.3000000000000005E-14, -4.5000000000000004E-14, 480.66393751586554
DataValue, -1.32, 0.8, 0, -2.5E-14, -8.6000000000000012E-14, -4.5000000000000004E-14, 123.78783889714163
DataValue, -1.26, 0.8, 0, -6.8E-14, -8.7000000000000008E-14, -4.8000000000000004E-14, -582.9429318251739
DataValue, -1.2, 0.8, 0, -9.2000000000000012E-14, -7E-14, -7.9E-14, -487.01216976846672
DataValue, -1.1400000000000001, 0.8, 0, -5.4000000000000003E-14, -6.8E-14, -5.8E-14, -8339.8561131208971
DataValue, -1.08, 0.8, 0, -4.6000000000000006E-14, -6.9000000000000009E-14, -5.8E-14, 738.37552567464388
