
SetupTitle, I/V Sweep - Unit (transfer)
PrimitiveTest, I/V Sweep
TestParameter, Context.MainFrame, B1500A
TestParameter, Channel.UnitType, SMU, SMU, SMU
TestParameter, Channel.Unit, SMU3:HR, SMU1:HR, SMU2:HR
TestParameter, Channel.IName, IG, ID, IS
TestParameter, Channel.VName, VG, VD, VS
TestParameter, Channel.Mode, V, V, COMMON
TestParameter, Channel.Func, VAR1, VAR2, CONST
TestParameter, Channel.Index, 
TestParameter, Channel.Time, 
TestParameter, Measurement.Port.Unit, SMU3:HR, SMU1:HR, SMU2:HR
TestParameter, Measurement.Port.SeriesResistor, NONE, NONE, NONE
TestParameter, Measurement.Port.Filter, ON, ON, ON
TestParameter, Measurement.Port.OutputVoltageComparison, 0, 0, 0
TestParameter, Measurement.Primary.Locus, Single
TestParameter, Measurement.Primary.Scale, LINEAR
TestParameter, Measurement.Primary.Start, -3
TestParameter, Measurement.Primary.Stop, 3
TestParameter, Measurement.Primary.Step, 0.06
TestParameter, Measurement.Primary.Compliance, 0.1
TestParameter, Measurement.Primary.PowerCompliance, 0
TestParameter, Measurement.Aborting.Condition, CONTINUE AT ANY
TestParameter, Measurement.PostOutput.Value, START
TestParameter, Measurement.PostOutput.Retention, OFF
TestParameter, Measurement.Secondary.Start, 0.1
TestParameter, Measurement.Secondary.Count, 5
TestParameter, Measurement.Secondary.Step, 0.70000000000000007
TestParameter, Measurement.Secondary.Compliance, 0.1
TestParameter, Measurement.Secondary.PowerCompliance, 0
TestParameter, Measurement.Bias.Source, -3, 0.1, 0
TestParameter, Measurement.Bias.Compliance, 0.1, 0.1, 0.1
TestParameter, Measurement.Monitor.Unit, SMU3:HR, SMU1:HR, SMU2:HR
TestParameter, Measurement.Monitor.Adc, HR ADC, HR ADC, HR ADC
TestParameter, Measurement.Monitor.Measurement, Compliance Side, Compliance Side, Compliance Side
TestParameter, Measurement.Monitor.RangingMode, LIMITED, LIMITED, LIMITED
TestParameter, Measurement.Monitor.RangeBoundary, 1nA, 1nA, 1nA
TestParameter, Measurement.Monitor.RangeRating, BY FULL RANGE, BY FULL RANGE, BY FULL RANGE
TestParameter, Measurement.Monitor.RangeRatingCoeff, 50, 50, 50
TestParameter, Measurement.Timing.Hold, 0
TestParameter, Measurement.Timing.Delay, 0
TestParameter, Measurement.Adc.HighSpeed.Mode, PLC
TestParameter, Measurement.Adc.HighSpeed.Coeff, 5
TestParameter, Measurement.Adc.HighResolution.AutoZero, OFF
TestParameter, Measurement.Adc.HighResolution.Mode, PLC
TestParameter, Measurement.Adc.HighResolution.Coeff, 5
TestParameter, Measurement.WaitTime.Source.Coeff, 1
TestParameter, Measurement.WaitTime.Source.Offset, 0
TestParameter, Measurement.WaitTime.Monitor.Coeff, 1
TestParameter, Measurement.WaitTime.Monitor.Offset, 0
TestParameter, Function.User.Name, SS
TestParameter, Function.User.Unit, mV/dec
TestParameter, Function.User.Definition, diff(VG,log(ID))*1000
TestParameter, Output.Graph.Enabled, true
TestParameter, Output.Graph.AutoScaling, false
TestParameter, Output.Graph.XAxis.Data, VG
TestParameter, Output.Graph.XAxis.Scale, Linear
TestParameter, Output.Graph.XAxis.Left, -3
TestParameter, Output.Graph.XAxis.Right, 3
TestParameter, Output.Graph.XAxis.RunTimeAutoScale, true
TestParameter, Output.Graph.YAxis.Data, ID, IG
TestParameter, Output.Graph.YAxis.Scale, Log, Log
TestParameter, Output.Graph.YAxis.Bottom, 0, 1E-15
TestParameter, Output.Graph.YAxis.Top, 0.0001, 1E-12
TestParameter, Output.Graph.YAxis.Group, , 
TestParameter, Output.Graph.YAxis.RunTimeAutoScale, true, true
TestParameter, Output.List.Data, VG, VD, VS, IG, ID, IS, SS
TestParameter, Output.Scalar.Data, SS
TestParameter, AutoAnalysis.Interpolation, false
TestParameter, AutoAnalysis.Var2StepCount, 1
TestParameter, AutoAnalysis.Var2StepScript, 
TestParameter, AutoAnalysis.Line1.Enabled, false
TestParameter, AutoAnalysis.Line1.Type, 1
TestParameter, AutoAnalysis.Line1.Fix, True
TestParameter, AutoAnalysis.Line1.YAxis, 0
TestParameter, AutoAnalysis.Line1.Point1.Type, 0
TestParameter, AutoAnalysis.Line1.Point1.XY.X, 
TestParameter, AutoAnalysis.Line1.Point1.XY.Y, 
TestParameter, AutoAnalysis.Line1.Point1.Data.Var, 
TestParameter, AutoAnalysis.Line1.Point1.Data.Condition, 
TestParameter, AutoAnalysis.Line1.Point1.Data.Start, false
TestParameter, AutoAnalysis.Line1.Point1.Data.StartVar, 
TestParameter, AutoAnalysis.Line1.Point1.Data.StartCondition, 
TestParameter, AutoAnalysis.Line1.Point2.Type, 0
TestParameter, AutoAnalysis.Line1.Point2.XY.X, 
TestParameter, AutoAnalysis.Line1.Point2.XY.Y, 
TestParameter, AutoAnalysis.Line1.Point2.Data.Var, 
TestParameter, AutoAnalysis.Line1.Point2.Data.Condition, 
TestParameter, AutoAnalysis.Line1.Point2.Data.Start, false
TestParameter, AutoAnalysis.Line1.Point2.Data.StartVar, 
TestParameter, AutoAnalysis.Line1.Point2.Data.StartCondition, 
TestParameter, AutoAnalysis.Line1.GradientExpr, 0
TestParameter, AutoAnalysis.Line2.Enabled, false
TestParameter, AutoAnalysis.Line2.Type, 1
TestParameter, AutoAnalysis.Line2.Fix, True
TestParameter, AutoAnalysis.Line2.YAxis, 0
TestParameter, AutoAnalysis.Line2.Point1.Type, 0
TestParameter, AutoAnalysis.Line2.Point1.XY.X, 
TestParameter, AutoAnalysis.Line2.Point1.XY.Y, 
TestParameter, AutoAnalysis.Line2.Point1.Data.Var, 
TestParameter, AutoAnalysis.Line2.Point1.Data.Condition, 
TestParameter, AutoAnalysis.Line2.Point1.Data.Start, false
TestParameter, AutoAnalysis.Line2.Point1.Data.StartVar, 
TestParameter, AutoAnalysis.Line2.Point1.Data.StartCondition, 
TestParameter, AutoAnalysis.Line2.Point2.Type, 0
TestParameter, AutoAnalysis.Line2.Point2.XY.X, 
TestParameter, AutoAnalysis.Line2.Point2.XY.Y, 
TestParameter, AutoAnalysis.Line2.Point2.Data.Var, 
TestParameter, AutoAnalysis.Line2.Point2.Data.Condition, 
TestParameter, AutoAnalysis.Line2.Point2.Data.Start, false
TestParameter, AutoAnalysis.Line2.Point2.Data.StartVar, 
TestParameter, AutoAnalysis.Line2.Point2.Data.StartCondition, 
TestParameter, AutoAnalysis.Line2.GradientExpr, 0
TestParameter, AutoAnalysis.Marker.Enabled, false
TestParameter, AutoAnalysis.Marker.Data.Var, 
TestParameter, AutoAnalysis.Marker.Data.Condition, 
TestParameter, AutoAnalysis.Marker.Data.Start, false
TestParameter, AutoAnalysis.Marker.Data.StartVar, 
TestParameter, AutoAnalysis.Marker.Data.StartCondition, 
MetaData, TestRecord.EntryPoint, true
MetaData, TestRecord.RecordTime, 01/16/2026 11:02:37
MetaData, TestRecord.TestTarget, 251203_ALD_#1_R09
MetaData, TestRecord.IterationIndex, 12
MetaData, TestRecord.Preservation, true
MetaData, TestRecord.Flag, 
MetaData, TestRecord.Remarks, 
MetaData, TestRecord.LinkKey, 47463c92-9b3d-4965-8f65-77bcb8cae308
MetaData, TestRecord.Parameters, 
Dimension1, 101, 101, 101, 101, 101, 101, 101
Dimension2, 5, 5, 5, 5, 5, 5, 5
DataName, VG, VD, VS, IG, ID, IS, SS
DataValue, -3, 0.1, 0, -1.6800000000000002E-13, -5.8E-14, -1.9E-14, -74.780661540373572
DataValue, -2.94, 0.1, 0, -9.5000000000000012E-14, -2.6000000000000003E-14, -7.3E-14, -634.10870858061014
DataValue, -2.88, 0.1, 0, -6.6000000000000009E-14, -4.8000000000000004E-14, -5.3E-14, 278.56257877748766
DataValue, -2.82, 0.1, 0, -1E-13, -4.0000000000000006E-14, -6.1E-14, 240.84447705577387
DataValue, -2.7600000000000002, 0.1, 0, -9.1E-14, -7.9E-14, -6.0000000000000009E-14, 154.43445715215597
DataValue, -2.7, 0.1, 0, -4.5000000000000004E-14, -8.7000000000000008E-14, -6.9000000000000009E-14, -213.22516176503882
DataValue, -2.64, 0.1, 0, -7.6E-14, -4.5000000000000004E-14, -7E-14, 861.68475233547463
DataValue, -2.58, 0.1, 0, -6.8E-14, -1E-13, -5.8E-14, -2639.5453919190277
DataValue, -2.52, 0.1, 0, -6.4E-14, -4.3000000000000006E-14, -2.0000000000000003E-14, -206.96131803738209
DataValue, -2.46, 0.1, 0, -7.4E-14, -5.6E-14, -3.5E-14, 193.29071218976748
DataValue, -2.4, 0.1, 0, -7E-14, -8.0000000000000013E-14, -3.8E-14, 241.72256999477997
DataValue, -2.34, 0.1, 0, -8.6000000000000012E-14, -9.2000000000000012E-14, -8.2E-14, -291.44979484135507
DataValue, -2.2800000000000002, 0.1, 0, -2.9E-14, -5.3E-14, -5.6E-14, -489.55122661119213
DataValue, -2.22, 0.1, 0, -7.6E-14, -7.2000000000000009E-14, -5.3E-14, 765.0988846179971
DataValue, -2.16, 0.1, 0, -8.5E-14, -6.2E-14, -3.0000000000000005E-14, -368.75150524282066
DataValue, -2.1, 0.1, 0, -4.9000000000000006E-14, -5.2000000000000006E-14, -5.9E-14, 470.7871666351565
DataValue, -2.04, 0.1, 0, -5.4000000000000003E-14, -8.0000000000000013E-14, -4.1E-14, 210.32526753864673
DataValue, -1.98, 0.1, 0, -8.5E-14, -9.2000000000000012E-14, -7.2000000000000009E-14, -305.31042596975647
DataValue, -1.92, 0.1, 0, -6.3000000000000009E-14, -5.4000000000000003E-14, -4.8000000000000004E-14, -190.48578160509447
DataValue, -1.86, 0.1, 0, -8.0000000000000013E-14, -4.9000000000000006E-14, -5.8E-14, -140.59921476826744
DataValue, -1.8, 0.1, 0, -5.8E-14, -2.3000000000000003E-14, -5.2000000000000006E-14, 311.81318201059435
DataValue, -1.74, 0.1, 0, -1.0700000000000001E-13, -7.2000000000000009E-14, -5.3E-14, 112.23361315492811
DataValue, -1.68, 0.1, 0, -4.9000000000000006E-14, -6.7E-14, -6.7E-14, -658.17779372966049
DataValue, -1.62, 0.1, 0, -6.6000000000000009E-14, -6.0000000000000009E-14, -6.4E-14, 1207.5778673435264
DataValue, -1.56, 0.1, 0, -4.0000000000000006E-14, -7.4E-14, -7.2000000000000009E-14, 304.343122820135
DataValue, -1.5, 0.1, 0, -8.1000000000000008E-14, -8.9000000000000012E-14, -5.6E-14, -2899.5861596515233
DataValue, -1.44, 0.1, 0, -1.0500000000000001E-13, -7.1E-14, -7.4E-14, -1464.8952060913077
DataValue, -1.3800000000000001, 0.1, 0, -5.6E-14, -8.2E-14, -7.6E-14, -239.29181045610636
DataValue, -1.32, 0.1, 0, -1.7E-14, -4.3000000000000006E-14, -5.5000000000000005E-14, -833.10555866961454
DataValue, -1.26, 0.1, 0, -7.1E-14, -7.1E-14, -5.8E-14, 182.47051609650481
DataValue, -1.2, 0.1, 0, -7.2000000000000009E-14, -8.3000000000000012E-14, -5.6E-14, -200.29435561891907
DataValue, -1.1400000000000001, 0.1, 0, -4.0000000000000006E-14, -3.9000000000000004E-14, -4.5000000000000004E-14, -117.91951925609978
DataValue, -1.08, 0.1, 0, -5.700000000000001E-14, -3.0000000000000005E-14, -5.700000000000001E-14, 176.40734731056384
DataValue, -1.02, 0.1, 0, -5.5000000000000005E-14, -7.7E-14, -8.8E-14, 127.30636158759809
DataValue, -0.96, 0.1, 0, -6.9000000000000009E-14, -7.7E-14, -5.5000000000000005E-14, -176.40734731056367
DataValue, -0.9, 0.1, 0, -5.2000000000000006E-14, -3.9000000000000004E-14, -5E-14, -183.22681632878047
DataValue, -0.84, 0.1, 0, -7.5000000000000009E-14, -4.0000000000000006E-14, -7.1E-14, 316.21418119653612
DataValue, -0.78, 0.1, 0, -4.3000000000000006E-14, -5.700000000000001E-14, -8.0000000000000013E-14, 264.1686455246421
DataValue, -0.72, 0.1, 0, -3.6000000000000004E-14, -6.3000000000000009E-14, -3.8E-14, 1198.9993324589234
DataValue, -0.66, 0.1, 0, -5.4000000000000003E-14, -6.3000000000000009E-14, -3.4E-14, -441.2840084451351
DataValue, -0.6, 0.1, 0, -8.5E-14, -4.8000000000000004E-14, -5E-14, 244.10374431815262
DataValue, -0.54, 0.1, 0, -6.5E-14, -1.03E-13, -5.6E-14, 5819.7938085883743
DataValue, -0.48, 0.1, 0, -4.2000000000000004E-14, -4.9000000000000006E-14, -6.0000000000000009E-14, -222.0641347615871
DataValue, -0.42, 0.1, 0, -3.0000000000000002E-15, -6.0000000000000009E-14, -8.7000000000000008E-14, 1235.0285153649534
DataValue, -0.36, 0.1, 0, 1.6E-14, 5.4000000000000003E-14, -1.47E-13, 46.238236146273742
DataValue, -0.3, 0.1, 0, -4.5000000000000004E-14, 8.0400000000000011E-13, -8.92E-13, 24.580292442271549
DataValue, -0.24, 0.1, 0, -2.3000000000000003E-14, 7.1220000000000006E-12, -7.1930000000000006E-12, 27.932970699486361
DataValue, -0.18, 0.1, 0, -6.1E-14, 5.9018E-11, -5.8748E-11, 29.280076729566108
DataValue, -0.12, 0.1, 0, -4.7E-14, 4.29035E-10, -4.26981E-10, 32.735435120510843
DataValue, -0.06, 0.1, 0, -5E-14, 2.30675E-09, -2.29687E-09, 40.536629760844534
DataValue, 0, 0.1, 0, -5.700000000000001E-14, 8.28187E-09, -8.26263E-09, 54.809585204325849
DataValue, 0.06, 0.1, 0, -1.5000000000000002E-14, 2.05989E-08, -2.0568199999999997E-08, 76.47282499607681
DataValue, 0.12, 0.1, 0, -3.8E-14, 3.9775599999999997E-08, -3.9738599999999994E-08, 104.40478156177848
DataValue, 0.18, 0.1, 0, -6.0000000000000009E-14, 6.501449999999999E-08, -6.4973599999999988E-08, 136.64480250716909
DataValue, 0.24, 0.1, 0, -4.9000000000000006E-14, 9.5721499999999988E-08, -9.566939999999999E-08, 170.97031087182072
DataValue, 0.3, 0.1, 0, -5.4000000000000003E-14, 1.31169E-07, -1.31123E-07, 207.44987790248862
DataValue, 0.36, 0.1, 0, -5.700000000000001E-14, 1.7069799999999998E-07, -1.70642E-07, 244.80763182928064
DataValue, 0.42, 0.1, 0, -3.9000000000000004E-14, 2.14148E-07, -2.14087E-07, 282.66639890891707
DataValue, 0.48, 0.1, 0, -1.8000000000000002E-14, 2.60975E-07, -2.60895E-07, 321.28922314666772
DataValue, 0.54, 0.1, 0, -4.2000000000000004E-14, 3.11115E-07, -3.11034E-07, 360.56428541935446
DataValue, 0.6, 0.1, 0, -2.6000000000000003E-14, 3.6403E-07, -3.6396699999999997E-07, 400.38879660119323
DataValue, 0.66, 0.1, 0, -5.4000000000000003E-14, 4.19839E-07, -4.19757E-07, 440.61395293535134
DataValue, 0.72, 0.1, 0, -4.4E-14, 4.77987E-07, -4.77902E-07, 481.39695445426827
DataValue, 0.78, 0.1, 0, -4.0000000000000006E-14, 5.3869299999999994E-07, -5.38586E-07, 522.19372563447735
DataValue, 0.84, 0.1, 0, -4.1E-14, 6.01474E-07, -6.01373E-07, 564.23265204895347
DataValue, 0.9, 0.1, 0, -4.8000000000000004E-14, 6.6635599999999994E-07, -6.6625E-07, 606.086436657001
DataValue, 0.96, 0.1, 0, -5.4000000000000003E-14, 7.33168E-07, -7.33056E-07, 648.60416420029469
DataValue, 1.02, 0.1, 0, -5.6E-14, 8.01782E-07, -8.0168299999999994E-07, 691.37997518168481
DataValue, 1.08, 0.1, 0, -9.9000000000000007E-14, 8.72132E-07, -8.72029E-07, 735.612138027308
DataValue, 1.1400000000000001, 0.1, 0, -9.0000000000000011E-15, 9.4384899999999994E-07, -9.43723E-07, 779.56427441900439
DataValue, 1.2, 0.1, 0, -4.9000000000000006E-14, 1.017265E-06, -1.017161E-06, 821.86351143854131
DataValue, 1.26, 0.1, 0, -4.2000000000000004E-14, 1.092229E-06, -1.092071E-06, 867.22666277172993
DataValue, 1.32, 0.1, 0, -4.8000000000000004E-14, 1.16823E-06, -1.16836E-06, 912.81822768464474
DataValue, 1.3800000000000001, 0.1, 0, -3.9000000000000004E-14, 1.24568E-06, -1.24588E-06, 955.94566808905631
DataValue, 1.44, 0.1, 0, -7.1E-14, 1.32448E-06, -1.3247000000000002E-06, 1000.5953562289059
DataValue, 1.5, 0.1, 0, -3.7E-14, 1.4044E-06, -1.40457E-06, 1046.2273179898798
DataValue, 1.56, 0.1, 0, -1.4E-14, 1.4854500000000001E-06, -1.4856600000000002E-06, 1093.5151567677419
DataValue, 1.62, 0.1, 0, -3.3000000000000005E-14, 1.5672900000000002E-06, -1.5674800000000001E-06, 1139.8643012609887
DataValue, 1.68, 0.1, 0, -4.3000000000000006E-14, 1.65036E-06, -1.6505700000000002E-06, 1184.5769552468371
DataValue, 1.74, 0.1, 0, -3.7E-14, 1.7343800000000002E-06, -1.7345300000000003E-06, 1233.8701022437656
DataValue, 1.8, 0.1, 0, -3.9000000000000004E-14, 1.8189300000000003E-06, -1.8191E-06, 1281.6061048901363
DataValue, 1.86, 0.1, 0, -3.3000000000000005E-14, 1.9046200000000003E-06, -1.9047600000000001E-06, 1329.7438683742707
DataValue, 1.92, 0.1, 0, -2.8E-14, 1.99071E-06, -1.99083E-06, 1379.0329146756631
DataValue, 1.98, 0.1, 0, -6.1E-14, 2.07778E-06, -2.07792E-06, 1428.2079680583472
DataValue, 2.04, 0.1, 0, -3.7E-14, 2.1652E-06, -2.1652600000000004E-06, 1477.4677522964469
DataValue, 2.1, 0.1, 0, -5.3E-14, 2.25358E-06, -2.25367E-06, 1527.063532995041
DataValue, 2.16, 0.1, 0, 1.0000000000000002E-14, 2.34221E-06, -2.3422800000000003E-06, 1577.3127111455824
DataValue, 2.22, 0.1, 0, -2.4000000000000002E-14, 2.43172E-06, -2.4317600000000003E-06, 1625.3463452672208
DataValue, 2.2800000000000002, 0.1, 0, -4.5000000000000004E-14, 2.5216800000000002E-06, -2.5215800000000004E-06, 1679.8021567302717
DataValue, 2.34, 0.1, 0, -3.0000000000000005E-14, 2.6117900000000003E-06, -2.6117000000000003E-06, 1733.8229117781532
DataValue, 2.4, 0.1, 0, -4.0000000000000006E-14, 2.7023900000000003E-06, -2.7023000000000004E-06, 1783.7553732739473
DataValue, 2.46, 0.1, 0, -5.2000000000000006E-14, 2.7935400000000003E-06, -2.7933700000000002E-06, 1835.5789797547675
DataValue, 2.52, 0.1, 0, -5.2000000000000006E-14, 2.8849600000000005E-06, -2.8847600000000005E-06, 1890.194242414045
DataValue, 2.58, 0.1, 0, -2.7000000000000002E-14, 2.9766400000000003E-06, -2.9763700000000004E-06, 1945.0805761861107
DataValue, 2.64, 0.1, 0, -3.9000000000000004E-14, 3.0685500000000005E-06, -3.06831E-06, 2002.8002218546424
DataValue, 2.7, 0.1, 0, -4.3000000000000006E-14, 3.1604400000000005E-06, -3.1601600000000004E-06, 2057.0622039230329
DataValue, 2.7600000000000002, 0.1, 0, -3.5E-14, 3.2528800000000005E-06, -3.2525400000000005E-06, 2109.7788746177425
DataValue, 2.82, 0.1, 0, -3.3000000000000005E-14, 3.3454100000000005E-06, -3.3449600000000003E-06, 2164.9832670856308
DataValue, 2.88, 0.1, 0, -4.3000000000000006E-14, 3.43827E-06, -3.4377900000000005E-06, 2220.1118273201387
DataValue, 2.94, 0.1, 0, -7.8000000000000008E-14, 3.5312100000000004E-06, -3.5306500000000002E-06, 2278.427846843686
DataValue, 3, 0.1, 0, -1.5000000000000002E-14, 3.6242100000000002E-06, -3.62361E-06, 2308.0700227384773
DataValue, -3, 0.8, 0, -1.89E-13, -6.6000000000000009E-14, -3.0000000000000005E-14, -61.806039397352137
DataValue, -2.94, 0.8, 0, -1.9800000000000002E-13, -2.5E-14, -7.6E-14, -197.975436021376
DataValue, -2.88, 0.8, 0, -6.1E-14, -3.6000000000000004E-14, -8.6000000000000012E-14, 212.27148192549052
DataValue, -2.82, 0.8, 0, -6.7E-14, -4.4E-14, -4.4E-14, 295.95641548517142
DataValue, -2.7600000000000002, 0.8, 0, -3.8E-14, -5.4000000000000003E-14, -5E-14, 153.81488652372318
DataValue, -2.7, 0.8, 0, -5.2000000000000006E-14, -9.6000000000000007E-14, -5.2000000000000006E-14, 1138.9465897235648
DataValue, -2.64, 0.8, 0, -7.9E-14, -6.0000000000000009E-14, -5.2000000000000006E-14, -81.449489332729215
DataValue, -2.58, 0.8, 0, -7.5000000000000009E-14, -2.2E-14, -7.5000000000000009E-14, 712.86289587467888
DataValue, -2.52, 0.8, 0, -3.3000000000000005E-14, -7.1E-14, -8.2E-14, 115.81983830782114
DataValue, -2.46, 0.8, 0, -4.5000000000000004E-14, -6.2E-14, -5.2000000000000006E-14, -546.37690614808923
DataValue, -2.4, 0.8, 0, -5.700000000000001E-14, -5.700000000000001E-14, -5.5000000000000005E-14, 522.70626965444717
DataValue, -2.34, 0.8, 0, -4.9000000000000006E-14, -7.8000000000000008E-14, -1.1400000000000002E-13, 437.25907027224576
DataValue, -2.2800000000000002, 0.8, 0, -4.6000000000000006E-14, -7.5000000000000009E-14, -9.0000000000000008E-14, -1276.2027061758158
DataValue, -2.22, 0.8, 0, -5.1000000000000004E-14, -7.1E-14, -7.7E-14, 2309.4804259895723
DataValue, -2.16, 0.8, 0, -6.7E-14, -7.9E-14, -3.9000000000000004E-14, -191.97121435719507
DataValue, -2.1, 0.8, 0, -1.7E-14, -3.8E-14, -7.6E-14, 1112.2546529602923
DataValue, -2.04, 0.8, 0, -5.5000000000000005E-14, -8.8E-14, -7.3E-14, 137.41401869304221
DataValue, -1.98, 0.8, 0, -5.4000000000000003E-14, -9.1E-14, -7.9E-14, -184.9866619560645
DataValue, -1.92, 0.8, 0, -7.1E-14, -4.6000000000000006E-14, -3.1E-14, -931.43930026078135
DataValue, -1.86, 0.8, 0, -9.2000000000000012E-14, -8.0000000000000013E-14, -6.9000000000000009E-14, 425.18141511013141
DataValue, -1.8, 0.8, 0, -8.6000000000000012E-14, -6.1E-14, -6.6000000000000009E-14, -676.68912706089509
DataValue, -1.74, 0.8, 0, -3.9000000000000004E-14, -6.7E-14, -7.5000000000000009E-14, -425.18141511013221
DataValue, -1.68, 0.8, 0, -6.5E-14, -4.6000000000000006E-14, -7.6E-14, -831.89133725360875
DataValue, -1.62, 0.8, 0, -5.4000000000000003E-14, -5.8E-14, -2.8E-14, 184.98666195606415
DataValue, -1.56, 0.8, 0, -6.0000000000000009E-14, -8.8E-14, -8.0000000000000013E-14, -472.8495301098028
DataValue, -1.5, 0.8, 0, -2.5E-14, -4.5000000000000004E-14, -4.3000000000000006E-14, -167.56577369048679
DataValue, -1.44, 0.8, 0, -3.6000000000000004E-14, -4.3000000000000006E-14, -7E-14, 597.9946385476776
DataValue, -1.3800000000000001, 0.8, 0, -6.0000000000000009E-14, -5.5000000000000005E-14, -8.9000000000000012E-14, 487.54115090996066
DataValue, -1.32, 0.8, 0, -5.9E-14, -5.5000000000000005E-14, -5.3E-14, 2259.4689267125341
DataValue, -1.26, 0.8, 0, -7.8000000000000008E-14, -5.8E-14, -7.8000000000000008E-14, 423.83917949183854
