
SetupTitle, I/V Sweep - Unit (transfer)
PrimitiveTest, I/V Sweep
TestParameter, Context.MainFrame, B1500A
TestParameter, Channel.UnitType, SMU, SMU, SMU
TestParameter, Channel.Unit, SMU3:HR, SMU1:HR, SMU2:HR
TestParameter, Channel.IName, IG, ID, IS
TestParameter, Channel.VName, VG, VD, VS
TestParameter, Channel.Mode, V, V, COMMON
TestParameter, Channel.Func, VAR1, VAR2, CONST
TestParameter, Channel.Index, 
TestParameter, Channel.Time, 
TestParameter, Measurement.Port.Unit, SMU3:HR, SMU1:HR, SMU2:HR
TestParameter, Measurement.Port.SeriesResistor, NONE, NONE, NONE
TestParameter, Measurement.Port.Filter, ON, ON, ON
TestParameter, Measurement.Port.OutputVoltageComparison, 0, 0, 0
TestParameter, Measurement.Primary.Locus, Single
TestParameter, Measurement.Primary.Scale, LINEAR
TestParameter, Measurement.Primary.Start, -3
TestParameter, Measurement.Primary.Stop, 3
TestParameter, Measurement.Primary.Step, 0.06
TestParameter, Measurement.Primary.Compliance, 0.1
TestParameter, Measurement.Primary.PowerCompliance, 0
TestParameter, Measurement.Aborting.Condition, CONTINUE AT ANY
TestParameter, Measurement.PostOutput.Value, START
TestParameter, Measurement.PostOutput.Retention, OFF
TestParameter, Measurement.Secondary.Start, 0.1
TestParameter, Measurement.Secondary.Count, 5
TestParameter, Measurement.Secondary.Step, 0.70000000000000007
TestParameter, Measurement.Secondary.Compliance, 0.1
TestParameter, Measurement.Secondary.PowerCompliance, 0
TestParameter, Measurement.Bias.Source, -3, 0.1, 0
TestParameter, Measurement.Bias.Compliance, 0.1, 0.1, 0.1
TestParameter, Measurement.Monitor.Unit, SMU3:HR, SMU1:HR, SMU2:HR
TestParameter, Measurement.Monitor.Adc, HR ADC, HR ADC, HR ADC
TestParameter, Measurement.Monitor.Measurement, Compliance Side, Compliance Side, Compliance Side
TestParameter, Measurement.Monitor.RangingMode, LIMITED, LIMITED, LIMITED
TestParameter, Measurement.Monitor.RangeBoundary, 1nA, 1nA, 1nA
TestParameter, Measurement.Monitor.RangeRating, BY FULL RANGE, BY FULL RANGE, BY FULL RANGE
TestParameter, Measurement.Monitor.RangeRatingCoeff, 50, 50, 50
TestParameter, Measurement.Timing.Hold, 0
TestParameter, Measurement.Timing.Delay, 0
TestParameter, Measurement.Adc.HighSpeed.Mode, PLC
TestParameter, Measurement.Adc.HighSpeed.Coeff, 5
TestParameter, Measurement.Adc.HighResolution.AutoZero, OFF
TestParameter, Measurement.Adc.HighResolution.Mode, PLC
TestParameter, Measurement.Adc.HighResolution.Coeff, 5
TestParameter, Measurement.WaitTime.Source.Coeff, 1
TestParameter, Measurement.WaitTime.Source.Offset, 0
TestParameter, Measurement.WaitTime.Monitor.Coeff, 1
TestParameter, Measurement.WaitTime.Monitor.Offset, 0
TestParameter, Function.User.Name, SS
TestParameter, Function.User.Unit, mV/dec
TestParameter, Function.User.Definition, diff(VG,log(ID))*1000
TestParameter, Output.Graph.Enabled, true
TestParameter, Output.Graph.AutoScaling, false
TestParameter, Output.Graph.XAxis.Data, VG
TestParameter, Output.Graph.XAxis.Scale, Linear
TestParameter, Output.Graph.XAxis.Left, -3
TestParameter, Output.Graph.XAxis.Right, 3
TestParameter, Output.Graph.XAxis.RunTimeAutoScale, true
TestParameter, Output.Graph.YAxis.Data, ID, IG
TestParameter, Output.Graph.YAxis.Scale, Log, Log
TestParameter, Output.Graph.YAxis.Bottom, 0, 1E-15
TestParameter, Output.Graph.YAxis.Top, 0.0001, 1E-12
TestParameter, Output.Graph.YAxis.Group, , 
TestParameter, Output.Graph.YAxis.RunTimeAutoScale, true, true
TestParameter, Output.List.Data, VG, VD, VS, IG, ID, IS, SS
TestParameter, Output.Scalar.Data, SS
TestParameter, AutoAnalysis.Interpolation, false
TestParameter, AutoAnalysis.Var2StepCount, 1
TestParameter, AutoAnalysis.Var2StepScript, 
TestParameter, AutoAnalysis.Line1.Enabled, false
TestParameter, AutoAnalysis.Line1.Type, 1
TestParameter, AutoAnalysis.Line1.Fix, True
TestParameter, AutoAnalysis.Line1.YAxis, 0
TestParameter, AutoAnalysis.Line1.Point1.Type, 0
TestParameter, AutoAnalysis.Line1.Point1.XY.X, 
TestParameter, AutoAnalysis.Line1.Point1.XY.Y, 
TestParameter, AutoAnalysis.Line1.Point1.Data.Var, 
TestParameter, AutoAnalysis.Line1.Point1.Data.Condition, 
TestParameter, AutoAnalysis.Line1.Point1.Data.Start, false
TestParameter, AutoAnalysis.Line1.Point1.Data.StartVar, 
TestParameter, AutoAnalysis.Line1.Point1.Data.StartCondition, 
TestParameter, AutoAnalysis.Line1.Point2.Type, 0
TestParameter, AutoAnalysis.Line1.Point2.XY.X, 
TestParameter, AutoAnalysis.Line1.Point2.XY.Y, 
TestParameter, AutoAnalysis.Line1.Point2.Data.Var, 
TestParameter, AutoAnalysis.Line1.Point2.Data.Condition, 
TestParameter, AutoAnalysis.Line1.Point2.Data.Start, false
TestParameter, AutoAnalysis.Line1.Point2.Data.StartVar, 
TestParameter, AutoAnalysis.Line1.Point2.Data.StartCondition, 
TestParameter, AutoAnalysis.Line1.GradientExpr, 0
TestParameter, AutoAnalysis.Line2.Enabled, false
TestParameter, AutoAnalysis.Line2.Type, 1
TestParameter, AutoAnalysis.Line2.Fix, True
TestParameter, AutoAnalysis.Line2.YAxis, 0
TestParameter, AutoAnalysis.Line2.Point1.Type, 0
TestParameter, AutoAnalysis.Line2.Point1.XY.X, 
TestParameter, AutoAnalysis.Line2.Point1.XY.Y, 
TestParameter, AutoAnalysis.Line2.Point1.Data.Var, 
TestParameter, AutoAnalysis.Line2.Point1.Data.Condition, 
TestParameter, AutoAnalysis.Line2.Point1.Data.Start, false
TestParameter, AutoAnalysis.Line2.Point1.Data.StartVar, 
TestParameter, AutoAnalysis.Line2.Point1.Data.StartCondition, 
TestParameter, AutoAnalysis.Line2.Point2.Type, 0
TestParameter, AutoAnalysis.Line2.Point2.XY.X, 
TestParameter, AutoAnalysis.Line2.Point2.XY.Y, 
TestParameter, AutoAnalysis.Line2.Point2.Data.Var, 
TestParameter, AutoAnalysis.Line2.Point2.Data.Condition, 
TestParameter, AutoAnalysis.Line2.Point2.Data.Start, false
TestParameter, AutoAnalysis.Line2.Point2.Data.StartVar, 
TestParameter, AutoAnalysis.Line2.Point2.Data.StartCondition, 
TestParameter, AutoAnalysis.Line2.GradientExpr, 0
TestParameter, AutoAnalysis.Marker.Enabled, false
TestParameter, AutoAnalysis.Marker.Data.Var, 
TestParameter, AutoAnalysis.Marker.Data.Condition, 
TestParameter, AutoAnalysis.Marker.Data.Start, false
TestParameter, AutoAnalysis.Marker.Data.StartVar, 
TestParameter, AutoAnalysis.Marker.Data.StartCondition, 
MetaData, TestRecord.EntryPoint, true
MetaData, TestRecord.RecordTime, 01/16/2026 10:29:12
MetaData, TestRecord.TestTarget, 251203_ALD_#3_R00
MetaData, TestRecord.IterationIndex, 3
MetaData, TestRecord.Preservation, true
MetaData, TestRecord.Flag, 
MetaData, TestRecord.Remarks, 
MetaData, TestRecord.LinkKey, c6345f0c-8da6-42a0-afa3-242048e73750
MetaData, TestRecord.Parameters, 
Dimension1, 101, 101, 101, 101, 101, 101, 101
Dimension2, 5, 5, 5, 5, 5, 5, 5
DataName, VG, VD, VS, IG, ID, IS, SS
DataValue, -3, 0.1, 0, -1.48E-13, 1.2000000000000001E-14, -4.5000000000000004E-14, 63.219080512239927
DataValue, -2.94, 0.1, 0, -7.2000000000000009E-14, -3.1E-14, 1.2000000000000001E-14, 94.0222630653815
DataValue, -2.88, 0.1, 0, -2.9E-14, -4.3000000000000006E-14, -1.5000000000000002E-14, -1799.3331356874612
DataValue, -2.82, 0.1, 0, -5.9E-14, -2.9E-14, -7.7E-14, -179.06234121362584
DataValue, -2.7600000000000002, 0.1, 0, -3.3000000000000005E-14, -2.2E-14, -4.0000000000000006E-14, 928.70824208844385
DataValue, -2.7, 0.1, 0, -5.6E-14, -3.3000000000000005E-14, -6.9000000000000009E-14, -597.99463854766816
DataValue, -2.64, 0.1, 0, -4E-15, -1.8000000000000002E-14, -9.1E-14, -42.805770109797756
DataValue, -2.58, 0.1, 0, -1.1E-14, -2E-15, -5.8E-14, -173.12340490667708
DataValue, -2.52, 0.1, 0, -4.8000000000000004E-14, -9.0000000000000011E-15, -5.4000000000000003E-14, 48.291552525821444
DataValue, -2.46, 0.1, 0, 2.3000000000000003E-14, -2.4000000000000002E-14, -1.0000000000000002E-14, 150.28032988084533
DataValue, -2.4, 0.1, 0, -1.4E-14, -2.0000000000000003E-14, -4.4E-14, 205.78026991782863
DataValue, -2.34, 0.1, 0, -7.6E-14, -4.3000000000000006E-14, -2.8E-14, 94.7158348693307
DataValue, -2.2800000000000002, 0.1, 0, -2.2E-14, -7.1E-14, -3.6000000000000004E-14, -582.94293182516162
DataValue, -2.22, 0.1, 0, -3.0000000000000005E-14, -3.5E-14, -3.0000000000000005E-14, -80.531985988456555
DataValue, -2.16, 0.1, 0, -2.2E-14, -1.6E-14, -3.6000000000000004E-14, 229.801685060559
DataValue, -2.1, 0.1, 0, -2.2E-14, -5.9E-14, -3.1E-14, 190.89778386169212
DataValue, -2.04, 0.1, 0, -1.5000000000000002E-14, -3.0000000000000005E-14, -8.8E-14, -2299.47816615351
DataValue, -1.98, 0.1, 0, -6.7E-14, -5.6E-14, -5.9E-14, 778.45910335571239
DataValue, -1.92, 0.1, 0, -3.8E-14, -3.5E-14, -4.4E-14, -3299.6363315745243
DataValue, -1.86, 0.1, 0, -1.1E-14, -5.4000000000000003E-14, -3.1E-14, -141.62670013725978
DataValue, -1.8, 0.1, 0, -1.1E-14, -1.5000000000000002E-14, -4.7E-14, -140.59921476826773
DataValue, -1.74, 0.1, 0, 2.7000000000000002E-14, -2.3000000000000003E-14, -5.4000000000000003E-14, 204.15570336217672
DataValue, -1.68, 0.1, 0, 1.8000000000000002E-14, -2.7000000000000002E-14, -3.9000000000000004E-14, 332.397684139329
DataValue, -1.62, 0.1, 0, -2.6000000000000003E-14, -3.3000000000000005E-14, -1.5000000000000002E-14, 287.263318482432
DataValue, -1.56, 0.1, 0, -6.0000000000000005E-15, -4.1E-14, -3.5E-14, -42.805770109797756
DataValue, -1.5, 0.1, 0, -2.5E-14, 2E-15, -4.9000000000000006E-14, -287.26331848243245
DataValue, -1.44, 0.1, 0, -5.1000000000000004E-14, -2.7000000000000002E-14, -7.1E-14, 34.944801146395505
DataValue, -1.3800000000000001, 0.1, 0, -3.9000000000000004E-14, -6.2E-14, -7.3E-14, 183.09237922696855
DataValue, -1.32, 0.1, 0, 2.3000000000000003E-14, -5.2000000000000006E-14, -1.1E-14, -58.602539139995059
DataValue, -1.26, 0.1, 0, -2.2E-14, -8E-15, -5.4000000000000003E-14, -978.77428381516427
DataValue, -1.2, 0.1, 0, -1.4E-14, -4.6000000000000006E-14, -5.3E-14, 118.62385513363361
DataValue, -1.1400000000000001, 0.1, 0, -1.3000000000000001E-14, -2.2E-14, -3.9000000000000004E-14, -1779.3256383106987
DataValue, -1.08, 0.1, 0, -1.0000000000000002E-14, -4.3000000000000006E-14, -5.4000000000000003E-14, -60.22795786102656
DataValue, -1.02, 0.1, 0, -3.2E-14, -3.0000000000000002E-15, -3.9000000000000004E-14, -510.98709314498916
DataValue, -0.96, 0.1, 0, -3.9000000000000004E-14, -3.4E-14, -1.8000000000000002E-14, -295.95641548517489
DataValue, -0.9, 0.1, 0, 5.0000000000000008E-15, -2E-15, -5.3E-14, -390.26332073876222
DataValue, -0.84, 0.1, 0, -5.9E-14, -2.5E-14, -1.9E-14, 295.95641548517489
DataValue, -0.78, 0.1, 0, 1E-15, -3.0000000000000002E-15, -4.9000000000000006E-14, 119.924222245522
DataValue, -0.72, 0.1, 0, -3.8E-14, -6.8E-14, -2.7000000000000002E-14, 56.596738071090165
DataValue, -0.66, 0.1, 0, -2.5E-14, -2.5E-14, -3.5E-14, -307.01034428651747
DataValue, -0.6, 0.1, 0, -2.7000000000000002E-14, -4.6000000000000006E-14, -2.3000000000000003E-14, 1058.8669556602056
DataValue, -0.54, 0.1, 0, -2.4000000000000002E-14, -2.8E-14, -4.9000000000000006E-14, 402.01949325683614
DataValue, -0.48, 0.1, 0, -1.4E-14, -6.2E-14, -2.2E-14, 730.35770825255963
DataValue, -0.42, 0.1, 0, -2.7000000000000002E-14, -3.3000000000000005E-14, -4.9000000000000006E-14, -55.01497646139422
DataValue, -0.36, 0.1, 0, 3.5E-14, -7E-15, -8.3000000000000012E-14, 55.841501888785594
DataValue, -0.3, 0.1, 0, 3.7E-14, 2.83E-13, -3.5500000000000005E-13, 20.023721104212445
DataValue, -0.24, 0.1, 0, -5.0000000000000008E-15, 2.804E-12, -2.778E-12, 27.000548045913987
DataValue, -0.18, 0.1, 0, -3.0000000000000002E-15, 2.4096E-11, -2.4029E-11, 28.409107823121619
DataValue, -0.12, 0.1, 0, -2.0000000000000003E-14, 1.9153E-10, -1.9055500000000002E-10, 30.73640438190963
DataValue, -0.06, 0.1, 0, -3.0000000000000005E-14, 1.19537E-09, -1.19022E-09, 36.738794002651574
DataValue, 0, 0.1, 0, -3.6000000000000004E-14, 5.02081E-09, -5.00773E-09, 48.662757206977034
DataValue, 0.06, 0.1, 0, -3.2E-14, 1.4075099999999999E-08, -1.4051599999999999E-08, 67.741648605565231
DataValue, 0.12, 0.1, 0, 3.7E-14, 2.9518799999999997E-08, -2.9481699999999996E-08, 93.231522827747256
DataValue, 0.18, 0.1, 0, -2.2E-14, 5.0984699999999993E-08, -5.0922399999999993E-08, 123.53018760621941
DataValue, 0.24, 0.1, 0, -2.7000000000000002E-14, 7.797979999999999E-08, -7.79121E-08, 156.31617620223634
DataValue, 0.3, 0.1, 0, -3.5E-14, 1.098593E-07, -1.0978889999999999E-07, 191.36478899842837
DataValue, 0.36, 0.1, 0, -3.0000000000000002E-15, 1.45988E-07, -1.45899E-07, 227.56111966358432
DataValue, 0.42, 0.1, 0, -1E-15, 1.86146E-07, -1.86064E-07, 264.47790477794911
DataValue, 0.48, 0.1, 0, -1.1E-14, 2.29809E-07, -2.2971199999999999E-07, 302.04542952849164
DataValue, 0.54, 0.1, 0, -2.4000000000000002E-14, 2.76946E-07, -2.7685E-07, 340.28617270092934
DataValue, 0.6, 0.1, 0, -5.2000000000000006E-14, 3.26978E-07, -3.26871E-07, 379.29037887511248
DataValue, 0.66, 0.1, 0, -3.5E-14, 3.80012E-07, -3.7988899999999997E-07, 418.71265800694414
DataValue, 0.72, 0.1, 0, -2.4000000000000002E-14, 4.35496E-07, -4.35358E-07, 458.73401769103714
DataValue, 0.78, 0.1, 0, -3.5E-14, 4.93633E-07, -4.93508E-07, 498.72390831774311
DataValue, 0.84, 0.1, 0, -7E-15, 5.53964E-07, -5.53827E-07, 540.01187983250725
DataValue, 0.9, 0.1, 0, -3.0000000000000005E-14, 6.1647E-07, -6.16344E-07, 581.14879296811944
DataValue, 0.96, 0.1, 0, 1E-15, 6.81017E-07, -6.80903E-07, 622.86185909004826
DataValue, 1.02, 0.1, 0, -2.4000000000000002E-14, 7.47451E-07, -7.473E-07, 664.91090188950318
DataValue, 1.08, 0.1, 0, 1.1E-14, 8.15713E-07, -8.15532E-07, 708.71273175179158
DataValue, 1.1400000000000001, 0.1, 0, 1.1E-14, 8.85356E-07, -8.852E-07, 752.12719000048844
DataValue, 1.2, 0.1, 0, -1.3000000000000001E-14, 9.5681499999999988E-07, -9.56658E-07, 794.13031809721292
DataValue, 1.26, 0.1, 0, -3.0000000000000005E-14, 1.0297779999999999E-06, -1.029592E-06, 837.706880570436
DataValue, 1.32, 0.1, 0, -2.3000000000000003E-14, 1.10418E-06, -1.103978E-06, 883.33300118697287
DataValue, 1.3800000000000001, 0.1, 0, -8E-15, 1.17962E-06, -1.17969E-06, 928.14052326059118
DataValue, 1.44, 0.1, 0, 9.0000000000000011E-15, 1.25658E-06, -1.2566900000000001E-06, 971.60718920353679
DataValue, 1.5, 0.1, 0, 3.0000000000000002E-15, 1.33469E-06, -1.3348500000000002E-06, 1016.4571982751685
DataValue, 1.56, 0.1, 0, 1E-15, 1.4140400000000002E-06, -1.4141700000000002E-06, 1063.0899008705483
DataValue, 1.62, 0.1, 0, -4E-15, 1.4941800000000001E-06, -1.4943500000000001E-06, 1108.8827707673522
DataValue, 1.68, 0.1, 0, -3.2E-14, 1.5756500000000001E-06, -1.5757900000000002E-06, 1153.2629880339091
DataValue, 1.74, 0.1, 0, -2.6000000000000003E-14, 1.6580300000000002E-06, -1.6581100000000001E-06, 1202.9193446747267
DataValue, 1.8, 0.1, 0, -2.3000000000000003E-14, 1.7409400000000002E-06, -1.7410000000000001E-06, 1250.2251373170936
DataValue, 1.86, 0.1, 0, -1.2000000000000001E-14, 1.8250600000000003E-06, -1.8250700000000001E-06, 1297.2236006604612
DataValue, 1.92, 0.1, 0, -5.3E-14, 1.90967E-06, -1.90965E-06, 1347.2355077007442
DataValue, 1.98, 0.1, 0, -2E-15, 1.99508E-06, -1.9950900000000003E-06, 1396.3666181050594
DataValue, 2.04, 0.1, 0, -4.9000000000000006E-14, 2.0810400000000003E-06, -2.0809900000000002E-06, 1444.6416619133997
DataValue, 2.1, 0.1, 0, -2.0000000000000003E-14, 2.1678800000000003E-06, -2.16787E-06, 1493.5722897415783
DataValue, 2.16, 0.1, 0, -2.1000000000000002E-14, 2.25514E-06, -2.2550600000000004E-06, 1543.8178880856519
DataValue, 2.22, 0.1, 0, 9.0000000000000011E-15, 2.3431100000000003E-06, -2.34304E-06, 1592.8339122729633
DataValue, 2.2800000000000002, 0.1, 0, -9.0000000000000011E-15, 2.4316E-06, -2.4314800000000002E-06, 1646.3856680015533
DataValue, 2.34, 0.1, 0, -2.2E-14, 2.5202700000000003E-06, -2.5201000000000002E-06, 1699.2196657000363
DataValue, 2.4, 0.1, 0, -3.4E-14, 2.60953E-06, -2.60924E-06, 1750.4871522753547
DataValue, 2.46, 0.1, 0, -4E-15, 2.6991E-06, -2.6988600000000003E-06, 1802.9928219473063
DataValue, 2.52, 0.1, 0, 4E-15, 2.7891200000000002E-06, -2.78884E-06, 1855.6597360538233
DataValue, 2.58, 0.1, 0, -2.9E-14, 2.87941E-06, -2.8791100000000004E-06, 1909.636451306322
DataValue, 2.64, 0.1, 0, -1.9E-14, 2.9700100000000002E-06, -2.9695700000000004E-06, 1968.497016083674
DataValue, 2.7, 0.1, 0, -9.0000000000000011E-15, 3.0604000000000004E-06, -3.0599900000000005E-06, 2024.1326567832925
DataValue, 2.7600000000000002, 0.1, 0, -1.5000000000000002E-14, 3.1514100000000003E-06, -3.1508900000000003E-06, 2075.0529082566154
DataValue, 2.82, 0.1, 0, 1.9E-14, 3.2426000000000005E-06, -3.2420600000000004E-06, 2130.34852087348
DataValue, 2.88, 0.1, 0, -1.7E-14, 3.3340200000000003E-06, -3.3333900000000003E-06, 2187.3744257982189
DataValue, 2.94, 0.1, 0, -3.9000000000000004E-14, 3.4254600000000002E-06, -3.42486E-06, 2244.8721488977917
DataValue, 3, 0.1, 0, -1.9E-14, 3.5170900000000003E-06, -3.5164200000000005E-06, 2272.8844899825144
DataValue, -3, 0.8, 0, -1.7E-13, -1.6E-14, -2.9E-14, 76.651912013617576
DataValue, -2.94, 0.8, 0, -6.2E-14, -3.5E-14, -3.5E-14, -145.15919958799165
DataValue, -2.88, 0.8, 0, -6.5E-14, 7E-15, -2.0000000000000003E-14, 379.9236328833851
DataValue, -2.82, 0.8, 0, -6.7E-14, -4.8000000000000004E-14, -2.0000000000000003E-14, 70.935568775014374
DataValue, -2.7600000000000002, 0.8, 0, -6.5E-14, -3.8E-14, -4.7E-14, -417.12713961386515
DataValue, -2.7, 0.8, 0, -9.0000000000000011E-15, -3.6000000000000004E-14, -1.9E-14, 818.53449013728414
DataValue, -2.64, 0.8, 0, -5.5000000000000005E-14, -4.4E-14, -5E-14, -117.81227540962615
DataValue, -2.58, 0.8, 0, -3.6000000000000004E-14, -1.3000000000000001E-14, -6.1E-14, -245.72400912683969
DataValue, -2.52, 0.8, 0, -3.7E-14, -2.7000000000000002E-14, -3.6000000000000004E-14, 86.561702453337872
DataValue, -2.46, 0.8, 0, -1.6E-14, -5.2000000000000006E-14, -7.2000000000000009E-14, 380.85439057573154
DataValue, -2.4, 0.8, 0, -5.3E-14, -3.7E-14, -2.9E-14, -101.81096281139155
DataValue, -2.34, 0.8, 0, -4E-15, -1.6E-14, -3.3000000000000005E-14, 692.55386347904914
DataValue, -2.2800000000000002, 0.8, 0, -2.1000000000000002E-14, -4.4E-14, -6.0000000000000009E-14, 138.72873467542274
DataValue, -2.22, 0.8, 0, -3.4E-14, -3.8E-14, -4.6000000000000006E-14, -80.993272283807116
DataValue, -2.16, 0.8, 0, -4.5000000000000004E-14, 1.0000000000000002E-14, -1.9E-14, -120.17680049022245
DataValue, -2.1, 0.8, 0, -1.2000000000000001E-14, -1.4E-14, -1.6E-14, 69.655402047697137
DataValue, -2.04, 0.8, 0, -5.700000000000001E-14, -5.6E-14, -3.8E-14, 104.79138484617252
DataValue, -1.98, 0.8, 0, -4.9000000000000006E-14, -4.4E-14, -5.3E-14, -2179.4494300457782
DataValue, -1.92, 0.8, 0, -1.6E-14, -5.3E-14, -5.5000000000000005E-14, -597.9946385476776
DataValue, -1.86, 0.8, 0, -4.2000000000000004E-14, -3.6000000000000004E-14, -1.0400000000000001E-13, -129.62190170785493
DataValue, -1.8, 0.8, 0, -3.5E-14, -2.1000000000000002E-14, -1.1400000000000002E-13, 1499.199658380335
DataValue, -1.74, 0.8, 0, -2.9E-14, -3.9000000000000004E-14, -4.6000000000000006E-14, 132.34496921308335
DataValue, -1.68, 0.8, 0, -1.7E-14, -5.2000000000000006E-14, -5.2000000000000006E-14, 447.320572258947
DataValue, -1.62, 0.8, 0, -5.2000000000000006E-14, -5.1000000000000004E-14, -2.9E-14, -81.836572609285412
DataValue, -1.56, 0.8, 0, -3.1E-14, -1.2000000000000001E-14, -3.0000000000000005E-14, 259.39018296060567
DataValue, -1.5, 0.8, 0, -4.9000000000000006E-14, -8.1000000000000008E-14, -5.3E-14, 80.787121649441829
DataValue, -1.44, 0.8, 0, 1E-15, -5.3E-14, -3.6000000000000004E-14, -229.33669508438385
DataValue, -1.3800000000000001, 0.8, 0, -4.7E-14, -4.8000000000000004E-14, -4.5000000000000004E-14, -515.85769051655541
DataValue, -1.32, 0.8, 0, -5.8E-14, -4.2000000000000004E-14, -6.8E-14, -379.9236328833851
DataValue, -1.26, 0.8, 0, -8E-15, -3.5E-14, -6.6000000000000009E-14, 321.53975020795286
DataValue, -1.2, 0.8, 0, -2.1000000000000002E-14, -6.1E-14, -4.5000000000000004E-14, -403.69851969134123
DataValue, -1.1400000000000001, 0.8, 0, -4.1E-14, -2.6000000000000003E-14, -4.0000000000000006E-14, 621.14621146093566
DataValue, -1.08, 0.8, 0, -3.3000000000000005E-14, -7.4E-14, -2.2E-14, 149.56132308074714
DataValue, -1.02, 0.8, 0, -1.9E-14, -5.8E-14, -8.2E-14, -132.90983658619393
