
SetupTitle, I/V Sweep - Unit (transfer)
PrimitiveTest, I/V Sweep
TestParameter, Context.MainFrame, B1500A
TestParameter, Channel.UnitType, SMU, SMU, SMU
TestParameter, Channel.Unit, SMU3:HR, SMU1:HR, SMU2:HR
TestParameter, Channel.IName, IG, ID, IS
TestParameter, Channel.VName, VG, VD, VS
TestParameter, Channel.Mode, V, V, COMMON
TestParameter, Channel.Func, VAR1, VAR2, CONST
TestParameter, Channel.Index, 
TestParameter, Channel.Time, 
TestParameter, Measurement.Port.Unit, SMU3:HR, SMU1:HR, SMU2:HR
TestParameter, Measurement.Port.SeriesResistor, NONE, NONE, NONE
TestParameter, Measurement.Port.Filter, ON, ON, ON
TestParameter, Measurement.Port.OutputVoltageComparison, 0, 0, 0
TestParameter, Measurement.Primary.Locus, Single
TestParameter, Measurement.Primary.Scale, LINEAR
TestParameter, Measurement.Primary.Start, -3
TestParameter, Measurement.Primary.Stop, 3
TestParameter, Measurement.Primary.Step, 0.06
TestParameter, Measurement.Primary.Compliance, 0.1
TestParameter, Measurement.Primary.PowerCompliance, 0
TestParameter, Measurement.Aborting.Condition, CONTINUE AT ANY
TestParameter, Measurement.PostOutput.Value, START
TestParameter, Measurement.PostOutput.Retention, OFF
TestParameter, Measurement.Secondary.Start, 0.1
TestParameter, Measurement.Secondary.Count, 5
TestParameter, Measurement.Secondary.Step, 0.70000000000000007
TestParameter, Measurement.Secondary.Compliance, 0.1
TestParameter, Measurement.Secondary.PowerCompliance, 0
TestParameter, Measurement.Bias.Source, -3, 0.1, 0
TestParameter, Measurement.Bias.Compliance, 0.1, 0.1, 0.1
TestParameter, Measurement.Monitor.Unit, SMU3:HR, SMU1:HR, SMU2:HR
TestParameter, Measurement.Monitor.Adc, HR ADC, HR ADC, HR ADC
TestParameter, Measurement.Monitor.Measurement, Compliance Side, Compliance Side, Compliance Side
TestParameter, Measurement.Monitor.RangingMode, LIMITED, LIMITED, LIMITED
TestParameter, Measurement.Monitor.RangeBoundary, 1nA, 1nA, 1nA
TestParameter, Measurement.Monitor.RangeRating, BY FULL RANGE, BY FULL RANGE, BY FULL RANGE
TestParameter, Measurement.Monitor.RangeRatingCoeff, 50, 50, 50
TestParameter, Measurement.Timing.Hold, 0
TestParameter, Measurement.Timing.Delay, 0
TestParameter, Measurement.Adc.HighSpeed.Mode, PLC
TestParameter, Measurement.Adc.HighSpeed.Coeff, 5
TestParameter, Measurement.Adc.HighResolution.AutoZero, OFF
TestParameter, Measurement.Adc.HighResolution.Mode, PLC
TestParameter, Measurement.Adc.HighResolution.Coeff, 5
TestParameter, Measurement.WaitTime.Source.Coeff, 1
TestParameter, Measurement.WaitTime.Source.Offset, 0
TestParameter, Measurement.WaitTime.Monitor.Coeff, 1
TestParameter, Measurement.WaitTime.Monitor.Offset, 0
TestParameter, Function.User.Name, SS
TestParameter, Function.User.Unit, mV/dec
TestParameter, Function.User.Definition, diff(VG,log(ID))*1000
TestParameter, Output.Graph.Enabled, true
TestParameter, Output.Graph.AutoScaling, false
TestParameter, Output.Graph.XAxis.Data, VG
TestParameter, Output.Graph.XAxis.Scale, Linear
TestParameter, Output.Graph.XAxis.Left, -3
TestParameter, Output.Graph.XAxis.Right, 3
TestParameter, Output.Graph.XAxis.RunTimeAutoScale, true
TestParameter, Output.Graph.YAxis.Data, ID, IG
TestParameter, Output.Graph.YAxis.Scale, Log, Log
TestParameter, Output.Graph.YAxis.Bottom, 0, 1E-15
TestParameter, Output.Graph.YAxis.Top, 0.0001, 1E-12
TestParameter, Output.Graph.YAxis.Group, , 
TestParameter, Output.Graph.YAxis.RunTimeAutoScale, true, true
TestParameter, Output.List.Data, VG, VD, VS, IG, ID, IS, SS
TestParameter, Output.Scalar.Data, SS
TestParameter, AutoAnalysis.Interpolation, false
TestParameter, AutoAnalysis.Var2StepCount, 1
TestParameter, AutoAnalysis.Var2StepScript, 
TestParameter, AutoAnalysis.Line1.Enabled, false
TestParameter, AutoAnalysis.Line1.Type, 1
TestParameter, AutoAnalysis.Line1.Fix, True
TestParameter, AutoAnalysis.Line1.YAxis, 0
TestParameter, AutoAnalysis.Line1.Point1.Type, 0
TestParameter, AutoAnalysis.Line1.Point1.XY.X, 
TestParameter, AutoAnalysis.Line1.Point1.XY.Y, 
TestParameter, AutoAnalysis.Line1.Point1.Data.Var, 
TestParameter, AutoAnalysis.Line1.Point1.Data.Condition, 
TestParameter, AutoAnalysis.Line1.Point1.Data.Start, false
TestParameter, AutoAnalysis.Line1.Point1.Data.StartVar, 
TestParameter, AutoAnalysis.Line1.Point1.Data.StartCondition, 
TestParameter, AutoAnalysis.Line1.Point2.Type, 0
TestParameter, AutoAnalysis.Line1.Point2.XY.X, 
TestParameter, AutoAnalysis.Line1.Point2.XY.Y, 
TestParameter, AutoAnalysis.Line1.Point2.Data.Var, 
TestParameter, AutoAnalysis.Line1.Point2.Data.Condition, 
TestParameter, AutoAnalysis.Line1.Point2.Data.Start, false
TestParameter, AutoAnalysis.Line1.Point2.Data.StartVar, 
TestParameter, AutoAnalysis.Line1.Point2.Data.StartCondition, 
TestParameter, AutoAnalysis.Line1.GradientExpr, 0
TestParameter, AutoAnalysis.Line2.Enabled, false
TestParameter, AutoAnalysis.Line2.Type, 1
TestParameter, AutoAnalysis.Line2.Fix, True
TestParameter, AutoAnalysis.Line2.YAxis, 0
TestParameter, AutoAnalysis.Line2.Point1.Type, 0
TestParameter, AutoAnalysis.Line2.Point1.XY.X, 
TestParameter, AutoAnalysis.Line2.Point1.XY.Y, 
TestParameter, AutoAnalysis.Line2.Point1.Data.Var, 
TestParameter, AutoAnalysis.Line2.Point1.Data.Condition, 
TestParameter, AutoAnalysis.Line2.Point1.Data.Start, false
TestParameter, AutoAnalysis.Line2.Point1.Data.StartVar, 
TestParameter, AutoAnalysis.Line2.Point1.Data.StartCondition, 
TestParameter, AutoAnalysis.Line2.Point2.Type, 0
TestParameter, AutoAnalysis.Line2.Point2.XY.X, 
TestParameter, AutoAnalysis.Line2.Point2.XY.Y, 
TestParameter, AutoAnalysis.Line2.Point2.Data.Var, 
TestParameter, AutoAnalysis.Line2.Point2.Data.Condition, 
TestParameter, AutoAnalysis.Line2.Point2.Data.Start, false
TestParameter, AutoAnalysis.Line2.Point2.Data.StartVar, 
TestParameter, AutoAnalysis.Line2.Point2.Data.StartCondition, 
TestParameter, AutoAnalysis.Line2.GradientExpr, 0
TestParameter, AutoAnalysis.Marker.Enabled, false
TestParameter, AutoAnalysis.Marker.Data.Var, 
TestParameter, AutoAnalysis.Marker.Data.Condition, 
TestParameter, AutoAnalysis.Marker.Data.Start, false
TestParameter, AutoAnalysis.Marker.Data.StartVar, 
TestParameter, AutoAnalysis.Marker.Data.StartCondition, 
MetaData, TestRecord.EntryPoint, true
MetaData, TestRecord.RecordTime, 01/16/2026 10:23:57
MetaData, TestRecord.TestTarget, 251203_ALD_#2_R01
MetaData, TestRecord.IterationIndex, 2
MetaData, TestRecord.Preservation, true
MetaData, TestRecord.Flag, 
MetaData, TestRecord.Remarks, 
MetaData, TestRecord.LinkKey, dea472e2-5889-4d46-b9c7-3150821ef969
MetaData, TestRecord.Parameters, 
Dimension1, 101, 101, 101, 101, 101, 101, 101
Dimension2, 5, 5, 5, 5, 5, 5, 5
DataName, VG, VD, VS, IG, ID, IS, SS
DataValue, -3, 0.1, 0, -1.22E-13, -3.0000000000000005E-14, -4.7E-14, 929.677329793525
DataValue, -2.94, 0.1, 0, -4.5000000000000004E-14, -3.2E-14, 4E-15, -658.1777937296489
DataValue, -2.88, 0.1, 0, -8E-15, -2.5E-14, -3.7E-14, 826.54868966568915
DataValue, -2.82, 0.1, 0, -6.2E-14, -3.7E-14, -4.1E-14, 221.26982329589515
DataValue, -2.7600000000000002, 0.1, 0, -4.0000000000000006E-14, -4.3000000000000006E-14, -5.3E-14, -4379.7260136863451
DataValue, -2.7, 0.1, 0, -4.5000000000000004E-14, -3.6000000000000004E-14, -7E-14, 189.49890582305858
DataValue, -2.64, 0.1, 0, -3.6000000000000004E-14, -8.1000000000000008E-14, -6.3000000000000009E-14, 489.55122661120112
DataValue, -2.58, 0.1, 0, -4.2000000000000004E-14, -4.6000000000000006E-14, -5.700000000000001E-14, -477.48949720415646
DataValue, -2.52, 0.1, 0, -5.700000000000001E-14, -6.3000000000000009E-14, -4.0000000000000006E-14, -120.55115355320142
DataValue, -2.46, 0.1, 0, -4.8000000000000004E-14, -1.7E-14, -5.3E-14, -104.58405392392071
DataValue, -2.4, 0.1, 0, -2.1000000000000002E-14, -2.0000000000000003E-14, -5.4000000000000003E-14, 136.30807182672544
DataValue, -2.34, 0.1, 0, -6.6000000000000009E-14, -4.1E-14, -5.3E-14, 92.683619378250555
DataValue, -2.2800000000000002, 0.1, 0, -2.7000000000000002E-14, -7.3E-14, 1.0000000000000002E-14, -119.34101495460277
DataValue, -2.22, 0.1, 0, -3.5E-14, -1.5000000000000002E-14, -5.2000000000000006E-14, -176.58964900077368
DataValue, -2.16, 0.1, 0, -4E-15, -3.7E-14, -4.4E-14, -537.77041412694871
DataValue, -2.1, 0.1, 0, -4.2000000000000004E-14, 1.2000000000000001E-14, -4.7E-14, 946.732822212541
DataValue, -2.04, 0.1, 0, -1.7E-14, -4.2000000000000004E-14, -4.9000000000000006E-14, 106.57087007780918
DataValue, -1.98, 0.1, 0, -1.9E-14, -3.7E-14, -6.6000000000000009E-14, -39.415048650366217
DataValue, -1.92, 0.1, 0, -4.3000000000000006E-14, -2E-15, -5E-14, 333.9139717866064
DataValue, -1.86, 0.1, 0, -1.6E-14, -5.3E-14, -5.700000000000001E-14, 37.280096073576694
DataValue, -1.8, 0.1, 0, -5.2000000000000006E-14, -5E-14, -6.6000000000000009E-14, -67.679324721025836
DataValue, -1.74, 0.1, 0, 3.0000000000000002E-15, -9.0000000000000011E-15, -4.9000000000000006E-14, 557.8505433496307
DataValue, -1.68, 0.1, 0, -3.2E-14, -6.2E-14, -3.2E-14, 417.12713961386595
DataValue, -1.62, 0.1, 0, -2.6000000000000003E-14, -1.2000000000000001E-14, -3.9000000000000004E-14, -165.3035999553523
DataValue, -1.56, 0.1, 0, 2.2E-14, -3.0000000000000005E-14, -7.8000000000000008E-14, 101.81096281139185
DataValue, -1.5, 0.1, 0, 0, -3.9000000000000004E-14, -4.3000000000000006E-14, 958.74869524567612
DataValue, -1.44, 0.1, 0, -2.7000000000000002E-14, -3.4E-14, -7.7E-14, -155.20120196368015
DataValue, -1.3800000000000001, 0.1, 0, -5.2000000000000006E-14, -1.8000000000000002E-14, -4.3000000000000006E-14, -754.41002341449655
DataValue, -1.32, 0.1, 0, -5.700000000000001E-14, -2.9E-14, -5.2000000000000006E-14, 173.12340490667529
DataValue, -1.26, 0.1, 0, -6.0000000000000009E-14, -3.6000000000000004E-14, -5.6E-14, 346.5441381060873
DataValue, -1.2, 0.1, 0, -2E-15, -4.1E-14, -3.6000000000000004E-14, 922.69983518573451
DataValue, -1.1400000000000001, 0.1, 0, -3.7E-14, -4.1E-14, -2.6000000000000003E-14, -242.57309809876452
DataValue, -1.08, 0.1, 0, -7.1E-14, -2.5E-14, -3.2E-14, -640.9861200945586
DataValue, -1.02, 0.1, 0, -5E-14, -3.4E-14, -7.3E-14, -65.481400076237477
DataValue, -0.96, 0.1, 0, -2.2E-14, -4E-15, -6.8E-14, -958.74869524567521
DataValue, -0.9, 0.1, 0, -1.9E-14, -3.0000000000000005E-14, -1.03E-13, 79.7831283531013
DataValue, -0.84, 0.1, 0, -2.1000000000000002E-14, -1.8000000000000002E-14, -4.9000000000000006E-14, 177.42553886566222
DataValue, -0.78, 0.1, 0, -4.5000000000000004E-14, -5.9E-14, -2.9E-14, 99.670025409904184
DataValue, -0.72, 0.1, 0, -2E-15, -6.0000000000000009E-14, -6.1E-14, -353.07843506592809
DataValue, -0.66, 0.1, 0, -3.8E-14, -4.2000000000000004E-14, -2.8E-14, -125.14987397557567
DataValue, -0.6, 0.1, 0, -6.0000000000000005E-15, -2.3000000000000003E-14, -7.1E-14, 778.45910335569363
DataValue, -0.54, 0.1, 0, -2E-15, -4.9000000000000006E-14, -4.4E-14, 191.78339223776189
DataValue, -0.48, 0.1, 0, -1.5000000000000002E-14, -4.3000000000000006E-14, -7.7E-14, 898.66508273023373
DataValue, -0.42, 0.1, 0, 1.3000000000000001E-14, -5.6E-14, -3.8E-14, -5099.7646971969261
DataValue, -0.36, 0.1, 0, 9.0000000000000011E-15, 4.2000000000000004E-14, -1.3100000000000002E-13, 50.077817233252347
DataValue, -0.3, 0.1, 0, 3.1E-14, 6.15E-13, -7.25E-13, 23.771683316871215
DataValue, -0.24, 0.1, 0, -2.0000000000000003E-14, 6.5400000000000008E-12, -6.5820000000000008E-12, 26.450945533337816
DataValue, -0.18, 0.1, 0, -2.0000000000000003E-14, 5.743E-11, -5.7261000000000007E-11, 28.463817558138516
DataValue, -0.12, 0.1, 0, -2.1000000000000002E-14, 4.43109E-10, -4.4142200000000003E-10, 31.936747807497447
DataValue, -0.06, 0.1, 0, -1.3000000000000001E-14, 2.46019E-09, -2.45119E-09, 40.119343472732972
DataValue, 0, 0.1, 0, 1.1E-14, 8.82101E-09, -8.804E-09, 55.128848666988489
DataValue, 0.06, 0.1, 0, 3.5E-14, 2.1692299999999996E-08, -2.1668999999999997E-08, 77.497162395905647
DataValue, 0.12, 0.1, 0, -5.700000000000001E-14, 4.14953E-08, -4.1460199999999993E-08, 105.84759790909958
DataValue, 0.18, 0.1, 0, 1.7E-14, 6.74012E-08, -6.73579E-08, 138.2773581404123
DataValue, 0.24, 0.1, 0, -5.3E-14, 9.8829999999999992E-08, -9.8776899999999993E-08, 172.62214145708981
DataValue, 0.3, 0.1, 0, 1E-15, 1.35074E-07, -1.35023E-07, 208.99753107498833
DataValue, 0.36, 0.1, 0, -2.8E-14, 1.75488E-07, -1.75427E-07, 246.23644093027102
DataValue, 0.42, 0.1, 0, -4.3000000000000006E-14, 2.19897E-07, -2.19839E-07, 284.082784355463
DataValue, 0.48, 0.1, 0, -2.8E-14, 2.67731E-07, -2.67661E-07, 322.61283707758309
DataValue, 0.54, 0.1, 0, -4.8000000000000004E-14, 3.18978E-07, -3.18899E-07, 361.78705815828528
DataValue, 0.6, 0.1, 0, 4E-15, 3.73034E-07, -3.72948E-07, 401.61855948179118
DataValue, 0.66, 0.1, 0, 1E-15, 4.30055E-07, -4.29948E-07, 441.76893249722241
DataValue, 0.72, 0.1, 0, -2.6000000000000003E-14, 4.89461E-07, -4.89348E-07, 482.52366474016895
DataValue, 0.78, 0.1, 0, -2.1000000000000002E-14, 5.5148E-07, -5.514E-07, 523.14489801270474
DataValue, 0.84, 0.1, 0, -9.0000000000000011E-15, 6.15655E-07, -6.15538E-07, 565.16908364403776
DataValue, 0.9, 0.1, 0, -5.700000000000001E-14, 6.8193299999999994E-07, -6.81829E-07, 606.98513588426829
DataValue, 0.96, 0.1, 0, -3.8E-14, 7.50234E-07, -7.50086E-07, 649.25760534423262
DataValue, 1.02, 0.1, 0, -2.2E-14, 8.20372E-07, -8.20233E-07, 692.2814263722953
DataValue, 1.08, 0.1, 0, -2.0000000000000003E-14, 8.92231E-07, -8.92104E-07, 736.43468453063952
DataValue, 1.1400000000000001, 0.1, 0, -2.4000000000000002E-14, 9.65557E-07, -9.6542E-07, 780.29840654325153
DataValue, 1.2, 0.1, 0, 4E-15, 1.040558E-06, -1.040388E-06, 823.20414487539642
DataValue, 1.26, 0.1, 0, -4.5000000000000004E-14, 1.117084E-06, -1.116928E-06, 868.11791889569736
DataValue, 1.32, 0.1, 0, -6.4E-14, 1.19481E-06, -1.1949300000000002E-06, 913.34702392773283
DataValue, 1.3800000000000001, 0.1, 0, -2.9E-14, 1.2739300000000002E-06, -1.27414E-06, 957.04356618832628
DataValue, 1.44, 0.1, 0, -3.9000000000000004E-14, 1.3544200000000002E-06, -1.3546100000000002E-06, 1001.6393048340924
DataValue, 1.5, 0.1, 0, -1.6E-14, 1.4360700000000001E-06, -1.4362200000000002E-06, 1047.6028009829915
DataValue, 1.56, 0.1, 0, -2.3000000000000003E-14, 1.5188000000000002E-06, -1.5189900000000001E-06, 1094.7805219131321
DataValue, 1.62, 0.1, 0, -1.9E-14, 1.60243E-06, -1.60259E-06, 1141.0360320966679
DataValue, 1.68, 0.1, 0, -1E-15, 1.6872300000000001E-06, -1.6873700000000002E-06, 1186.2696392315579
DataValue, 1.74, 0.1, 0, -5E-14, 1.7730100000000003E-06, -1.7731000000000002E-06, 1235.2768951536907
DataValue, 1.8, 0.1, 0, -4.9000000000000006E-14, 1.85936E-06, -1.8594600000000001E-06, 1283.449111416021
DataValue, 1.86, 0.1, 0, 1.9E-14, 1.94678E-06, -1.9468800000000002E-06, 1331.6889838140157
DataValue, 1.92, 0.1, 0, 6.0000000000000005E-15, 2.0346900000000003E-06, -2.03479E-06, 1381.1481307224681
DataValue, 1.98, 0.1, 0, 2E-15, 2.1234900000000002E-06, -2.1236000000000003E-06, 1430.0919292320195
DataValue, 2.04, 0.1, 0, 1E-15, 2.2127900000000004E-06, -2.2127900000000004E-06, 1479.2668968293281
DataValue, 2.1, 0.1, 0, -1.2000000000000001E-14, 2.3029300000000004E-06, -2.3029300000000004E-06, 1529.5078731990041
DataValue, 2.16, 0.1, 0, -9.0000000000000011E-15, 2.3933900000000004E-06, -2.39338E-06, 1580.4143348420666
DataValue, 2.22, 0.1, 0, -1.4E-14, 2.4846000000000003E-06, -2.4846000000000003E-06, 1628.5277660625211
DataValue, 2.2800000000000002, 0.1, 0, -3.7E-14, 2.5764100000000003E-06, -2.5763000000000002E-06, 1681.9708394768566
DataValue, 2.34, 0.1, 0, -5.0000000000000008E-15, 2.66834E-06, -2.6681600000000003E-06, 1736.4772767595184
DataValue, 2.4, 0.1, 0, -4.1E-14, 2.76075E-06, -2.7605700000000003E-06, 1786.968535082566
DataValue, 2.46, 0.1, 0, -3.4E-14, 2.85368E-06, -2.8534900000000004E-06, 1838.5632596678656
DataValue, 2.52, 0.1, 0, 2.7000000000000002E-14, 2.9469500000000002E-06, -2.9466900000000002E-06, 1892.1725303797969
DataValue, 2.58, 0.1, 0, -6.5E-14, 3.0405200000000005E-06, -3.0401800000000004E-06, 1946.5386911710732
DataValue, 2.64, 0.1, 0, 3.0000000000000002E-15, 3.1343400000000005E-06, -3.1340500000000005E-06, 2005.2306232619142
DataValue, 2.7, 0.1, 0, 6.0000000000000005E-15, 3.2280300000000002E-06, -3.2276800000000003E-06, 2061.8713194934385
DataValue, 2.7600000000000002, 0.1, 0, -2.8E-14, 3.32217E-06, -3.3217600000000003E-06, 2114.0847189268543
DataValue, 2.82, 0.1, 0, -3.0000000000000005E-14, 3.41656E-06, -3.4161100000000005E-06, 2168.8726409432184
DataValue, 2.88, 0.1, 0, -2.8E-14, 3.5111600000000005E-06, -3.51058E-06, 2226.6415609051382
DataValue, 2.94, 0.1, 0, -2.2E-14, 3.6057400000000003E-06, -3.6051200000000006E-06, 2285.3674902891189
DataValue, 3, 0.1, 0, -5.2000000000000006E-14, 3.7004500000000003E-06, -3.6998600000000005E-06, 2314.1529111053296
DataValue, -3, 0.8, 0, -1.3900000000000001E-13, -3.0000000000000002E-15, -1.6E-14, 22.735390901397089
DataValue, -2.94, 0.8, 0, -9.8000000000000012E-14, -4.2000000000000004E-14, -5.8E-14, 109.22870719522011
DataValue, -2.88, 0.8, 0, -1.7E-14, -9.0000000000000011E-15, -3.3000000000000005E-14, -1619.2589881029733
DataValue, -2.82, 0.8, 0, -5.5000000000000005E-14, -3.9000000000000004E-14, -2.2E-14, 69.180172367155947
DataValue, -2.7600000000000002, 0.8, 0, -5.2000000000000006E-14, -5.1000000000000004E-14, -2.5E-14, -69.862833179137539
DataValue, -2.7, 0.8, 0, -9.0000000000000011E-15, -7E-15, -7.6E-14, -257.46115457084289
DataValue, -2.64, 0.8, 0, -4.6000000000000006E-14, -3.2E-14, -5.1000000000000004E-14, 75.927724056135915
DataValue, -2.58, 0.8, 0, -4.5000000000000004E-14, -3.4E-14, -5.2000000000000006E-14, 826.54868966568915
DataValue, -2.52, 0.8, 0, -3.5E-14, -3.7E-14, -5.1000000000000004E-14, 232.24724184632726
DataValue, -2.46, 0.8, 0, -7E-15, -5.700000000000001E-14, -5.1000000000000004E-14, 613.04380311234831
DataValue, -2.4, 0.8, 0, -3.6000000000000004E-14, -4.5000000000000004E-14, -3.1E-14, -425.75664171836974
DataValue, -2.34, 0.8, 0, 6.0000000000000005E-15, -4.3000000000000006E-14, -4.4E-14, -178.79271812600254
DataValue, -2.2800000000000002, 0.8, 0, -2.6000000000000003E-14, -2.3000000000000003E-14, -6.5E-14, -406.140557005856
DataValue, -2.22, 0.8, 0, -4.6000000000000006E-14, -3.2E-14, -5.2000000000000006E-14, 451.63180374216461
DataValue, -2.16, 0.8, 0, -4.4E-14, -3.0000000000000005E-14, -7.3E-14, 127.5261679241378
DataValue, -2.1, 0.8, 0, -5.0000000000000008E-15, -8.2E-14, -3.5E-14, 197.975436021376
DataValue, -2.04, 0.8, 0, -1E-15, -5.5000000000000005E-14, -1.6E-14, -233.05543776551161
DataValue, -1.98, 0.8, 0, -1E-15, -4.9000000000000006E-14, -7.2000000000000009E-14, -209.29770859052172
DataValue, -1.92, 0.8, 0, -3.0000000000000005E-14, -3.1E-14, -4.7E-14, 646.1438952567147
DataValue, -1.86, 0.8, 0, -4.9000000000000006E-14, -5.9E-14, -8.6000000000000012E-14, -138.08374446635563
DataValue, -1.8, 0.8, 0, 3.0000000000000002E-15, -1.3000000000000001E-14, -3.7E-14, -482.12899017690251
DataValue, -1.74, 0.8, 0, -4.9000000000000006E-14, -4.6000000000000006E-14, -5.3E-14, 228.0965116933302
DataValue, -1.68, 0.8, 0, -2.1000000000000002E-14, -2.2E-14, -5.8E-14, 5579.7849396058864
DataValue, -1.62, 0.8, 0, -7.1E-14, -4.7E-14, -6.3000000000000009E-14, 434.38383075954874
DataValue, -1.56, 0.8, 0, -1.5000000000000002E-14, -2.9E-14, -8.3000000000000012E-14, 864.32636708613666
DataValue, -1.5, 0.8, 0, -2.8E-14, -5.4000000000000003E-14, -6.4E-14, 373.15332932636579
DataValue, -1.44, 0.8, 0, -3.1E-14, -4.0000000000000006E-14, -1.8000000000000002E-14, -71.1575394102037
DataValue, -1.3800000000000001, 0.8, 0, -1.0000000000000002E-14, -1.0000000000000002E-14, -3.4E-14, -336.4407902468559
DataValue, -1.32, 0.8, 0, -2.3000000000000003E-14, -2.8E-14, -8.1000000000000008E-14, 144.07334089117612
DataValue, -1.26, 0.8, 0, -1.9E-14, -2.3000000000000003E-14, -3.8E-14, 231.68568509022211
DataValue, -1.2, 0.8, 0, -6.5E-14, -4.7E-14, -5.2000000000000006E-14, 129.73691159806774
DataValue, -1.1400000000000001, 0.8, 0, -1.8000000000000002E-14, -5.8E-14, -8.1000000000000008E-14, -87.89657227250467
DataValue, -1.08, 0.8, 0, -4.0000000000000006E-14, -1.2000000000000001E-14, -4.4E-14, -112.70666842242387
