
SetupTitle, I/V Sweep - Unit (transfer)
PrimitiveTest, I/V Sweep
TestParameter, Context.MainFrame, B1500A
TestParameter, Channel.UnitType, SMU, SMU, SMU
TestParameter, Channel.Unit, SMU3:HR, SMU1:HR, SMU2:HR
TestParameter, Channel.IName, IG, ID, IS
TestParameter, Channel.VName, VG, VD, VS
TestParameter, Channel.Mode, V, V, COMMON
TestParameter, Channel.Func, VAR1, VAR2, CONST
TestParameter, Channel.Index, 
TestParameter, Channel.Time, 
TestParameter, Measurement.Port.Unit, SMU3:HR, SMU1:HR, SMU2:HR
TestParameter, Measurement.Port.SeriesResistor, NONE, NONE, NONE
TestParameter, Measurement.Port.Filter, ON, ON, ON
TestParameter, Measurement.Port.OutputVoltageComparison, 0, 0, 0
TestParameter, Measurement.Primary.Locus, Single
TestParameter, Measurement.Primary.Scale, LINEAR
TestParameter, Measurement.Primary.Start, -3
TestParameter, Measurement.Primary.Stop, 3
TestParameter, Measurement.Primary.Step, 0.06
TestParameter, Measurement.Primary.Compliance, 0.1
TestParameter, Measurement.Primary.PowerCompliance, 0
TestParameter, Measurement.Aborting.Condition, CONTINUE AT ANY
TestParameter, Measurement.PostOutput.Value, START
TestParameter, Measurement.PostOutput.Retention, OFF
TestParameter, Measurement.Secondary.Start, 0.1
TestParameter, Measurement.Secondary.Count, 5
TestParameter, Measurement.Secondary.Step, 0.70000000000000007
TestParameter, Measurement.Secondary.Compliance, 0.1
TestParameter, Measurement.Secondary.PowerCompliance, 0
TestParameter, Measurement.Bias.Source, -3, 0.1, 0
TestParameter, Measurement.Bias.Compliance, 0.1, 0.1, 0.1
TestParameter, Measurement.Monitor.Unit, SMU3:HR, SMU1:HR, SMU2:HR
TestParameter, Measurement.Monitor.Adc, HR ADC, HR ADC, HR ADC
TestParameter, Measurement.Monitor.Measurement, Compliance Side, Compliance Side, Compliance Side
TestParameter, Measurement.Monitor.RangingMode, LIMITED, LIMITED, LIMITED
TestParameter, Measurement.Monitor.RangeBoundary, 1nA, 1nA, 1nA
TestParameter, Measurement.Monitor.RangeRating, BY FULL RANGE, BY FULL RANGE, BY FULL RANGE
TestParameter, Measurement.Monitor.RangeRatingCoeff, 50, 50, 50
TestParameter, Measurement.Timing.Hold, 0
TestParameter, Measurement.Timing.Delay, 0
TestParameter, Measurement.Adc.HighSpeed.Mode, PLC
TestParameter, Measurement.Adc.HighSpeed.Coeff, 5
TestParameter, Measurement.Adc.HighResolution.AutoZero, OFF
TestParameter, Measurement.Adc.HighResolution.Mode, PLC
TestParameter, Measurement.Adc.HighResolution.Coeff, 5
TestParameter, Measurement.WaitTime.Source.Coeff, 1
TestParameter, Measurement.WaitTime.Source.Offset, 0
TestParameter, Measurement.WaitTime.Monitor.Coeff, 1
TestParameter, Measurement.WaitTime.Monitor.Offset, 0
TestParameter, Function.User.Name, SS
TestParameter, Function.User.Unit, mV/dec
TestParameter, Function.User.Definition, diff(VG,log(ID))*1000
TestParameter, Output.Graph.Enabled, true
TestParameter, Output.Graph.AutoScaling, false
TestParameter, Output.Graph.XAxis.Data, VG
TestParameter, Output.Graph.XAxis.Scale, Linear
TestParameter, Output.Graph.XAxis.Left, -3
TestParameter, Output.Graph.XAxis.Right, 3
TestParameter, Output.Graph.XAxis.RunTimeAutoScale, true
TestParameter, Output.Graph.YAxis.Data, ID, IG
TestParameter, Output.Graph.YAxis.Scale, Log, Log
TestParameter, Output.Graph.YAxis.Bottom, 0, 1E-15
TestParameter, Output.Graph.YAxis.Top, 0.0001, 1E-12
TestParameter, Output.Graph.YAxis.Group, , 
TestParameter, Output.Graph.YAxis.RunTimeAutoScale, true, true
TestParameter, Output.List.Data, VG, VD, VS, IG, ID, IS, SS
TestParameter, Output.Scalar.Data, SS
TestParameter, AutoAnalysis.Interpolation, false
TestParameter, AutoAnalysis.Var2StepCount, 1
TestParameter, AutoAnalysis.Var2StepScript, 
TestParameter, AutoAnalysis.Line1.Enabled, false
TestParameter, AutoAnalysis.Line1.Type, 1
TestParameter, AutoAnalysis.Line1.Fix, True
TestParameter, AutoAnalysis.Line1.YAxis, 0
TestParameter, AutoAnalysis.Line1.Point1.Type, 0
TestParameter, AutoAnalysis.Line1.Point1.XY.X, 
TestParameter, AutoAnalysis.Line1.Point1.XY.Y, 
TestParameter, AutoAnalysis.Line1.Point1.Data.Var, 
TestParameter, AutoAnalysis.Line1.Point1.Data.Condition, 
TestParameter, AutoAnalysis.Line1.Point1.Data.Start, false
TestParameter, AutoAnalysis.Line1.Point1.Data.StartVar, 
TestParameter, AutoAnalysis.Line1.Point1.Data.StartCondition, 
TestParameter, AutoAnalysis.Line1.Point2.Type, 0
TestParameter, AutoAnalysis.Line1.Point2.XY.X, 
TestParameter, AutoAnalysis.Line1.Point2.XY.Y, 
TestParameter, AutoAnalysis.Line1.Point2.Data.Var, 
TestParameter, AutoAnalysis.Line1.Point2.Data.Condition, 
TestParameter, AutoAnalysis.Line1.Point2.Data.Start, false
TestParameter, AutoAnalysis.Line1.Point2.Data.StartVar, 
TestParameter, AutoAnalysis.Line1.Point2.Data.StartCondition, 
TestParameter, AutoAnalysis.Line1.GradientExpr, 0
TestParameter, AutoAnalysis.Line2.Enabled, false
TestParameter, AutoAnalysis.Line2.Type, 1
TestParameter, AutoAnalysis.Line2.Fix, True
TestParameter, AutoAnalysis.Line2.YAxis, 0
TestParameter, AutoAnalysis.Line2.Point1.Type, 0
TestParameter, AutoAnalysis.Line2.Point1.XY.X, 
TestParameter, AutoAnalysis.Line2.Point1.XY.Y, 
TestParameter, AutoAnalysis.Line2.Point1.Data.Var, 
TestParameter, AutoAnalysis.Line2.Point1.Data.Condition, 
TestParameter, AutoAnalysis.Line2.Point1.Data.Start, false
TestParameter, AutoAnalysis.Line2.Point1.Data.StartVar, 
TestParameter, AutoAnalysis.Line2.Point1.Data.StartCondition, 
TestParameter, AutoAnalysis.Line2.Point2.Type, 0
TestParameter, AutoAnalysis.Line2.Point2.XY.X, 
TestParameter, AutoAnalysis.Line2.Point2.XY.Y, 
TestParameter, AutoAnalysis.Line2.Point2.Data.Var, 
TestParameter, AutoAnalysis.Line2.Point2.Data.Condition, 
TestParameter, AutoAnalysis.Line2.Point2.Data.Start, false
TestParameter, AutoAnalysis.Line2.Point2.Data.StartVar, 
TestParameter, AutoAnalysis.Line2.Point2.Data.StartCondition, 
TestParameter, AutoAnalysis.Line2.GradientExpr, 0
TestParameter, AutoAnalysis.Marker.Enabled, false
TestParameter, AutoAnalysis.Marker.Data.Var, 
TestParameter, AutoAnalysis.Marker.Data.Condition, 
TestParameter, AutoAnalysis.Marker.Data.Start, false
TestParameter, AutoAnalysis.Marker.Data.StartVar, 
TestParameter, AutoAnalysis.Marker.Data.StartCondition, 
MetaData, TestRecord.EntryPoint, true
MetaData, TestRecord.RecordTime, 01/16/2026 10:40:38
MetaData, TestRecord.TestTarget, 251203_ALD_#6_R00
MetaData, TestRecord.IterationIndex, 6
MetaData, TestRecord.Preservation, true
MetaData, TestRecord.Flag, 
MetaData, TestRecord.Remarks, 
MetaData, TestRecord.LinkKey, 720c656c-b563-4b54-9afd-d4b83c8fe5bd
MetaData, TestRecord.Parameters, 
Dimension1, 101, 101, 101, 101, 101, 101, 101
Dimension2, 5, 5, 5, 5, 5, 5, 5
DataName, VG, VD, VS, IG, ID, IS, SS
DataValue, -3, 0.1, 0, -1.4500000000000001E-13, -1.2000000000000001E-14, -5.6E-14, 749.5998291901675
DataValue, -2.94, 0.1, 0, -7E-14, -1.3000000000000001E-14, -4.8000000000000004E-14, 76.164538622412792
DataValue, -2.88, 0.1, 0, -5.700000000000001E-14, -5.8E-14, -3.5E-14, 80.241062710273567
DataValue, -2.82, 0.1, 0, -7.3E-14, -5.8E-14, -7.1E-14, -711.6479047607163
DataValue, -2.7600000000000002, 0.1, 0, -1.9E-14, -4.9000000000000006E-14, -5.6E-14, -634.10870858060787
DataValue, -2.7, 0.1, 0, -5.8E-14, -4.8000000000000004E-14, -5.5000000000000005E-14, -262.10425080840264
DataValue, -2.64, 0.1, 0, -5.6E-14, -3.1E-14, -1.0100000000000001E-13, 268.88520706347219
DataValue, -2.58, 0.1, 0, -9.1E-14, -7.5000000000000009E-14, -8.1000000000000008E-14, 321.99613105058921
DataValue, -2.52, 0.1, 0, -7.8000000000000008E-14, -4.5000000000000004E-14, -6.4E-14, 9059.8675481208011
DataValue, -2.46, 0.1, 0, -6.0000000000000009E-14, -7.6E-14, -9.0000000000000008E-14, 658.1777937296489
DataValue, -2.4, 0.1, 0, -5.9E-14, -5.4000000000000003E-14, -1.03E-13, -133.81713643269617
DataValue, -2.34, 0.1, 0, -5.700000000000001E-14, -3.1E-14, -9.6000000000000007E-14, -6419.8130797584936
DataValue, -2.2800000000000002, 0.1, 0, -7.2000000000000009E-14, -5.3E-14, -5.9E-14, 251.02722382566478
DataValue, -2.22, 0.1, 0, -5.3E-14, -5E-14, -5.3E-14, 1649.2724706461543
DataValue, -2.16, 0.1, 0, -9.0000000000000008E-14, -5.700000000000001E-14, -1.7E-14, 242.57309809876495
DataValue, -2.1, 0.1, 0, -4.5000000000000004E-14, -8.2E-14, -3.4E-14, 742.384289939064
DataValue, -2.04, 0.1, 0, -4.8000000000000004E-14, -6.7E-14, -4.0000000000000006E-14, 3339.6406876396145
DataValue, -1.98, 0.1, 0, -7.8000000000000008E-14, -8.5E-14, -5.6E-14, -232.64237533671906
DataValue, -1.92, 0.1, 0, -6.1E-14, -4.0000000000000006E-14, -2.1000000000000002E-14, -98.057206329873566
DataValue, -1.86, 0.1, 0, -2.9E-14, -2.5E-14, -7.2000000000000009E-14, 457.37936240500426
DataValue, -1.8, 0.1, 0, -6.6000000000000009E-14, -5.2000000000000006E-14, -8.0000000000000013E-14, -938.722014311596
DataValue, -1.74, 0.1, 0, -4.3000000000000006E-14, -2.2E-14, -8.3000000000000012E-14, 295.95641548517256
DataValue, -1.68, 0.1, 0, -5.9E-14, -7.8000000000000008E-14, -6.5E-14, 119.60505110060709
DataValue, -1.62, 0.1, 0, -6.1E-14, -6.0000000000000009E-14, -4.6000000000000006E-14, -1811.3375546007114
DataValue, -1.56, 0.1, 0, -8.3000000000000012E-14, -7.3E-14, -9.3000000000000008E-14, 344.52395539545415
DataValue, -1.5, 0.1, 0, -5.8E-14, -8.5E-14, -8.8E-14, -272.53412071107022
DataValue, -1.44, 0.1, 0, -4.8000000000000004E-14, -4.7E-14, -5.700000000000001E-14, -108.06461489324531
DataValue, -1.3800000000000001, 0.1, 0, -4.4E-14, -2.8E-14, -7.9E-14, -178.54651406276213
DataValue, -1.32, 0.1, 0, -8.1000000000000008E-14, -2.4000000000000002E-14, -8.8E-14, 121.79234444848461
DataValue, -1.26, 0.1, 0, -4.6000000000000006E-14, -7.5000000000000009E-14, -6.2E-14, 105.31541991541288
DataValue, -1.2, 0.1, 0, -4.0000000000000006E-14, -7.5000000000000009E-14, -8.3000000000000012E-14, 3059.6078029234477
DataValue, -1.1400000000000001, 0.1, 0, -5.2000000000000006E-14, -7.8000000000000008E-14, -4.0000000000000006E-14, 486.10533143105249
DataValue, -1.08, 0.1, 0, -6.9000000000000009E-14, -9.6000000000000007E-14, -1.12E-13, -282.43056375115282
DataValue, -1.02, 0.1, 0, -9.2000000000000012E-14, -5.1000000000000004E-14, -7.6E-14, -397.78788245667397
DataValue, -0.96, 0.1, 0, -4.7E-14, -7.1E-14, -9.9000000000000007E-14, 417.12713961386635
DataValue, -0.9, 0.1, 0, -3.7E-14, -6.8E-14, -6.7E-14, 463.12609339795205
DataValue, -0.84, 0.1, 0, -6.5E-14, -9.2000000000000012E-14, -8.5E-14, -146.64363451349522
DataValue, -0.78, 0.1, 0, -6.4E-14, -3.0000000000000005E-14, -6.1E-14, -260.10870963754655
DataValue, -0.72, 0.1, 0, -5.5000000000000005E-14, -5.8E-14, -6.1E-14, -3539.6609909771823
DataValue, -0.66, 0.1, 0, -7.5000000000000009E-14, -2.9E-14, -3.0000000000000005E-14, 260.10870963754655
DataValue, -0.6, 0.1, 0, -6.8E-14, -9.2000000000000012E-14, -1E-15, 273.12040485510852
DataValue, -0.54, 0.1, 0, -9.4E-14, -4.5000000000000004E-14, -4.9000000000000006E-14, -1042.8495605600008
DataValue, -0.48, 0.1, 0, -4.8000000000000004E-14, -8.2E-14, -6.7E-14, 160.59647633406573
DataValue, -0.42, 0.1, 0, -4.7E-14, -9.5000000000000012E-14, -6.3000000000000009E-14, -484.19083845326725
DataValue, -0.36, 0.1, 0, -1E-15, -6.4E-14, -1.1300000000000001E-13, 158.03424626385697
DataValue, -0.3, 0.1, 0, 1.3000000000000001E-14, 2.0300000000000002E-13, -2.93E-13, 33.833030841200639
DataValue, -0.24, 0.1, 0, 2E-15, 2.2210000000000003E-12, -2.328E-12, 26.210833489088955
DataValue, -0.18, 0.1, 0, -5.9E-14, 1.9761E-11, -1.9780000000000002E-11, 28.012425856453255
DataValue, -0.12, 0.1, 0, -5.6E-14, 1.61059E-10, -1.60472E-10, 30.209236733687497
DataValue, -0.06, 0.1, 0, -5.8E-14, 1.049433E-09, -1.0454610000000001E-09, 35.748042311926675
DataValue, 0, 0.1, 0, 9.0000000000000011E-15, 4.62207E-09, -4.60571E-09, 46.930821655121882
DataValue, 0.06, 0.1, 0, -4.8000000000000004E-14, 1.3533999999999999E-08, -1.3519299999999998E-08, 65.071798964057862
DataValue, 0.12, 0.1, 0, -3.0000000000000005E-14, 2.92231E-08, -2.9193799999999996E-08, 89.99027485079867
DataValue, 0.18, 0.1, 0, -6.6000000000000009E-14, 5.1350899999999996E-08, -5.1310899999999997E-08, 120.1074321837918
DataValue, 0.24, 0.1, 0, -5.3E-14, 7.9365599999999989E-08, -7.93099E-08, 152.97526916631355
DataValue, 0.3, 0.1, 0, -2.3000000000000003E-14, 1.125191E-07, -1.1246239999999999E-07, 188.24222586498544
DataValue, 0.36, 0.1, 0, 1.3000000000000001E-14, 1.50136E-07, -1.50073E-07, 224.54937017207342
DataValue, 0.42, 0.1, 0, -4.9000000000000006E-14, 1.92006E-07, -1.91926E-07, 261.66067280394464
DataValue, 0.48, 0.1, 0, -3.9000000000000004E-14, 2.37496E-07, -2.37432E-07, 299.49383274900038
DataValue, 0.54, 0.1, 0, -6.0000000000000009E-14, 2.86633E-07, -2.8656299999999997E-07, 337.8741990668172
DataValue, 0.6, 0.1, 0, -8.6000000000000012E-14, 3.38767E-07, -3.38668E-07, 377.14954513081238
DataValue, 0.66, 0.1, 0, -1.9E-14, 3.94011E-07, -3.93916E-07, 416.82670985709439
DataValue, 0.72, 0.1, 0, -4.2000000000000004E-14, 4.51783E-07, -4.5169099999999996E-07, 457.04711794909031
DataValue, 0.78, 0.1, 0, -3.1E-14, 5.12312E-07, -5.12222E-07, 497.359547032852
DataValue, 0.84, 0.1, 0, -4.5000000000000004E-14, 5.75061E-07, -5.74956E-07, 539.02684525189022
DataValue, 0.9, 0.1, 0, -3.6000000000000004E-14, 6.40057E-07, -6.3995899999999994E-07, 580.33253533215645
DataValue, 0.96, 0.1, 0, -5.3E-14, 7.07158E-07, -7.07012E-07, 622.29384083558909
DataValue, 1.02, 0.1, 0, -4.7E-14, 7.76186E-07, -7.7605E-07, 665.02113248637045
DataValue, 1.08, 0.1, 0, -3.0000000000000005E-14, 8.46999E-07, -8.46859E-07, 709.06628866426718
DataValue, 1.1400000000000001, 0.1, 0, -5.700000000000001E-14, 9.19315E-07, -9.1919E-07, 752.534783257011
DataValue, 1.2, 0.1, 0, -9.0000000000000011E-15, 9.93427E-07, -9.93302E-07, 794.81656419214346
DataValue, 1.26, 0.1, 0, -6.0000000000000009E-14, 1.069137E-06, -1.068993E-06, 838.41574885885814
DataValue, 1.32, 0.1, 0, -3.8E-14, 1.146292E-06, -1.146087E-06, 884.4286404235
DataValue, 1.3800000000000001, 0.1, 0, -2.8E-14, 1.2245E-06, -1.2245700000000001E-06, 929.92902894812642
DataValue, 1.44, 0.1, 0, -3.3000000000000005E-14, 1.3041800000000002E-06, -1.30432E-06, 973.6548356269119
DataValue, 1.5, 0.1, 0, -2.5E-14, 1.3851100000000002E-06, -1.3852700000000001E-06, 1018.6014088486332
DataValue, 1.56, 0.1, 0, -2.4000000000000002E-14, 1.4672400000000002E-06, -1.4674000000000001E-06, 1066.1663889751958
DataValue, 1.62, 0.1, 0, -5.9E-14, 1.5501200000000001E-06, -1.5503000000000002E-06, 1112.7842856929406
DataValue, 1.68, 0.1, 0, -6.7E-14, 1.6343100000000002E-06, -1.63445E-06, 1156.9761037116434
DataValue, 1.74, 0.1, 0, -2.1000000000000002E-14, 1.7195300000000002E-06, -1.7196200000000002E-06, 1206.1578197109202
DataValue, 1.8, 0.1, 0, -5E-14, 1.8052700000000001E-06, -1.8053700000000001E-06, 1254.1988768314159
DataValue, 1.86, 0.1, 0, -7.7E-14, 1.8921800000000002E-06, -1.8922500000000002E-06, 1302.2348409849624
DataValue, 1.92, 0.1, 0, -6.3000000000000009E-14, 1.9795300000000003E-06, -1.9795800000000004E-06, 1352.2478495374357
DataValue, 1.98, 0.1, 0, -5.6E-14, 2.0677700000000004E-06, -2.06784E-06, 1401.8810967130082
DataValue, 2.04, 0.1, 0, -3.5E-14, 2.15644E-06, -2.15644E-06, 1450.5174259914943
DataValue, 2.1, 0.1, 0, -5E-14, 2.2461100000000003E-06, -2.2460400000000004E-06, 1500.8317262917144
DataValue, 2.16, 0.1, 0, -3.6000000000000004E-14, 2.33594E-06, -2.3359600000000003E-06, 1551.8239803198094
DataValue, 2.22, 0.1, 0, -2.9E-14, 2.42669E-06, -2.4266200000000003E-06, 1599.6840597136618
DataValue, 2.2800000000000002, 0.1, 0, -2.3000000000000003E-14, 2.5179100000000003E-06, -2.5177300000000005E-06, 1654.7318067355031
DataValue, 2.34, 0.1, 0, -3.9000000000000004E-14, 2.6092100000000002E-06, -2.6091100000000004E-06, 1708.7638946057832
DataValue, 2.4, 0.1, 0, -1.0000000000000002E-14, 2.7010900000000004E-06, -2.7008600000000004E-06, 1759.9602267298592
DataValue, 2.46, 0.1, 0, -1.5000000000000002E-14, 2.79332E-06, -2.7931400000000002E-06, 1812.9131140018312
DataValue, 2.52, 0.1, 0, -6.1E-14, 2.88593E-06, -2.8855400000000004E-06, 1867.9170216990726
DataValue, 2.58, 0.1, 0, -2.9E-14, 2.97866E-06, -2.9782900000000005E-06, 1922.2676551941459
DataValue, 2.64, 0.1, 0, -3.6000000000000004E-14, 3.0718300000000004E-06, -3.0714500000000005E-06, 1978.8394378876417
DataValue, 2.7, 0.1, 0, -5.700000000000001E-14, 3.1648800000000003E-06, -3.1644700000000004E-06, 2036.1352640304995
DataValue, 2.7600000000000002, 0.1, 0, -4.9000000000000006E-14, 3.2583100000000005E-06, -3.25787E-06, 2089.8219707224303
DataValue, 2.82, 0.1, 0, -2.0000000000000003E-14, 3.3519300000000004E-06, -3.3513900000000004E-06, 2145.7606204173212
DataValue, 2.88, 0.1, 0, 1E-15, 3.4457200000000004E-06, -3.4452300000000005E-06, 2202.0620186821016
DataValue, 2.94, 0.1, 0, -4.7E-14, 3.5396600000000003E-06, -3.5390800000000004E-06, 2260.1524658828789
DataValue, 3, 0.1, 0, -3.6000000000000004E-14, 3.6336100000000005E-06, -3.6328800000000003E-06, 2290.4288939349203
DataValue, -3, 0.8, 0, -2.1400000000000002E-13, -4.0000000000000006E-14, -2.8E-14, -65.481400076237733
DataValue, -2.94, 0.8, 0, -1.17E-13, -1.6E-14, -8.4000000000000008E-14, 247.16388922965456
DataValue, -2.88, 0.8, 0, -9.2000000000000012E-14, -6.5E-14, -8.9000000000000012E-14, 121.38237612331378
DataValue, -2.82, 0.8, 0, -7.4E-14, -4.3000000000000006E-14, -6.3000000000000009E-14, -718.33023563570259
DataValue, -2.7600000000000002, 0.8, 0, -7.9E-14, -5.5000000000000005E-14, -5.2000000000000006E-14, 401.01202756712422
DataValue, -2.7, 0.8, 0, -6.9000000000000009E-14, -5.8E-14, -8.7000000000000008E-14, -349.06903670145635
DataValue, -2.64, 0.8, 0, -6.8E-14, -3.9000000000000004E-14, -7.8000000000000008E-14, 388.34342935905948
DataValue, -2.58, 0.8, 0, -5.5000000000000005E-14, -7.9E-14, -4.6000000000000006E-14, 278.56257877748538
DataValue, -2.52, 0.8, 0, -5.5000000000000005E-14, -6.0000000000000009E-14, -9.2000000000000012E-14, -4679.7435785044918
DataValue, -2.46, 0.8, 0, -4.7E-14, -7.7E-14, -3.0000000000000005E-14, -130.96280015247496
DataValue, -2.4, 0.8, 0, -4.4E-14, -2.4000000000000002E-14, -4.6000000000000006E-14, -338.19833966350438
DataValue, -2.34, 0.8, 0, -5E-14, -5.4000000000000003E-14, -1.09E-13, 116.88629075846389
DataValue, -2.2800000000000002, 0.8, 0, -5.700000000000001E-14, -6.7E-14, -7.1E-14, 778.45910335570943
DataValue, -2.22, 0.8, 0, -5.2000000000000006E-14, -6.3000000000000009E-14, -6.2E-14, -143.30124203764549
DataValue, -2.16, 0.8, 0, -5E-14, -2.9E-14, -7.8000000000000008E-14, 
DataValue, -2.1, 0.8, 0, -5E-14, -6.3000000000000009E-14, -8.5E-14, 115.44862084623502
DataValue, -2.04, 0.8, 0, -4.1E-14, -8.2E-14, -6.6000000000000009E-14, 1138.9465897235648
DataValue, -1.98, 0.8, 0, -5E-14, -7E-14, -4.2000000000000004E-14, -224.08200478189778
DataValue, -1.92, 0.8, 0, -6.4E-14, -4.8000000000000004E-14, -6.8E-14, -271.59598146814966
DataValue, -1.86, 0.8, 0, -2.7000000000000002E-14, -4.5000000000000004E-14, -7.6E-14, -295.956415485172
DataValue, -1.8, 0.8, 0, -7.4E-14, -3.2E-14, -6.4E-14, 218.16343814250652
DataValue, -1.74, 0.8, 0, -7.7E-14, -7.8000000000000008E-14, -6.3000000000000009E-14, 116.04587967314052
DataValue, -1.68, 0.8, 0, -6.9000000000000009E-14, -9.0000000000000008E-14, -3.6000000000000004E-14, -522.70626965444626
DataValue, -1.62, 0.8, 0, -3.6000000000000004E-14, -6.2E-14, -6.3000000000000009E-14, -190.89778386169067
DataValue, -1.56, 0.8, 0, -6.6000000000000009E-14, -4.8000000000000004E-14, -6.7E-14, -433.23366752431804
DataValue, -1.5, 0.8, 0, -5.5000000000000005E-14, -4.7E-14, -3.5E-14, 306.52995699415646
DataValue, -1.44, 0.8, 0, -4.2000000000000004E-14, -7.1E-14, -6.3000000000000009E-14, 156.86829902914707
DataValue, -1.3800000000000001, 0.8, 0, -9.7E-14, -1.0100000000000001E-13, -4.9000000000000006E-14, -410.413611312816
DataValue, -1.32, 0.8, 0, -4.4E-14, -5.3E-14, -8.8E-14, -203.46955398149532
DataValue, -1.26, 0.8, 0, -7.9E-14, -5.6E-14, -8.3000000000000012E-14, 221.98889012540241
DataValue, -1.2, 0.8, 0, -5.4000000000000003E-14, -9.1E-14, -3.7E-14, -1283.0648757388306
DataValue, -1.1400000000000001, 0.8, 0, -7.3E-14, -5.1000000000000004E-14, -8.4000000000000008E-14, -457.3793624050104
