
SetupTitle, Jumbo I/V Sweep
PrimitiveTest, I/V Sweep
TestParameter, Context.MainFrame, B1500A
TestParameter, Channel.UnitType, SMU, SMU, SMU
TestParameter, Channel.Unit, SMU1:HR, SMU2:HR, SMU3:HR
TestParameter, Channel.IName, IG, ID, IS
TestParameter, Channel.VName, VG, VD, VS
TestParameter, Channel.Mode, V, V, COMMON
TestParameter, Channel.Func, VAR1, VAR2, CONST
TestParameter, Channel.Index, 
TestParameter, Channel.Time, 
TestParameter, Measurement.Port.Unit, SMU1:HR, SMU2:HR, SMU3:HR
TestParameter, Measurement.Port.SeriesResistor, NONE, NONE, NONE
TestParameter, Measurement.Port.Filter, ON, ON, ON
TestParameter, Measurement.Port.OutputVoltageComparison, 0, 0, 0
TestParameter, Measurement.Primary.Locus, Single
TestParameter, Measurement.Primary.Scale, LINEAR
TestParameter, Measurement.Primary.Start, -3
TestParameter, Measurement.Primary.Stop, 2
TestParameter, Measurement.Primary.Step, 0.025
TestParameter, Measurement.Primary.Compliance, 0.1
TestParameter, Measurement.Primary.PowerCompliance, 0
TestParameter, Measurement.Aborting.Condition, CONTINUE AT ANY
TestParameter, Measurement.PostOutput.Value, START
TestParameter, Measurement.PostOutput.Retention, OFF
TestParameter, Measurement.Secondary.Start, 0.1
TestParameter, Measurement.Secondary.Count, 8
TestParameter, Measurement.Secondary.Step, 0.2
TestParameter, Measurement.Secondary.Compliance, 0.1
TestParameter, Measurement.Secondary.PowerCompliance, 0
TestParameter, Measurement.Bias.Source, -3, 0.1, 0
TestParameter, Measurement.Bias.Compliance, 0.1, 0.1, 0.1
TestParameter, Measurement.Monitor.Unit, SMU1:HR, SMU2:HR, SMU3:HR
TestParameter, Measurement.Monitor.Adc, HR ADC, HR ADC, HR ADC
TestParameter, Measurement.Monitor.Measurement, Compliance Side, Compliance Side, Compliance Side
TestParameter, Measurement.Monitor.RangingMode, LIMITED, LIMITED, LIMITED
TestParameter, Measurement.Monitor.RangeBoundary, 1nA, 1nA, 1nA
TestParameter, Measurement.Monitor.RangeRating, BY FULL RANGE, BY FULL RANGE, BY FULL RANGE
TestParameter, Measurement.Monitor.RangeRatingCoeff, 50, 50, 50
TestParameter, Measurement.Timing.Hold, 0
TestParameter, Measurement.Timing.Delay, 0
TestParameter, Measurement.Adc.HighSpeed.Mode, AUTO
TestParameter, Measurement.Adc.HighSpeed.Coeff, 1
TestParameter, Measurement.Adc.HighResolution.AutoZero, ON
TestParameter, Measurement.Adc.HighResolution.Mode, PLC
TestParameter, Measurement.Adc.HighResolution.Coeff, 6
TestParameter, Measurement.WaitTime.Source.Coeff, 1
TestParameter, Measurement.WaitTime.Source.Offset, 0
TestParameter, Measurement.WaitTime.Monitor.Coeff, 1
TestParameter, Measurement.WaitTime.Monitor.Offset, 0
TestParameter, Function.User.Name, ID_gexc
TestParameter, Function.User.Unit, A
TestParameter, Function.User.Definition, ID+IG
TestParameter, Output.Graph.Enabled, true
TestParameter, Output.Graph.AutoScaling, false
TestParameter, Output.Graph.XAxis.Data, VG
TestParameter, Output.Graph.XAxis.Scale, Linear
TestParameter, Output.Graph.XAxis.Left, -3
TestParameter, Output.Graph.XAxis.Right, 2
TestParameter, Output.Graph.XAxis.RunTimeAutoScale, false
TestParameter, Output.Graph.YAxis.Data, ID, IG
TestParameter, Output.Graph.YAxis.Scale, Log, Log
TestParameter, Output.Graph.YAxis.Bottom, 0.001, 0.001
TestParameter, Output.Graph.YAxis.Top, 0.01, 0.01
TestParameter, Output.Graph.YAxis.Group, , 
TestParameter, Output.Graph.YAxis.RunTimeAutoScale, true, true
TestParameter, Output.List.Data, VG, VD, ID, IS, IG, ID_gexc
TestParameter, AutoAnalysis.Interpolation, false
TestParameter, AutoAnalysis.Var2StepCount, 1
TestParameter, AutoAnalysis.Var2StepScript, 
TestParameter, AutoAnalysis.Line1.Enabled, false
TestParameter, AutoAnalysis.Line1.Type, 1
TestParameter, AutoAnalysis.Line1.Fix, True
TestParameter, AutoAnalysis.Line1.YAxis, 0
TestParameter, AutoAnalysis.Line1.Point1.Type, 0
TestParameter, AutoAnalysis.Line1.Point1.XY.X, 
TestParameter, AutoAnalysis.Line1.Point1.XY.Y, 
TestParameter, AutoAnalysis.Line1.Point1.Data.Var, 
TestParameter, AutoAnalysis.Line1.Point1.Data.Condition, 
TestParameter, AutoAnalysis.Line1.Point1.Data.Start, false
TestParameter, AutoAnalysis.Line1.Point1.Data.StartVar, 
TestParameter, AutoAnalysis.Line1.Point1.Data.StartCondition, 
TestParameter, AutoAnalysis.Line1.Point2.Type, 0
TestParameter, AutoAnalysis.Line1.Point2.XY.X, 
TestParameter, AutoAnalysis.Line1.Point2.XY.Y, 
TestParameter, AutoAnalysis.Line1.Point2.Data.Var, 
TestParameter, AutoAnalysis.Line1.Point2.Data.Condition, 
TestParameter, AutoAnalysis.Line1.Point2.Data.Start, false
TestParameter, AutoAnalysis.Line1.Point2.Data.StartVar, 
TestParameter, AutoAnalysis.Line1.Point2.Data.StartCondition, 
TestParameter, AutoAnalysis.Line1.GradientExpr, 0
TestParameter, AutoAnalysis.Line2.Enabled, false
TestParameter, AutoAnalysis.Line2.Type, 1
TestParameter, AutoAnalysis.Line2.Fix, True
TestParameter, AutoAnalysis.Line2.YAxis, 0
TestParameter, AutoAnalysis.Line2.Point1.Type, 0
TestParameter, AutoAnalysis.Line2.Point1.XY.X, 
TestParameter, AutoAnalysis.Line2.Point1.XY.Y, 
TestParameter, AutoAnalysis.Line2.Point1.Data.Var, 
TestParameter, AutoAnalysis.Line2.Point1.Data.Condition, 
TestParameter, AutoAnalysis.Line2.Point1.Data.Start, false
TestParameter, AutoAnalysis.Line2.Point1.Data.StartVar, 
TestParameter, AutoAnalysis.Line2.Point1.Data.StartCondition, 
TestParameter, AutoAnalysis.Line2.Point2.Type, 0
TestParameter, AutoAnalysis.Line2.Point2.XY.X, 
TestParameter, AutoAnalysis.Line2.Point2.XY.Y, 
TestParameter, AutoAnalysis.Line2.Point2.Data.Var, 
TestParameter, AutoAnalysis.Line2.Point2.Data.Condition, 
TestParameter, AutoAnalysis.Line2.Point2.Data.Start, false
TestParameter, AutoAnalysis.Line2.Point2.Data.StartVar, 
TestParameter, AutoAnalysis.Line2.Point2.Data.StartCondition, 
TestParameter, AutoAnalysis.Line2.GradientExpr, 0
TestParameter, AutoAnalysis.Marker.Enabled, false
TestParameter, AutoAnalysis.Marker.Data.Var, 
TestParameter, AutoAnalysis.Marker.Data.Condition, 
TestParameter, AutoAnalysis.Marker.Data.Start, false
TestParameter, AutoAnalysis.Marker.Data.StartVar, 
TestParameter, AutoAnalysis.Marker.Data.StartCondition, 
MetaData, TestRecord.EntryPoint, true
MetaData, TestRecord.RecordTime, 12/15/2025 13:47:24
MetaData, TestRecord.TestTarget, WF01_251203_#1_Jumbo_R0
MetaData, TestRecord.IterationIndex, 8
MetaData, TestRecord.Preservation, true
MetaData, TestRecord.Flag, 
MetaData, TestRecord.Remarks, 
MetaData, TestRecord.LinkKey, 878aeca8-41d7-4c1a-bde1-3d88927b7875
MetaData, TestRecord.Parameters, 
Dimension1, 201, 201, 201, 201, 201, 201
Dimension2, 8, 8, 8, 8, 8, 8
DataName, VG, VD, IG, ID, IS, ID_gexc
DataValue, -3, 0.1, -1.2428100000000002E-10, 3.7528E-11, 2.5380000000000003E-12, -8.6753000000000011E-11
DataValue, -2.975, 0.1, -2.156E-11, 2.1922E-11, -5.041E-12, 3.6200000000000028E-13
DataValue, -2.95, 0.1, -1.2333000000000001E-11, 1.8426000000000002E-11, -7.834E-12, 6.0930000000000016E-12
DataValue, -2.9250000000000003, 0.1, -8.083000000000001E-12, 1.6671E-11, -9.095E-12, 8.588E-12
DataValue, -2.9, 0.1, -5.8300000000000008E-12, 1.5473000000000002E-11, -9.863E-12, 9.6430000000000016E-12
DataValue, -2.875, 0.1, -4.444E-12, 1.5304E-11, -1.0391000000000001E-11, 1.086E-11
DataValue, -2.85, 0.1, -3.167E-12, 1.4670000000000003E-11, -1.0922E-11, 1.1503000000000002E-11
DataValue, -2.825, 0.1, -2.698E-12, 1.4315000000000001E-11, -1.1288000000000001E-11, 1.1617000000000001E-11
DataValue, -2.8000000000000003, 0.1, -1.9120000000000003E-12, 1.4152000000000002E-11, -1.1418000000000002E-11, 1.2240000000000001E-11
DataValue, -2.775, 0.1, -1.253E-12, 1.3886000000000001E-11, -1.1923E-11, 1.2633E-11
DataValue, -2.75, 0.1, -1.3710000000000001E-12, 1.3606000000000002E-11, -1.179E-11, 1.2235000000000002E-11
DataValue, -2.725, 0.1, -7.96E-13, 1.3561000000000002E-11, -1.1769000000000001E-11, 1.2765000000000002E-11
DataValue, -2.7, 0.1, -3.28E-13, 1.3215000000000001E-11, -1.1777E-11, 1.2887000000000002E-11
DataValue, -2.6750000000000003, 0.1, -3.8200000000000004E-13, 1.3358E-11, -1.2042E-11, 1.2976E-11
DataValue, -2.65, 0.1, -8.7000000000000008E-14, 1.2983000000000002E-11, -1.2250000000000001E-11, 1.2896000000000002E-11
DataValue, -2.625, 0.1, 1.3800000000000002E-13, 1.3508000000000001E-11, -1.2440000000000001E-11, 1.3646E-11
DataValue, -2.6, 0.1, 2.3000000000000003E-13, 1.3350000000000001E-11, -1.2287E-11, 1.3580000000000002E-11
DataValue, -2.575, 0.1, 4.13E-13, 1.3006000000000002E-11, -1.2230000000000001E-11, 1.3419000000000002E-11
DataValue, -2.5500000000000003, 0.1, 6.55E-13, 1.26E-11, -1.2431000000000002E-11, 1.3255E-11
DataValue, -2.525, 0.1, 6.05E-13, 1.3242E-11, -1.2578E-11, 1.3847000000000001E-11
DataValue, -2.5, 0.1, 6.4500000000000008E-13, 1.2665E-11, -1.2350000000000001E-11, 1.331E-11
DataValue, -2.475, 0.1, 7.4600000000000005E-13, 1.2899000000000002E-11, -1.2651000000000002E-11, 1.3645000000000002E-11
DataValue, -2.45, 0.1, 9.4500000000000011E-13, 1.2621000000000001E-11, -1.2795000000000001E-11, 1.3566000000000001E-11
DataValue, -2.4250000000000003, 0.1, 8.9800000000000011E-13, 1.2358E-11, -1.2689000000000001E-11, 1.3256000000000001E-11
DataValue, -2.4, 0.1, 7.8500000000000009E-13, 1.2408000000000001E-11, -1.2405000000000001E-11, 1.3193000000000002E-11
DataValue, -2.375, 0.1, 1.0790000000000002E-12, 1.2434000000000001E-11, -1.2466000000000001E-11, 1.3513000000000002E-11
DataValue, -2.35, 0.1, 1.157E-12, 1.2645E-11, -1.2589000000000001E-11, 1.3802000000000001E-11
DataValue, -2.325, 0.1, 1.046E-12, 1.2455E-11, -1.2647000000000001E-11, 1.3501E-11
DataValue, -2.3000000000000003, 0.1, 1.2360000000000002E-12, 1.2455E-11, -1.2863000000000001E-11, 1.3691E-11
DataValue, -2.275, 0.1, 1.232E-12, 1.2851000000000002E-11, -1.3090000000000002E-11, 1.4083000000000001E-11
DataValue, -2.25, 0.1, 1.1790000000000001E-12, 1.2432E-11, -1.2333000000000001E-11, 1.3611000000000001E-11
DataValue, -2.225, 0.1, 1.2570000000000002E-12, 1.2024000000000001E-11, -1.2630000000000001E-11, 1.3281000000000002E-11
DataValue, -2.2, 0.1, 1.1080000000000001E-12, 1.2062000000000001E-11, -1.3051000000000002E-11, 1.3170000000000001E-11
DataValue, -2.1750000000000003, 0.1, 1.535E-12, 1.2125E-11, -1.2535E-11, 1.366E-11
DataValue, -2.15, 0.1, 1.37E-12, 1.2404000000000001E-11, -1.2544000000000002E-11, 1.3774E-11
DataValue, -2.125, 0.1, 1.3340000000000002E-12, 1.2245E-11, -1.2505000000000001E-11, 1.3579000000000001E-11
DataValue, -2.1, 0.1, 1.4740000000000002E-12, 1.2557000000000002E-11, -1.2608000000000001E-11, 1.4031000000000001E-11
DataValue, -2.075, 0.1, 1.3980000000000001E-12, 1.2817000000000001E-11, -1.3266000000000001E-11, 1.4215000000000001E-11
DataValue, -2.05, 0.1, 1.429E-12, 1.2545E-11, -1.3269000000000001E-11, 1.3974E-11
DataValue, -2.025, 0.1, 1.4950000000000002E-12, 1.2334000000000001E-11, -1.2458E-11, 1.3829000000000002E-11
DataValue, -2, 0.1, 1.4E-12, 1.2027000000000001E-11, -1.2793000000000002E-11, 1.3427000000000001E-11
DataValue, -1.975, 0.1, 1.4170000000000001E-12, 1.2291000000000001E-11, -1.2933E-11, 1.3708000000000001E-11
DataValue, -1.95, 0.1, 1.5470000000000002E-12, 1.2663000000000001E-11, -1.3175E-11, 1.4210000000000002E-11
DataValue, -1.925, 0.1, 1.408E-12, 1.2625000000000002E-11, -1.3244000000000001E-11, 1.4033000000000002E-11
DataValue, -1.9000000000000001, 0.1, 1.529E-12, 1.2491E-11, -1.2962E-11, 1.402E-11
DataValue, -1.875, 0.1, 1.736E-12, 1.2381E-11, -1.3009000000000002E-11, 1.4117E-11
DataValue, -1.85, 0.1, 1.404E-12, 1.2722000000000002E-11, -1.3393000000000002E-11, 1.4126000000000002E-11
DataValue, -1.825, 0.1, 1.4610000000000001E-12, 1.2607E-11, -1.3502000000000001E-11, 1.4068E-11
DataValue, -1.8, 0.1, 1.5950000000000002E-12, 1.2585000000000001E-11, -1.3297E-11, 1.4180000000000001E-11
DataValue, -1.7750000000000001, 0.1, 1.6600000000000002E-12, 1.2533000000000001E-11, -1.3106000000000002E-11, 1.4193000000000001E-11
DataValue, -1.75, 0.1, 1.8020000000000002E-12, 1.2665E-11, -1.3076000000000001E-11, 1.4467000000000001E-11
DataValue, -1.725, 0.1, 1.5840000000000001E-12, 1.2353000000000001E-11, -1.3268E-11, 1.3937000000000001E-11
DataValue, -1.7, 0.1, 1.6060000000000002E-12, 1.2397E-11, -1.3157000000000001E-11, 1.4003E-11
DataValue, -1.675, 0.1, 1.5930000000000002E-12, 1.2478E-11, -1.3207E-11, 1.4071000000000002E-11
DataValue, -1.6500000000000001, 0.1, 1.5070000000000001E-12, 1.2183000000000002E-11, -1.3185000000000001E-11, 1.3690000000000002E-11
DataValue, -1.625, 0.1, 1.6110000000000001E-12, 1.2457000000000002E-11, -1.3023E-11, 1.4068000000000002E-11
DataValue, -1.6, 0.1, 1.5740000000000002E-12, 1.2382000000000001E-11, -1.3426E-11, 1.3956E-11
DataValue, -1.575, 0.1, 1.4590000000000001E-12, 1.228E-11, -1.3224000000000001E-11, 1.3739E-11
DataValue, -1.55, 0.1, 1.6450000000000002E-12, 1.2668E-11, -1.3177000000000002E-11, 1.4313E-11
DataValue, -1.5250000000000001, 0.1, 1.7290000000000002E-12, 1.2709000000000002E-11, -1.3233E-11, 1.4438000000000001E-11
DataValue, -1.5, 0.1, 1.6010000000000002E-12, 1.2431000000000002E-11, -1.3628000000000001E-11, 1.4032000000000002E-11
DataValue, -1.475, 0.1, 1.581E-12, 1.2559000000000001E-11, -1.3411000000000001E-11, 1.414E-11
DataValue, -1.45, 0.1, 1.669E-12, 1.2417000000000001E-11, -1.3347000000000001E-11, 1.4086000000000001E-11
DataValue, -1.425, 0.1, 1.387E-12, 1.2348E-11, -1.3148000000000002E-11, 1.3735E-11
DataValue, -1.4000000000000001, 0.1, 1.6770000000000002E-12, 1.2731000000000001E-11, -1.3321000000000001E-11, 1.4408E-11
DataValue, -1.375, 0.1, 1.621E-12, 1.2403E-11, -1.3481E-11, 1.4024000000000001E-11
DataValue, -1.35, 0.1, 1.5870000000000002E-12, 1.2151E-11, -1.3086000000000001E-11, 1.3738E-11
DataValue, -1.325, 0.1, 1.665E-12, 1.2006E-11, -1.3107E-11, 1.3671E-11
DataValue, -1.3, 0.1, 1.531E-12, 1.2655E-11, -1.3523E-11, 1.4186000000000001E-11
DataValue, -1.2750000000000001, 0.1, 1.527E-12, 1.2264E-11, -1.3103000000000002E-11, 1.3791E-11
DataValue, -1.25, 0.1, 1.7520000000000002E-12, 1.2526E-11, -1.3292000000000001E-11, 1.4278E-11
DataValue, -1.225, 0.1, 1.5820000000000001E-12, 1.2462000000000001E-11, -1.3270000000000001E-11, 1.4044000000000001E-11
DataValue, -1.2, 0.1, 1.6580000000000002E-12, 1.2513E-11, -1.3219000000000002E-11, 1.4171E-11
DataValue, -1.175, 0.1, 1.5870000000000002E-12, 1.2325000000000002E-11, -1.3452E-11, 1.3912000000000001E-11
DataValue, -1.1500000000000001, 0.1, 1.65E-12, 1.2566000000000001E-11, -1.3325000000000002E-11, 1.4216000000000002E-11
DataValue, -1.125, 0.1, 1.7520000000000002E-12, 1.2417000000000001E-11, -1.3435000000000002E-11, 1.4169E-11
DataValue, -1.1, 0.1, 1.646E-12, 1.2424000000000001E-11, -1.3426E-11, 1.4070000000000001E-11
DataValue, -1.075, 0.1, 1.5970000000000002E-12, 1.2278E-11, -1.3314000000000001E-11, 1.3875E-11
DataValue, -1.05, 0.1, 1.5240000000000002E-12, 1.2457000000000002E-11, -1.3778E-11, 1.3981000000000002E-11
DataValue, -1.025, 0.1, 1.7180000000000002E-12, 1.2704E-11, -1.3302000000000001E-11, 1.4422000000000001E-11
DataValue, -1, 0.1, 1.7000000000000002E-12, 1.2766000000000001E-11, -1.3494E-11, 1.4466E-11
DataValue, -0.975, 0.1, 1.73E-12, 1.2524000000000001E-11, -1.3753000000000001E-11, 1.4254000000000001E-11
DataValue, -0.95000000000000007, 0.1, 1.4910000000000002E-12, 1.2844000000000001E-11, -1.3952E-11, 1.4335000000000001E-11
DataValue, -0.925, 0.1, 1.694E-12, 1.3628000000000001E-11, -1.4965E-11, 1.5322000000000003E-11
DataValue, -0.9, 0.1, 1.4820000000000002E-12, 1.4587E-11, -1.5327E-11, 1.6069E-11
DataValue, -0.875, 0.1, 1.508E-12, 1.5717000000000002E-11, -1.6766000000000002E-11, 1.7225E-11
DataValue, -0.85, 0.1, 1.5030000000000002E-12, 1.7307000000000003E-11, -1.8107000000000003E-11, 1.8810000000000004E-11
DataValue, -0.82500000000000007, 0.1, 1.456E-12, 2.007E-11, -2.0778E-11, 2.1526E-11
DataValue, -0.8, 0.1, 1.5450000000000002E-12, 2.418E-11, -2.5523000000000003E-11, 2.5725E-11
DataValue, -0.775, 0.1, 1.6390000000000002E-12, 2.9863E-11, -3.0577E-11, 3.1502E-11
DataValue, -0.75, 0.1, 1.4550000000000002E-12, 3.8266000000000005E-11, -3.9135E-11, 3.9721000000000008E-11
DataValue, -0.725, 0.1, 1.615E-12, 5.0024E-11, -5.0476E-11, 5.1639E-11
DataValue, -0.70000000000000007, 0.1, 1.6E-12, 6.5686E-11, -6.5988E-11, 6.7286E-11
DataValue, -0.675, 0.1, 1.46E-12, 8.7242E-11, -8.7424E-11, 8.8702E-11
DataValue, -0.65, 0.1, 1.535E-12, 1.15083E-10, -1.1511500000000001E-10, 1.1661800000000002E-10
DataValue, -0.625, 0.1, 1.6070000000000001E-12, 1.5055700000000002E-10, -1.49881E-10, 1.5216400000000003E-10
DataValue, -0.6, 0.1, 1.4200000000000002E-12, 1.96248E-10, -1.9631700000000003E-10, 1.97668E-10
DataValue, -0.57500000000000007, 0.1, 1.692E-12, 2.5373200000000003E-10, -2.53554E-10, 2.55424E-10
DataValue, -0.55, 0.1, 1.571E-12, 3.26158E-10, -3.25023E-10, 3.27729E-10
DataValue, -0.525, 0.1, 1.544E-12, 4.1282900000000005E-10, -4.0995300000000004E-10, 4.1437300000000006E-10
DataValue, -0.5, 0.1, 1.5830000000000002E-12, 5.1532400000000007E-10, -5.14403E-10, 5.1690700000000011E-10
DataValue, -0.47500000000000003, 0.1, 1.471E-12, 6.36715E-10, -6.34355E-10, 6.38186E-10
DataValue, -0.45, 0.1, 1.5110000000000001E-12, 7.7779200000000008E-10, -7.7467000000000008E-10, 7.7930300000000012E-10
DataValue, -0.425, 0.1, 1.556E-12, 9.47714E-10, -9.45747E-10, 9.4927E-10
DataValue, -0.4, 0.1, 1.6680000000000002E-12, 1.13852E-09, -1.13347E-09, 1.140188E-09
DataValue, -0.375, 0.1, 1.9740000000000003E-12, 1.36384E-09, -1.35869E-09, 1.3658139999999999E-09
DataValue, -0.35000000000000003, 0.1, 1.977E-12, 1.62011E-09, -1.61856E-09, 1.6220869999999998E-09
DataValue, -0.325, 0.1, 2.311E-12, 1.92929E-09, -1.92373E-09, 1.931601E-09
DataValue, -0.3, 0.1, 2.582E-12, 2.27759E-09, -2.27191E-09, 2.2801720000000002E-09
DataValue, -0.275, 0.1, 2.8980000000000004E-12, 2.70241E-09, -2.69616E-09, 2.705308E-09
DataValue, -0.25, 0.1, 3.275E-12, 3.20637E-09, -3.19989E-09, 3.209645E-09
DataValue, -0.225, 0.1, 3.4150000000000003E-12, 3.81428E-09, -3.79827E-09, 3.817695E-09
DataValue, -0.2, 0.1, 3.464E-12, 4.55883E-09, -4.53897E-09, 4.562294E-09
DataValue, -0.17500000000000002, 0.1, 3.678E-12, 5.49971E-09, -5.47038E-09, 5.503388E-09
DataValue, -0.15, 0.1, 3.288E-12, 6.67452E-09, -6.64871E-09, 6.677808E-09
DataValue, -0.125, 0.1, 3.2140000000000002E-12, 8.21012E-09, -8.18816E-09, 8.2133340000000011E-09
DataValue, -0.1, 0.1, 3.3110000000000003E-12, 1.032717E-08, -1.0306099999999999E-08, 1.0330481E-08
DataValue, -0.075, 0.1, 3.008E-12, 1.3349899999999998E-08, -1.3320599999999999E-08, 1.3352907999999998E-08
DataValue, -0.05, 0.1, 3.56E-12, 1.8171499999999998E-08, -1.8128699999999997E-08, 1.8175059999999998E-08
DataValue, -0.025, 0.1, 3.414E-12, 2.6664299999999996E-08, -2.6566899999999997E-08, 2.6667713999999996E-08
DataValue, 0, 0.1, 3.2140000000000002E-12, 4.2951399999999994E-08, -4.27498E-08, 4.2954613999999993E-08
DataValue, 0.025, 0.1, 3.116E-12, 7.5876899999999993E-08, -7.5517099999999993E-08, 7.5880016E-08
DataValue, 0.05, 0.1, 2.708E-12, 1.43588E-07, -1.42869E-07, 1.43590708E-07
DataValue, 0.075, 0.1, 2.7940000000000004E-12, 2.75021E-07, -2.73646E-07, 2.7502379400000004E-07
DataValue, 0.1, 0.1, 2.616E-12, 5.13064E-07, -5.10764E-07, 5.1306661599999993E-07
DataValue, 0.125, 0.1, 2.7640000000000003E-12, 9.07997E-07, -9.04385E-07, 9.0799976399999992E-07
DataValue, 0.15, 0.1, 2.006E-12, 1.5073400000000002E-06, -1.5019600000000001E-06, 1.5073420060000003E-06
DataValue, 0.17500000000000002, 0.1, 2.507E-12, 2.3541900000000004E-06, -2.3479300000000004E-06, 2.3541925070000003E-06
DataValue, 0.2, 0.1, 2.4710000000000003E-12, 3.4796000000000005E-06, -3.4715800000000002E-06, 3.4796024710000007E-06
DataValue, 0.225, 0.1, 2.407E-12, 4.86729E-06, -4.85758E-06, 4.867292407E-06
DataValue, 0.25, 0.1, 2.427E-12, 6.5153100000000008E-06, -6.5044600000000007E-06, 6.515312427E-06
DataValue, 0.275, 0.1, 2.464E-12, 8.4037100000000012E-06, -8.39174E-06, 8.4037124640000017E-06
DataValue, 0.3, 0.1, 2.424E-12, 1.050941E-05, -1.049706E-05, 1.0509412424E-05
DataValue, 0.325, 0.1, 2.04E-12, 1.2804E-05, -1.27888E-05, 1.280400204E-05
DataValue, 0.35000000000000003, 0.1, 2.302E-12, 1.5270400000000002E-05, -1.5256800000000001E-05, 1.5270402302000003E-05
