
SetupTitle, Jumbo I/V Sweep
PrimitiveTest, I/V Sweep
TestParameter, Context.MainFrame, B1500A
TestParameter, Channel.UnitType, SMU, SMU, SMU
TestParameter, Channel.Unit, SMU1:HR, SMU2:HR, SMU3:HR
TestParameter, Channel.IName, IG, ID, IS
TestParameter, Channel.VName, VG, VD, VS
TestParameter, Channel.Mode, V, V, COMMON
TestParameter, Channel.Func, VAR1, VAR2, CONST
TestParameter, Channel.Index, 
TestParameter, Channel.Time, 
TestParameter, Measurement.Port.Unit, SMU1:HR, SMU2:HR, SMU3:HR
TestParameter, Measurement.Port.SeriesResistor, NONE, NONE, NONE
TestParameter, Measurement.Port.Filter, ON, ON, ON
TestParameter, Measurement.Port.OutputVoltageComparison, 0, 0, 0
TestParameter, Measurement.Primary.Locus, Single
TestParameter, Measurement.Primary.Scale, LINEAR
TestParameter, Measurement.Primary.Start, -3
TestParameter, Measurement.Primary.Stop, 2
TestParameter, Measurement.Primary.Step, 0.025
TestParameter, Measurement.Primary.Compliance, 0.1
TestParameter, Measurement.Primary.PowerCompliance, 0
TestParameter, Measurement.Aborting.Condition, CONTINUE AT ANY
TestParameter, Measurement.PostOutput.Value, START
TestParameter, Measurement.PostOutput.Retention, OFF
TestParameter, Measurement.Secondary.Start, 0.1
TestParameter, Measurement.Secondary.Count, 8
TestParameter, Measurement.Secondary.Step, 0.2
TestParameter, Measurement.Secondary.Compliance, 0.1
TestParameter, Measurement.Secondary.PowerCompliance, 0
TestParameter, Measurement.Bias.Source, -3, 0.1, 0
TestParameter, Measurement.Bias.Compliance, 0.1, 0.1, 0.1
TestParameter, Measurement.Monitor.Unit, SMU1:HR, SMU2:HR, SMU3:HR
TestParameter, Measurement.Monitor.Adc, HR ADC, HR ADC, HR ADC
TestParameter, Measurement.Monitor.Measurement, Compliance Side, Compliance Side, Compliance Side
TestParameter, Measurement.Monitor.RangingMode, LIMITED, LIMITED, LIMITED
TestParameter, Measurement.Monitor.RangeBoundary, 1nA, 1nA, 1nA
TestParameter, Measurement.Monitor.RangeRating, BY FULL RANGE, BY FULL RANGE, BY FULL RANGE
TestParameter, Measurement.Monitor.RangeRatingCoeff, 50, 50, 50
TestParameter, Measurement.Timing.Hold, 0
TestParameter, Measurement.Timing.Delay, 0
TestParameter, Measurement.Adc.HighSpeed.Mode, AUTO
TestParameter, Measurement.Adc.HighSpeed.Coeff, 1
TestParameter, Measurement.Adc.HighResolution.AutoZero, ON
TestParameter, Measurement.Adc.HighResolution.Mode, PLC
TestParameter, Measurement.Adc.HighResolution.Coeff, 6
TestParameter, Measurement.WaitTime.Source.Coeff, 1
TestParameter, Measurement.WaitTime.Source.Offset, 0
TestParameter, Measurement.WaitTime.Monitor.Coeff, 1
TestParameter, Measurement.WaitTime.Monitor.Offset, 0
TestParameter, Function.User.Name, ID_gexc
TestParameter, Function.User.Unit, A
TestParameter, Function.User.Definition, ID+IG
TestParameter, Output.Graph.Enabled, true
TestParameter, Output.Graph.AutoScaling, false
TestParameter, Output.Graph.XAxis.Data, VG
TestParameter, Output.Graph.XAxis.Scale, Linear
TestParameter, Output.Graph.XAxis.Left, -3
TestParameter, Output.Graph.XAxis.Right, 2
TestParameter, Output.Graph.XAxis.RunTimeAutoScale, false
TestParameter, Output.Graph.YAxis.Data, ID, IG
TestParameter, Output.Graph.YAxis.Scale, Log, Log
TestParameter, Output.Graph.YAxis.Bottom, 0.001, 0.001
TestParameter, Output.Graph.YAxis.Top, 0.01, 0.01
TestParameter, Output.Graph.YAxis.Group, , 
TestParameter, Output.Graph.YAxis.RunTimeAutoScale, true, true
TestParameter, Output.List.Data, VG, VD, ID, IS, IG, ID_gexc
TestParameter, AutoAnalysis.Interpolation, false
TestParameter, AutoAnalysis.Var2StepCount, 1
TestParameter, AutoAnalysis.Var2StepScript, 
TestParameter, AutoAnalysis.Line1.Enabled, false
TestParameter, AutoAnalysis.Line1.Type, 1
TestParameter, AutoAnalysis.Line1.Fix, True
TestParameter, AutoAnalysis.Line1.YAxis, 0
TestParameter, AutoAnalysis.Line1.Point1.Type, 0
TestParameter, AutoAnalysis.Line1.Point1.XY.X, 
TestParameter, AutoAnalysis.Line1.Point1.XY.Y, 
TestParameter, AutoAnalysis.Line1.Point1.Data.Var, 
TestParameter, AutoAnalysis.Line1.Point1.Data.Condition, 
TestParameter, AutoAnalysis.Line1.Point1.Data.Start, false
TestParameter, AutoAnalysis.Line1.Point1.Data.StartVar, 
TestParameter, AutoAnalysis.Line1.Point1.Data.StartCondition, 
TestParameter, AutoAnalysis.Line1.Point2.Type, 0
TestParameter, AutoAnalysis.Line1.Point2.XY.X, 
TestParameter, AutoAnalysis.Line1.Point2.XY.Y, 
TestParameter, AutoAnalysis.Line1.Point2.Data.Var, 
TestParameter, AutoAnalysis.Line1.Point2.Data.Condition, 
TestParameter, AutoAnalysis.Line1.Point2.Data.Start, false
TestParameter, AutoAnalysis.Line1.Point2.Data.StartVar, 
TestParameter, AutoAnalysis.Line1.Point2.Data.StartCondition, 
TestParameter, AutoAnalysis.Line1.GradientExpr, 0
TestParameter, AutoAnalysis.Line2.Enabled, false
TestParameter, AutoAnalysis.Line2.Type, 1
TestParameter, AutoAnalysis.Line2.Fix, True
TestParameter, AutoAnalysis.Line2.YAxis, 0
TestParameter, AutoAnalysis.Line2.Point1.Type, 0
TestParameter, AutoAnalysis.Line2.Point1.XY.X, 
TestParameter, AutoAnalysis.Line2.Point1.XY.Y, 
TestParameter, AutoAnalysis.Line2.Point1.Data.Var, 
TestParameter, AutoAnalysis.Line2.Point1.Data.Condition, 
TestParameter, AutoAnalysis.Line2.Point1.Data.Start, false
TestParameter, AutoAnalysis.Line2.Point1.Data.StartVar, 
TestParameter, AutoAnalysis.Line2.Point1.Data.StartCondition, 
TestParameter, AutoAnalysis.Line2.Point2.Type, 0
TestParameter, AutoAnalysis.Line2.Point2.XY.X, 
TestParameter, AutoAnalysis.Line2.Point2.XY.Y, 
TestParameter, AutoAnalysis.Line2.Point2.Data.Var, 
TestParameter, AutoAnalysis.Line2.Point2.Data.Condition, 
TestParameter, AutoAnalysis.Line2.Point2.Data.Start, false
TestParameter, AutoAnalysis.Line2.Point2.Data.StartVar, 
TestParameter, AutoAnalysis.Line2.Point2.Data.StartCondition, 
TestParameter, AutoAnalysis.Line2.GradientExpr, 0
TestParameter, AutoAnalysis.Marker.Enabled, false
TestParameter, AutoAnalysis.Marker.Data.Var, 
TestParameter, AutoAnalysis.Marker.Data.Condition, 
TestParameter, AutoAnalysis.Marker.Data.Start, false
TestParameter, AutoAnalysis.Marker.Data.StartVar, 
TestParameter, AutoAnalysis.Marker.Data.StartCondition, 
MetaData, TestRecord.EntryPoint, true
MetaData, TestRecord.RecordTime, 12/15/2025 14:16:16
MetaData, TestRecord.TestTarget, WF01_251203_#5_Jumbo_R0
MetaData, TestRecord.IterationIndex, 9
MetaData, TestRecord.Preservation, true
MetaData, TestRecord.Flag, 
MetaData, TestRecord.Remarks, 
MetaData, TestRecord.LinkKey, bf966e2f-c32f-4f15-b15a-16a4bc8290c2
MetaData, TestRecord.Parameters, 
Dimension1, 201, 201, 201, 201, 201, 201
Dimension2, 8, 8, 8, 8, 8, 8
DataName, VG, VD, IG, ID, IS, ID_gexc
DataValue, -3, 0.1, -8.87632E-08, 8.84115E-08, 1.7070000000000002E-11, -3.5169999999999911E-10
DataValue, -2.975, 0.1, -8.7182899999999989E-08, 8.714719999999999E-08, 8.3510000000000011E-12, -3.5699999999998129E-11
DataValue, -2.95, 0.1, -8.5479399999999989E-08, 8.56457E-08, 5.582E-12, 1.6630000000000593E-10
DataValue, -2.9250000000000003, 0.1, -8.33244E-08, 8.3592E-08, 4.01E-12, 2.6760000000000433E-10
DataValue, -2.9, 0.1, -8.2734499999999992E-08, 8.30204E-08, 3.1650000000000003E-12, 2.8590000000000126E-10
DataValue, -2.875, 0.1, -8.18892E-08, 8.18995E-08, 2.5260000000000003E-12, 1.0300000000001092E-11
DataValue, -2.85, 0.1, -8.007149999999999E-08, 8.01051E-08, 2.038E-12, 3.3600000000003689E-11
DataValue, -2.825, 0.1, -7.8499899999999989E-08, 7.8420899999999993E-08, 1.7910000000000001E-12, -7.8999999999996935E-11
DataValue, -2.8000000000000003, 0.1, -7.69091E-08, 7.6905999999999987E-08, 1.5010000000000002E-12, -3.1000000000088091E-12
DataValue, -2.775, 0.1, -7.52744E-08, 7.5200599999999991E-08, 1.3210000000000001E-12, -7.3800000000006921E-11
DataValue, -2.75, 0.1, -7.3221899999999987E-08, 7.36976E-08, 1.021E-12, 4.7570000000000736E-10
DataValue, -2.725, 0.1, -7.1673399999999991E-08, 7.1549099999999993E-08, 9.1400000000000014E-13, -1.24299999999998E-10
DataValue, -2.7, 0.1, -7.0213899999999991E-08, 7.0171599999999993E-08, 7.01E-13, -4.2299999999997672E-11
DataValue, -2.6750000000000003, 0.1, -6.82589E-08, 6.8413899999999988E-08, 6.13E-13, 1.5499999999999047E-10
DataValue, -2.65, 0.1, -6.66511E-08, 6.6641E-08, 5.1E-13, -1.0100000000003512E-11
DataValue, -2.625, 0.1, -6.5095999999999989E-08, 6.505439999999999E-08, 4.1E-13, -4.1599999999999525E-11
DataValue, -2.6, 0.1, -6.3611E-08, 6.35375E-08, 3.2100000000000005E-13, -7.3500000000003934E-11
DataValue, -2.575, 0.1, -6.2072799999999992E-08, 6.208989999999999E-08, 2.2000000000000002E-13, 1.7099999999998214E-11
DataValue, -2.5500000000000003, 0.1, -6.0514699999999993E-08, 6.0501E-08, 1.9800000000000002E-13, -1.3699999999999653E-11
DataValue, -2.525, 0.1, -5.9139099999999997E-08, 5.9029299999999995E-08, 1.28E-13, -1.0980000000000142E-10
DataValue, -2.5, 0.1, -5.7616399999999993E-08, 5.7583499999999994E-08, 1.28E-13, -3.2899999999998925E-11
DataValue, -2.475, 0.1, -5.6201799999999992E-08, 5.61992E-08, 1.24E-13, -2.5999999999950073E-12
DataValue, -2.45, 0.1, -5.4857799999999996E-08, 5.4867099999999996E-08, 1.2000000000000001E-14, 9.2999999999999575E-12
DataValue, -2.4250000000000003, 0.1, -5.33615E-08, 5.3559199999999994E-08, 5.0000000000000008E-15, 1.9769999999999654E-10
DataValue, -2.4, 0.1, -5.19517E-08, 5.20441E-08, -2.5E-14, 9.2400000000000219E-11
DataValue, -2.375, 0.1, -5.0623599999999995E-08, 5.0575499999999995E-08, -6.9000000000000009E-14, -4.8100000000000279E-11
DataValue, -2.35, 0.1, -4.9192699999999993E-08, 4.9126599999999992E-08, -8.3000000000000012E-14, -6.6100000000000837E-11
DataValue, -2.325, 0.1, -4.84705E-08, 4.8400199999999994E-08, -1.1400000000000002E-13, -7.0300000000002952E-11
DataValue, -2.3000000000000003, 0.1, -4.7156599999999995E-08, 4.71493E-08, -1.0100000000000001E-13, -7.29999999999769E-12
DataValue, -2.275, 0.1, -4.5845199999999996E-08, 4.5548299999999995E-08, -2.0200000000000002E-13, -2.9690000000000049E-10
DataValue, -2.25, 0.1, -4.4272699999999993E-08, 4.4190999999999995E-08, -2.35E-13, -8.169999999999735E-11
DataValue, -2.225, 0.1, -4.3020799999999994E-08, 4.30648E-08, -2.33E-13, 4.400000000000357E-11
DataValue, -2.2, 0.1, -4.1740999999999996E-08, 4.1783299999999994E-08, -2.6600000000000003E-13, 4.2299999999997672E-11
DataValue, -2.1750000000000003, 0.1, -4.04967E-08, 4.0476799999999995E-08, -2.7500000000000004E-13, -1.9900000000004036E-11
DataValue, -2.15, 0.1, -3.9334499999999994E-08, 3.9331799999999994E-08, -2.7700000000000003E-13, -2.7000000000004146E-12
DataValue, -2.125, 0.1, -3.8235299999999994E-08, 3.82422E-08, -3.0900000000000005E-13, 6.90000000000253E-12
DataValue, -2.1, 0.1, -3.71424E-08, 3.6928799999999995E-08, -3.9600000000000003E-13, -2.1360000000000265E-10
DataValue, -2.075, 0.1, -3.5771599999999996E-08, 3.5770999999999997E-08, -3.31E-13, -5.9999999999935686E-13
DataValue, -2.05, 0.1, -3.4661499999999996E-08, 3.4650599999999995E-08, -3.29E-13, -1.0900000000000448E-11
DataValue, -2.025, 0.1, -3.3572899999999994E-08, 3.3575399999999996E-08, -4.3800000000000005E-13, 2.5000000000028348E-12
DataValue, -2, 0.1, -3.2446899999999994E-08, 3.2416799999999994E-08, -4E-13, -3.009999999999972E-11
DataValue, -1.975, 0.1, -3.1319199999999995E-08, 3.1302899999999994E-08, -5.0300000000000008E-13, -1.6300000000001278E-11
DataValue, -1.95, 0.1, -3.0260999999999995E-08, 3.0352999999999994E-08, -3.75E-13, 9.1999999999998442E-11
DataValue, -1.925, 0.1, -2.9377199999999997E-08, 2.9374499999999996E-08, -4.7800000000000008E-13, -2.7000000000004146E-12
DataValue, -1.9000000000000001, 0.1, -2.8415899999999996E-08, 2.8364399999999997E-08, -4.36E-13, -5.149999999999884E-11
DataValue, -1.875, 0.1, -2.7405299999999996E-08, 2.74614E-08, -3.9200000000000005E-13, 5.6100000000002732E-11
DataValue, -1.85, 0.1, -2.6452499999999998E-08, 2.64563E-08, -4.12E-13, 3.8000000000003384E-12
DataValue, -1.825, 0.1, -2.5546999999999997E-08, 2.5568099999999997E-08, -5.39E-13, 2.1099999999999441E-11
DataValue, -1.8, 0.1, -2.4631499999999998E-08, 2.4600099999999997E-08, -4.9E-13, -3.1400000000000533E-11
DataValue, -1.7750000000000001, 0.1, -2.3713599999999998E-08, 2.3750899999999997E-08, -5.18E-13, 3.729999999999862E-11
DataValue, -1.75, 0.1, -2.2862399999999998E-08, 2.2823899999999998E-08, -4.92E-13, -3.8500000000000643E-11
DataValue, -1.725, 0.1, -2.2000099999999997E-08, 2.1997599999999998E-08, -5.5100000000000008E-13, -2.4999999999995261E-12
DataValue, -1.7, 0.1, -2.11488E-08, 2.1166699999999997E-08, -4.1400000000000005E-13, 1.789999999999846E-11
DataValue, -1.675, 0.1, -2.0345799999999998E-08, 2.03567E-08, -4.0500000000000004E-13, 1.0900000000000448E-11
DataValue, -1.6500000000000001, 0.1, -1.95377E-08, 1.9564999999999997E-08, -4.87E-13, 2.7299999999997207E-11
DataValue, -1.625, 0.1, -1.87519E-08, 1.87462E-08, -4.47E-13, -5.7000000000005076E-12
DataValue, -1.6, 0.1, -1.7978599999999997E-08, 1.79519E-08, -5.15E-13, -2.669999999999785E-11
DataValue, -1.575, 0.1, -1.7238399999999997E-08, 1.7230099999999998E-08, -4.92E-13, -8.2999999999988236E-12
DataValue, -1.55, 0.1, -1.65144E-08, 1.6532E-08, -5.2600000000000008E-13, 1.7599999999998781E-11
DataValue, -1.5250000000000001, 0.1, -1.5826899999999998E-08, 1.57978E-08, -5.0400000000000007E-13, -2.9099999999998586E-11
DataValue, -1.5, 0.1, -1.50631E-08, 1.5064099999999997E-08, -5.64E-13, 9.999999999978252E-13
DataValue, -1.475, 0.1, -1.4422699999999998E-08, 1.4400399999999998E-08, -5.2700000000000008E-13, -2.2299999999999809E-11
DataValue, -1.45, 0.1, -1.3730499999999998E-08, 1.3718599999999999E-08, -5.5200000000000007E-13, -1.1899999999999928E-11
DataValue, -1.425, 0.1, -1.3065899999999999E-08, 1.3076899999999998E-08, -5.39E-13, 1.0999999999999238E-11
DataValue, -1.4000000000000001, 0.1, -1.2474499999999999E-08, 1.2459299999999999E-08, -4.8500000000000005E-13, -1.51999999999997E-11
DataValue, -1.375, 0.1, -1.1897199999999998E-08, 1.1888299999999998E-08, -5.7600000000000007E-13, -8.8999999999998348E-12
DataValue, -1.35, 0.1, -1.1339799999999998E-08, 1.12749E-08, -6.05E-13, -6.4899999999998814E-11
DataValue, -1.325, 0.1, -1.0748499999999999E-08, 1.0732899999999999E-08, -5.35E-13, -1.5599999999999822E-11
DataValue, -1.3, 0.1, -1.0210699999999998E-08, 1.01909E-08, -5.4900000000000008E-13, -1.9799999999998629E-11
DataValue, -1.2750000000000001, 0.1, -9.68321E-09, 9.68546E-09, -5.5000000000000008E-13, 2.2499999999992426E-12
DataValue, -1.25, 0.1, -9.17975E-09, 9.19063E-09, -5.44E-13, 1.088000000000069E-11
DataValue, -1.225, 0.1, -8.65645E-09, 8.64456E-09, -5.41E-13, -1.1890000000000049E-11
DataValue, -1.2, 0.1, -8.13989E-09, 8.17505E-09, -5.7200000000000009E-13, 3.51599999999997E-11
DataValue, -1.175, 0.1, -7.71262E-09, 7.72188E-09, -5.86E-13, 9.2599999999987872E-12
DataValue, -1.1500000000000001, 0.1, -7.26457E-09, 7.26006E-09, -5.86E-13, -4.5100000000000185E-12
DataValue, -1.125, 0.1, -6.80761E-09, 6.81751E-09, -5.2700000000000008E-13, 9.9000000000001416E-12
DataValue, -1.1, 0.1, -6.40722E-09, 6.40456E-09, -5.3200000000000006E-13, -2.6600000000000715E-12
DataValue, -1.075, 0.1, -5.99671E-09, 6.01687E-09, -5.5000000000000008E-13, 2.0160000000000063E-11
DataValue, -1.05, 0.1, -5.6112E-09, 5.6239E-09, -5.85E-13, 1.2700000000000173E-11
DataValue, -1.025, 0.1, -5.24877E-09, 5.23489E-09, -6.56E-13, -1.3879999999999956E-11
DataValue, -1, 0.1, -4.88384E-09, 4.88723E-09, -5.41E-13, 3.3899999999995096E-12
DataValue, -0.975, 0.1, -4.53908E-09, 4.55219E-09, -6.4300000000000009E-13, 1.3110000000000175E-11
DataValue, -0.95000000000000007, 0.1, -4.21408E-09, 4.215E-09, -5.7900000000000006E-13, 9.1999999999962046E-13
DataValue, -0.925, 0.1, -3.9116E-09, 3.91606E-09, -5.7600000000000007E-13, 4.4600000000006236E-12
DataValue, -0.9, 0.1, -3.61342E-09, 3.61964E-09, -5.89E-13, 6.2200000000000054E-12
DataValue, -0.875, 0.1, -3.33348E-09, 3.33203E-09, -6.4500000000000008E-13, -1.4499999999998244E-12
DataValue, -0.85, 0.1, -3.05481E-09, 3.05283E-09, -6.33E-13, -1.9800000000000283E-12
DataValue, -0.82500000000000007, 0.1, -2.79328E-09, 2.79181E-09, -5.2400000000000009E-13, -1.469999999999996E-12
DataValue, -0.8, 0.1, -2.56075E-09, 2.56993E-09, -5.9500000000000009E-13, 9.1800000000001689E-12
DataValue, -0.775, 0.1, -2.34018E-09, 2.33915E-09, -6.0300000000000006E-13, -1.0299999999999437E-12
DataValue, -0.75, 0.1, -2.11815E-09, 2.1303E-09, -5.68E-13, 1.2149999999999798E-11
DataValue, -0.725, 0.1, -1.93368E-09, 1.93384E-09, -6.36E-13, 1.600000000001318E-13
DataValue, -0.70000000000000007, 0.1, -1.7482E-09, 1.74702E-09, -6.13E-13, -1.1799999999999897E-12
DataValue, -0.675, 0.1, -1.57099E-09, 1.56952E-09, -6.38E-13, -1.469999999999996E-12
DataValue, -0.65, 0.1, -1.41827E-09, 1.41945E-09, -6.2500000000000006E-13, 1.1800000000001965E-12
DataValue, -0.625, 0.1, -1.2721E-09, 1.27385E-09, -6.1800000000000009E-13, 1.7499999999999164E-12
DataValue, -0.6, 0.1, -1.13502E-09, 1.1334E-09, -5.7900000000000006E-13, -1.620000000000042E-12
DataValue, -0.57500000000000007, 0.1, -1.00601E-09, 1.0121E-09, -5.86E-13, 6.090000000000131E-12
DataValue, -0.55, 0.1, -8.94171E-10, 8.9935100000000011E-10, -5.86E-13, 5.1800000000000793E-12
DataValue, -0.525, 0.1, -7.86888E-10, 7.92056E-10, -5.2600000000000008E-13, 5.1679999999999764E-12
DataValue, -0.5, 0.1, -6.86137E-10, 6.8744000000000006E-10, -6.33E-13, 1.3030000000000109E-12
DataValue, -0.47500000000000003, 0.1, -6.00713E-10, 6.01305E-10, -5.4900000000000008E-13, 5.92000000000012E-13
DataValue, -0.45, 0.1, -5.2573600000000005E-10, 5.2452000000000007E-10, -5.9600000000000009E-13, -1.2159999999999884E-12
DataValue, -0.425, 0.1, -4.5148900000000005E-10, 4.5318900000000006E-10, -6.170000000000001E-13, 1.7000000000000045E-12
DataValue, -0.4, 0.1, -3.8998700000000004E-10, 3.90262E-10, -5.5500000000000006E-13, 2.7499999999998096E-13
DataValue, -0.375, 0.1, -3.36071E-10, 3.34045E-10, -6.81E-13, -2.0260000000000093E-12
DataValue, -0.35000000000000003, 0.1, -2.839E-10, 2.85995E-10, -8.6400000000000005E-13, 2.0949999999999809E-12
DataValue, -0.325, 0.1, -2.38922E-10, 2.42465E-10, -1.2540000000000001E-12, 3.5429999999999949E-12
DataValue, -0.3, 0.1, -2.01934E-10, 2.0589000000000003E-10, -2.118E-12, 3.9560000000000223E-12
DataValue, -0.275, 0.1, -1.6970900000000002E-10, 1.7456900000000002E-10, -4.341E-12, 4.8599999999999967E-12
DataValue, -0.25, 0.1, -1.39481E-10, 1.5119200000000001E-10, -1.0071000000000001E-11, 1.1711000000000013E-11
DataValue, -0.225, 0.1, -1.1540500000000001E-10, 1.40832E-10, -2.4873E-11, 2.5426999999999997E-11
DataValue, -0.2, 0.1, -9.2792E-11, 1.56944E-10, -6.2358E-11, 6.415200000000001E-11
DataValue, -0.17500000000000002, 0.1, -7.4656000000000008E-11, 2.355E-10, -1.5818900000000002E-10, 1.6084400000000002E-10
DataValue, -0.15, 0.1, -5.9499E-11, 4.6254200000000006E-10, -3.99048E-10, 4.0304300000000006E-10
DataValue, -0.125, 0.1, -4.5949000000000005E-11, 1.05903E-09, -1.00486E-09, 1.013081E-09
DataValue, -0.1, 0.1, -3.4525000000000005E-11, 2.58396E-09, -2.53108E-09, 2.549435E-09
DataValue, -0.075, 0.1, -2.573E-11, 6.39371E-09, -6.32621E-09, 6.3679800000000006E-09
DataValue, -0.05, 0.1, -1.9353000000000003E-11, 1.5721599999999998E-08, -1.56302E-08, 1.5702247E-08
DataValue, -0.025, 0.1, -1.3080000000000002E-11, 3.8013299999999994E-08, -3.78161E-08, 3.8000219999999994E-08
DataValue, 0, 0.1, -8.447E-12, 8.86004E-08, -8.81902E-08, 8.8591952999999992E-08
DataValue, 0.025, 0.1, -4.8950000000000004E-12, 1.94935E-07, -1.94187E-07, 1.94930105E-07
DataValue, 0.05, 0.1, -1.7790000000000002E-12, 4.01493E-07, -4.00095E-07, 4.01491221E-07
DataValue, 0.075, 0.1, 5.0200000000000008E-13, 7.58061E-07, -7.55764E-07, 7.58061502E-07
DataValue, 0.1, 0.1, 2.052E-12, 1.31895E-06, -1.3156600000000001E-06, 1.3189520520000001E-06
DataValue, 0.125, 0.1, 4.228E-12, 2.13019E-06, -2.12614E-06, 2.130194228E-06
DataValue, 0.15, 0.1, 6.347E-12, 3.2177900000000005E-06, -3.2123E-06, 3.2177963470000003E-06
DataValue, 0.17500000000000002, 0.1, 8.637E-12, 4.58644E-06, -4.5797300000000008E-06, 4.586448637E-06
DataValue, 0.2, 0.1, 1.1271E-11, 6.23943E-06, -6.2316400000000009E-06, 6.239441271E-06
DataValue, 0.225, 0.1, 1.4199000000000001E-11, 8.1297700000000009E-06, -8.1208400000000013E-06, 8.129784199E-06
