
SetupTitle, Jumbo I/V Sweep
PrimitiveTest, I/V Sweep
TestParameter, Context.MainFrame, B1500A
TestParameter, Channel.UnitType, SMU, SMU, SMU
TestParameter, Channel.Unit, SMU3:HR, SMU1:HR, SMU4:HR
TestParameter, Channel.IName, IG, ID, IS
TestParameter, Channel.VName, VG, VD, VS
TestParameter, Channel.Mode, V, V, COMMON
TestParameter, Channel.Func, VAR1, VAR2, CONST
TestParameter, Channel.Index, 
TestParameter, Channel.Time, 
TestParameter, Measurement.Port.Unit, SMU3:HR, SMU1:HR, SMU4:HR
TestParameter, Measurement.Port.SeriesResistor, NONE, NONE, NONE
TestParameter, Measurement.Port.Filter, ON, ON, ON
TestParameter, Measurement.Port.OutputVoltageComparison, 0, 0, 0
TestParameter, Measurement.Primary.Locus, Single
TestParameter, Measurement.Primary.Scale, LINEAR
TestParameter, Measurement.Primary.Start, -3
TestParameter, Measurement.Primary.Stop, 2
TestParameter, Measurement.Primary.Step, 0.025
TestParameter, Measurement.Primary.Compliance, 0.1
TestParameter, Measurement.Primary.PowerCompliance, 0
TestParameter, Measurement.Aborting.Condition, CONTINUE AT ANY
TestParameter, Measurement.PostOutput.Value, START
TestParameter, Measurement.PostOutput.Retention, OFF
TestParameter, Measurement.Secondary.Start, 0.1
TestParameter, Measurement.Secondary.Count, 8
TestParameter, Measurement.Secondary.Step, 0.2
TestParameter, Measurement.Secondary.Compliance, 0.1
TestParameter, Measurement.Secondary.PowerCompliance, 0
TestParameter, Measurement.Bias.Source, -3, 0.1, 0
TestParameter, Measurement.Bias.Compliance, 0.1, 0.1, 0.1
TestParameter, Measurement.Monitor.Unit, SMU3:HR, SMU1:HR, SMU4:HR
TestParameter, Measurement.Monitor.Adc, HR ADC, HR ADC, HR ADC
TestParameter, Measurement.Monitor.Measurement, Compliance Side, Compliance Side, Compliance Side
TestParameter, Measurement.Monitor.RangingMode, LIMITED, LIMITED, LIMITED
TestParameter, Measurement.Monitor.RangeBoundary, 1nA, 1nA, 1nA
TestParameter, Measurement.Monitor.RangeRating, BY FULL RANGE, BY FULL RANGE, BY FULL RANGE
TestParameter, Measurement.Monitor.RangeRatingCoeff, 50, 50, 50
TestParameter, Measurement.Timing.Hold, 0
TestParameter, Measurement.Timing.Delay, 0
TestParameter, Measurement.Adc.HighSpeed.Mode, AUTO
TestParameter, Measurement.Adc.HighSpeed.Coeff, 1
TestParameter, Measurement.Adc.HighResolution.AutoZero, ON
TestParameter, Measurement.Adc.HighResolution.Mode, PLC
TestParameter, Measurement.Adc.HighResolution.Coeff, 6
TestParameter, Measurement.WaitTime.Source.Coeff, 1
TestParameter, Measurement.WaitTime.Source.Offset, 0
TestParameter, Measurement.WaitTime.Monitor.Coeff, 1
TestParameter, Measurement.WaitTime.Monitor.Offset, 0
TestParameter, Output.Graph.Enabled, true
TestParameter, Output.Graph.AutoScaling, false
TestParameter, Output.Graph.XAxis.Data, VG
TestParameter, Output.Graph.XAxis.Scale, Linear
TestParameter, Output.Graph.XAxis.Left, -3
TestParameter, Output.Graph.XAxis.Right, 2
TestParameter, Output.Graph.XAxis.RunTimeAutoScale, false
TestParameter, Output.Graph.YAxis.Data, ID, IG
TestParameter, Output.Graph.YAxis.Scale, Log, Log
TestParameter, Output.Graph.YAxis.Bottom, 0.001, 0.001
TestParameter, Output.Graph.YAxis.Top, 0.01, 0.01
TestParameter, Output.Graph.YAxis.Group, , 
TestParameter, Output.Graph.YAxis.RunTimeAutoScale, true, true
TestParameter, Output.List.Data, VG, VD, ID, IS, IG
TestParameter, AutoAnalysis.Interpolation, false
TestParameter, AutoAnalysis.Var2StepCount, 1
TestParameter, AutoAnalysis.Var2StepScript, 
TestParameter, AutoAnalysis.Line1.Enabled, false
TestParameter, AutoAnalysis.Line1.Type, 1
TestParameter, AutoAnalysis.Line1.Fix, True
TestParameter, AutoAnalysis.Line1.YAxis, 0
TestParameter, AutoAnalysis.Line1.Point1.Type, 0
TestParameter, AutoAnalysis.Line1.Point1.XY.X, 
TestParameter, AutoAnalysis.Line1.Point1.XY.Y, 
TestParameter, AutoAnalysis.Line1.Point1.Data.Var, 
TestParameter, AutoAnalysis.Line1.Point1.Data.Condition, 
TestParameter, AutoAnalysis.Line1.Point1.Data.Start, false
TestParameter, AutoAnalysis.Line1.Point1.Data.StartVar, 
TestParameter, AutoAnalysis.Line1.Point1.Data.StartCondition, 
TestParameter, AutoAnalysis.Line1.Point2.Type, 0
TestParameter, AutoAnalysis.Line1.Point2.XY.X, 
TestParameter, AutoAnalysis.Line1.Point2.XY.Y, 
TestParameter, AutoAnalysis.Line1.Point2.Data.Var, 
TestParameter, AutoAnalysis.Line1.Point2.Data.Condition, 
TestParameter, AutoAnalysis.Line1.Point2.Data.Start, false
TestParameter, AutoAnalysis.Line1.Point2.Data.StartVar, 
TestParameter, AutoAnalysis.Line1.Point2.Data.StartCondition, 
TestParameter, AutoAnalysis.Line1.GradientExpr, 0
TestParameter, AutoAnalysis.Line2.Enabled, false
TestParameter, AutoAnalysis.Line2.Type, 1
TestParameter, AutoAnalysis.Line2.Fix, True
TestParameter, AutoAnalysis.Line2.YAxis, 0
TestParameter, AutoAnalysis.Line2.Point1.Type, 0
TestParameter, AutoAnalysis.Line2.Point1.XY.X, 
TestParameter, AutoAnalysis.Line2.Point1.XY.Y, 
TestParameter, AutoAnalysis.Line2.Point1.Data.Var, 
TestParameter, AutoAnalysis.Line2.Point1.Data.Condition, 
TestParameter, AutoAnalysis.Line2.Point1.Data.Start, false
TestParameter, AutoAnalysis.Line2.Point1.Data.StartVar, 
TestParameter, AutoAnalysis.Line2.Point1.Data.StartCondition, 
TestParameter, AutoAnalysis.Line2.Point2.Type, 0
TestParameter, AutoAnalysis.Line2.Point2.XY.X, 
TestParameter, AutoAnalysis.Line2.Point2.XY.Y, 
TestParameter, AutoAnalysis.Line2.Point2.Data.Var, 
TestParameter, AutoAnalysis.Line2.Point2.Data.Condition, 
TestParameter, AutoAnalysis.Line2.Point2.Data.Start, false
TestParameter, AutoAnalysis.Line2.Point2.Data.StartVar, 
TestParameter, AutoAnalysis.Line2.Point2.Data.StartCondition, 
TestParameter, AutoAnalysis.Line2.GradientExpr, 0
TestParameter, AutoAnalysis.Marker.Enabled, false
TestParameter, AutoAnalysis.Marker.Data.Var, 
TestParameter, AutoAnalysis.Marker.Data.Condition, 
TestParameter, AutoAnalysis.Marker.Data.Start, false
TestParameter, AutoAnalysis.Marker.Data.StartVar, 
TestParameter, AutoAnalysis.Marker.Data.StartCondition, 
MetaData, TestRecord.EntryPoint, true
MetaData, TestRecord.RecordTime, 12/12/2025 10:16:51
MetaData, TestRecord.TestTarget, WF01_251203_#1_Jumbo_L1
MetaData, TestRecord.IterationIndex, 2
MetaData, TestRecord.Preservation, true
MetaData, TestRecord.Flag, 
MetaData, TestRecord.Remarks, 
MetaData, TestRecord.LinkKey, a95af4f8-6699-42bb-ad39-91425ba8a199
MetaData, TestRecord.Parameters, 
Dimension1, 201, 201, 201, 201, 201
Dimension2, 8, 8, 8, 8, 8
DataName, VG, VD, IG, ID, IS
DataValue, -3, 0.1, -2.8158000000000002E-11, 6.9060000000000007E-12, 2.916E-12
DataValue, -2.975, 0.1, -5.3540000000000008E-12, 2.6720000000000003E-12, 1.5930000000000002E-12
DataValue, -2.95, 0.1, -3.5210000000000004E-12, 1.805E-12, 9.72E-13
DataValue, -2.9250000000000003, 0.1, -2.4170000000000003E-12, 1.41E-12, 7.55E-13
DataValue, -2.9, 0.1, -1.801E-12, 1.0480000000000002E-12, 6.2100000000000008E-13
DataValue, -2.875, 0.1, -1.7460000000000002E-12, 9.0400000000000009E-13, 5.3100000000000006E-13
DataValue, -2.85, 0.1, -1.3880000000000001E-12, 8.3500000000000008E-13, 4.65E-13
DataValue, -2.825, 0.1, -1.0160000000000001E-12, 6.11E-13, 3.63E-13
DataValue, -2.8000000000000003, 0.1, -1.2250000000000001E-12, 5.84E-13, 2.9700000000000005E-13
DataValue, -2.775, 0.1, -9.99E-13, 5.67E-13, 3.5700000000000004E-13
DataValue, -2.75, 0.1, -7.1500000000000008E-13, 4.1800000000000004E-13, 3.2100000000000005E-13
DataValue, -2.725, 0.1, -9.0900000000000006E-13, 3.62E-13, 2.2600000000000002E-13
DataValue, -2.7, 0.1, -8.44E-13, 4.22E-13, 2.6500000000000003E-13
DataValue, -2.6750000000000003, 0.1, -4.65E-13, 3.03E-13, 2.79E-13
DataValue, -2.65, 0.1, -7.360000000000001E-13, 2.73E-13, 2.0400000000000001E-13
DataValue, -2.625, 0.1, -6.33E-13, 3.15E-13, 2.0200000000000002E-13
DataValue, -2.6, 0.1, -3.29E-13, 2.58E-13, 2.12E-13
DataValue, -2.575, 0.1, -5.3300000000000005E-13, 2.0700000000000003E-13, 1.41E-13
DataValue, -2.5500000000000003, 0.1, -6.2700000000000005E-13, 2.6200000000000004E-13, 1.5100000000000001E-13
DataValue, -2.525, 0.1, -2.34E-13, 1.3700000000000002E-13, 2.1400000000000002E-13
DataValue, -2.5, 0.1, -4.5700000000000007E-13, 1.53E-13, 9.7E-14
DataValue, -2.475, 0.1, -5.0400000000000007E-13, 2.1600000000000001E-13, 1.7400000000000002E-13
DataValue, -2.45, 0.1, -2.0200000000000002E-13, 1.6600000000000003E-13, 1.47E-13
DataValue, -2.4250000000000003, 0.1, -3.87E-13, 1.2700000000000001E-13, 2.7000000000000002E-14
DataValue, -2.4, 0.1, -4.91E-13, 1.42E-13, 7.9E-14
DataValue, -2.375, 0.1, -1.42E-13, 1.0500000000000001E-13, 1.5100000000000001E-13
DataValue, -2.35, 0.1, -2.6400000000000004E-13, 7.3E-14, 1.5000000000000002E-14
DataValue, -2.325, 0.1, -4.1500000000000005E-13, 1.3E-13, 5.3E-14
DataValue, -2.3000000000000003, 0.1, -5.9E-14, 5.700000000000001E-14, 1.35E-13
DataValue, -2.275, 0.1, -2.2900000000000003E-13, 1.8000000000000002E-14, 5.2000000000000006E-14
DataValue, -2.25, 0.1, -3.52E-13, 9.8000000000000012E-14, 1.3900000000000001E-13
DataValue, -2.225, 0.1, -8.3000000000000012E-14, 5.3E-14, 1.19E-13
DataValue, -2.2, 0.1, -1.9100000000000002E-13, 1.7E-14, 1.0400000000000001E-13
DataValue, -2.1750000000000003, 0.1, -3.3E-13, 3.9000000000000004E-14, 5.4000000000000003E-14
DataValue, -2.15, 0.1, -2.2E-14, 3.3000000000000005E-14, 1.0500000000000001E-13
DataValue, -2.125, 0.1, -1.9000000000000002E-13, -9.0000000000000011E-15, 7.5000000000000009E-14
DataValue, -2.1, 0.1, -2.93E-13, 1.9E-14, -1.0000000000000002E-14
DataValue, -2.075, 0.1, 3.1E-14, 1.1E-14, 5.4000000000000003E-14
DataValue, -2.05, 0.1, -8.7000000000000008E-14, -6.4E-14, -6.0000000000000005E-15
DataValue, -2.025, 0.1, -3.4E-13, 3.2E-14, 5.4000000000000003E-14
DataValue, -2, 0.1, 4.6000000000000006E-14, 7E-15, 8.5E-14
DataValue, -1.975, 0.1, -6.5E-14, -1.9E-14, -3.3000000000000005E-14
DataValue, -1.95, 0.1, -2.4200000000000003E-13, 2.8E-14, 4.6000000000000006E-14
DataValue, -1.925, 0.1, -1E-15, -2.0000000000000003E-14, 6.5E-14
DataValue, -1.9000000000000001, 0.1, -4.7E-14, -9.3000000000000008E-14, -3.5E-14
DataValue, -1.875, 0.1, -2.58E-13, -1.6E-14, -2.0000000000000003E-14
DataValue, -1.85, 0.1, 1.03E-13, -2.6000000000000003E-14, 5.700000000000001E-14
DataValue, -1.825, 0.1, -6.8E-14, -1.03E-13, -2.3000000000000003E-14
DataValue, -1.8, 0.1, -2.5300000000000003E-13, -1.7E-14, 2.4000000000000002E-14
DataValue, -1.7750000000000001, 0.1, 9.0000000000000008E-14, -4.5000000000000004E-14, 3.0000000000000005E-14
DataValue, -1.75, 0.1, 1.0000000000000002E-14, -8.3000000000000012E-14, -5.700000000000001E-14
DataValue, -1.725, 0.1, -2.0300000000000002E-13, -1.1E-14, 8E-15
DataValue, -1.7, 0.1, 2.3000000000000003E-14, -4.2000000000000004E-14, 6.4E-14
DataValue, -1.675, 0.1, 6.8E-14, -1.12E-13, -3.0000000000000002E-15
DataValue, -1.6500000000000001, 0.1, -2.6E-13, -3.3000000000000005E-14, -5.9E-14
DataValue, -1.625, 0.1, 1.3300000000000001E-13, -8.2E-14, 1.0700000000000001E-13
DataValue, -1.6, 0.1, -1.6E-14, -9.5000000000000012E-14, -3.1E-14
DataValue, -1.575, 0.1, -1.8600000000000002E-13, -5.9E-14, -5.1000000000000004E-14
DataValue, -1.55, 0.1, 3.0000000000000005E-14, -9.0000000000000008E-14, 2.5E-14
DataValue, -1.5250000000000001, 0.1, 5.1000000000000004E-14, -1.47E-13, -4.2000000000000004E-14
DataValue, -1.5, 0.1, -1.8000000000000002E-13, -6.0000000000000009E-14, -6.8E-14
DataValue, -1.475, 0.1, 1.09E-13, -6.6000000000000009E-14, 2.0000000000000003E-14
DataValue, -1.45, 0.1, 8.4000000000000008E-14, -1.53E-13, 4E-15
DataValue, -1.425, 0.1, -1.7300000000000002E-13, -9.5000000000000012E-14, -3.6000000000000004E-14
DataValue, -1.4000000000000001, 0.1, 4.4E-14, -4.0000000000000006E-14, 4E-15
DataValue, -1.375, 0.1, 1.3100000000000002E-13, -1.4900000000000002E-13, -1.3000000000000001E-14
DataValue, -1.35, 0.1, -1.3E-13, -4.9000000000000006E-14, -4E-15
DataValue, -1.325, 0.1, 1.34E-13, -8.1000000000000008E-14, 3.0000000000000005E-14
DataValue, -1.3, 0.1, 8.9000000000000012E-14, -1.2000000000000002E-13, -8.1000000000000008E-14
DataValue, -1.2750000000000001, 0.1, -1.75E-13, -7E-14, -3.7E-14
DataValue, -1.25, 0.1, 5.2000000000000006E-14, -7.3E-14, 4.9000000000000006E-14
DataValue, -1.225, 0.1, 9.3000000000000008E-14, -1.6600000000000003E-13, -3.6000000000000004E-14
DataValue, -1.2, 0.1, -2.0100000000000003E-13, -1.2000000000000002E-13, -4.5000000000000004E-14
DataValue, -1.175, 0.1, 1.3000000000000001E-14, -5.8E-14, 3.6000000000000004E-14
DataValue, -1.1500000000000001, 0.1, 1.63E-13, -1.6800000000000002E-13, 1.2000000000000001E-14
DataValue, -1.125, 0.1, -1.57E-13, -1.22E-13, -5.5000000000000005E-14
DataValue, -1.1, 0.1, 9.6000000000000007E-14, -9.3000000000000008E-14, -4.1E-14
DataValue, -1.075, 0.1, 1.22E-13, -2.0900000000000002E-13, -8.5E-14
DataValue, -1.05, 0.1, -1.12E-13, -1.3200000000000002E-13, -4.9000000000000006E-14
DataValue, -1.025, 0.1, 2.8E-14, -1E-13, 5.4000000000000003E-14
DataValue, -1, 0.1, 1.1300000000000001E-13, -2.0300000000000002E-13, -2.4000000000000002E-14
DataValue, -0.975, 0.1, -2.34E-13, -1.0800000000000001E-13, -9.8000000000000012E-14
DataValue, -0.95000000000000007, 0.1, 7E-15, -1.2000000000000002E-13, 2.5E-14
DataValue, -0.925, 0.1, 2.5E-13, -1.5500000000000002E-13, -5.0000000000000008E-15
DataValue, -0.9, 0.1, -1.09E-13, -1.3900000000000001E-13, -6.7E-14
DataValue, -0.875, 0.1, 5.4000000000000003E-14, -6.8E-14, 5E-14
DataValue, -0.85, 0.1, 2.1600000000000001E-13, -1.7400000000000002E-13, -4.0000000000000006E-14
DataValue, -0.82500000000000007, 0.1, -1.42E-13, -1.2600000000000002E-13, -9.0000000000000011E-15
DataValue, -0.8, 0.1, 5.0000000000000008E-15, -9.4E-14, -8E-15
DataValue, -0.775, 0.1, 2.36E-13, -1.9100000000000002E-13, 3.0000000000000002E-15
DataValue, -0.75, 0.1, -1.0500000000000001E-13, -1.58E-13, -1.28E-13
DataValue, -0.725, 0.1, -4E-15, -8.0000000000000013E-14, -1.8000000000000002E-14
DataValue, -0.70000000000000007, 0.1, 2.1500000000000002E-13, -1.71E-13, 1.1E-14
DataValue, -0.675, 0.1, -6.4E-14, -1.9500000000000003E-13, -1.25E-13
DataValue, -0.65, 0.1, -3.3000000000000005E-14, -7.7E-14, -2.0000000000000003E-14
DataValue, -0.625, 0.1, 2.1400000000000002E-13, -1.87E-13, -3.9000000000000004E-14
DataValue, -0.6, 0.1, -6.8E-14, -1.9700000000000002E-13, -8.1000000000000008E-14
DataValue, -0.57500000000000007, 0.1, 2.7000000000000002E-14, -1.0800000000000001E-13, 3.8E-14
DataValue, -0.55, 0.1, 2.33E-13, -2.0400000000000001E-13, -7.2000000000000009E-14
DataValue, -0.525, 0.1, -1.3000000000000001E-14, -1.8000000000000002E-13, -1.4300000000000002E-13
DataValue, -0.5, 0.1, 1.81E-13, -1.23E-13, -1.5600000000000002E-13
DataValue, -0.47500000000000003, 0.1, 5.92E-13, -1.63E-13, -2.7500000000000004E-13
DataValue, -0.45, 0.1, 6.4500000000000008E-13, -9.3000000000000008E-14, -6.32E-13
DataValue, -0.425, 0.1, 1.122E-12, 3.2100000000000005E-13, -9.8900000000000013E-13
DataValue, -0.4, 0.1, 1.7870000000000002E-12, 1.4360000000000001E-12, -2.177E-12
DataValue, -0.375, 0.1, 1.423E-12, 4.336E-12, -5.195E-12
DataValue, -0.35000000000000003, 0.1, 1.4400000000000001E-12, 1.1647000000000002E-11, -1.238E-11
DataValue, -0.325, 0.1, 1.843E-12, 2.9607E-11, -3.0327E-11
DataValue, -0.3, 0.1, 1.496E-12, 7.3432E-11, -7.3925E-11
DataValue, -0.275, 0.1, 1.4700000000000002E-12, 1.79631E-10, -1.79212E-10
DataValue, -0.25, 0.1, 1.837E-12, 4.3567000000000006E-10, -4.32369E-10
DataValue, -0.225, 0.1, 1.498E-12, 1.0494E-09, -1.04133E-09
DataValue, -0.2, 0.1, 1.838E-12, 2.50313E-09, -2.48366E-09
DataValue, -0.17500000000000002, 0.1, 1.7680000000000001E-12, 5.89848E-09, -5.84926E-09
DataValue, -0.15, 0.1, 1.31E-12, 1.3665699999999998E-08, -1.35676E-08
DataValue, -0.125, 0.1, 1.6990000000000001E-12, 3.10932E-08, -3.0864E-08
DataValue, -0.1, 0.1, 1.558E-12, 6.90292E-08, -6.8495399999999987E-08
DataValue, -0.075, 0.1, 1.0830000000000001E-12, 1.45485E-07, -1.44505E-07
DataValue, -0.05, 0.1, 1.088E-12, 2.90659E-07, -2.88764E-07
DataValue, -0.025, 0.1, 8.93E-13, 5.4359E-07, -5.40401E-07
DataValue, 0, 0.1, 1.04E-12, 9.5084899999999994E-07, -9.46174E-07
DataValue, 0.025, 0.1, 8.71E-13, 1.5458100000000002E-06, -1.5383100000000002E-06
DataValue, 0.05, 0.1, 5.3100000000000006E-13, 2.36216E-06, -2.35321E-06
DataValue, 0.075, 0.1, 6.7200000000000006E-13, 3.4081100000000003E-06, -3.3970600000000002E-06
DataValue, 0.1, 0.1, 8.5100000000000011E-13, 4.6780500000000009E-06, -4.66459E-06
DataValue, 0.125, 0.1, 8.7900000000000009E-13, 6.1524100000000004E-06, -6.13679E-06
DataValue, 0.15, 0.1, 6.09E-13, 7.807620000000001E-06, -7.7905500000000012E-06
DataValue, 0.17500000000000002, 0.1, 4.71E-13, 9.61835E-06, -9.60006E-06
DataValue, 0.2, 0.1, 2.5200000000000004E-13, 1.15497E-05, -1.1529900000000001E-05
DataValue, 0.225, 0.1, 3.3300000000000005E-13, 1.3588100000000001E-05, -1.3569500000000001E-05
DataValue, 0.25, 0.1, 5.0600000000000007E-13, 1.57065E-05, -1.56878E-05
DataValue, 0.275, 0.1, 6.2700000000000005E-13, 1.78841E-05, -1.78654E-05
DataValue, 0.3, 0.1, 6.52E-13, 2.01031E-05, -2.0083500000000002E-05
DataValue, 0.325, 0.1, 5.93E-13, 2.23451E-05, -2.23252E-05
DataValue, 0.35000000000000003, 0.1, 3.89E-13, 2.45982E-05, -2.45789E-05
DataValue, 0.375, 0.1, 3.52E-13, 2.68706E-05, -2.68511E-05
DataValue, 0.4, 0.1, 4.72E-13, 2.91114E-05, -2.90925E-05
DataValue, 0.425, 0.1, 5.7100000000000009E-13, 3.1339E-05, -3.13208E-05
DataValue, 0.45, 0.1, 7.1900000000000007E-13, 3.35452E-05, -3.35264E-05
DataValue, 0.47500000000000003, 0.1, 5.17E-13, 3.57241E-05, -3.57064E-05
DataValue, 0.5, 0.1, 2.71E-13, 3.78732E-05, -3.78553E-05
DataValue, 0.525, 0.1, 3.52E-13, 3.99875E-05, -3.99712E-05
DataValue, 0.55, 0.1, 4.5300000000000004E-13, 4.20661E-05, -4.20499E-05
DataValue, 0.57500000000000007, 0.1, 7.3E-13, 4.4110800000000005E-05, -4.4094800000000003E-05
DataValue, 0.6, 0.1, 7.110000000000001E-13, 4.61143E-05, -4.60997E-05
DataValue, 0.625, 0.1, 5.82E-13, 4.80826E-05, -4.80672E-05
DataValue, 0.65, 0.1, 3.5700000000000004E-13, 5.0010500000000005E-05, -4.99961E-05
DataValue, 0.675, 0.1, 3.1100000000000004E-13, 5.1902E-05, -5.1888E-05
DataValue, 0.70000000000000007, 0.1, 5.5300000000000007E-13, 5.37548E-05, -5.3740400000000005E-05
DataValue, 0.725, 0.1, 7.6500000000000007E-13, 5.55717E-05, -5.5558E-05
DataValue, 0.75, 0.1, 6.3E-13, 5.73504E-05, -5.73366E-05
DataValue, 0.775, 0.1, 4.73E-13, 5.9108600000000005E-05, -5.90949E-05
DataValue, 0.8, 0.1, 3.8000000000000005E-13, 6.08156E-05, -6.08037E-05
DataValue, 0.82500000000000007, 0.1, 3.8200000000000004E-13, 6.24882E-05, -6.24768E-05
DataValue, 0.85, 0.1, 5.9700000000000008E-13, 6.41283E-05, -6.41168E-05
DataValue, 0.875, 0.1, 7.25E-13, 6.57394E-05, -6.57289E-05
DataValue, 0.9, 0.1, 6.6800000000000008E-13, 6.73324E-05, -6.7321100000000008E-05
DataValue, 0.925, 0.1, 5.22E-13, 6.88821E-05, -6.88742E-05
DataValue, 0.95000000000000007, 0.1, 2.61E-13, 7.04036E-05, -7.03926E-05
DataValue, 0.975, 0.1, 3.97E-13, 7.18987E-05, -7.18882E-05
DataValue, 1, 0.1, 7.07E-13, 7.33669E-05, -7.33575E-05
DataValue, 1.025, 0.1, 7.4100000000000007E-13, 7.4818500000000009E-05, -7.4808600000000007E-05
DataValue, 1.05, 0.1, 6.2000000000000008E-13, 7.62358E-05, -7.62254E-05
DataValue, 1.075, 0.1, 4.71E-13, 7.76271E-05, -7.76182E-05
DataValue, 1.1, 0.1, 4.0800000000000003E-13, 7.89979E-05, -7.89863E-05
DataValue, 1.125, 0.1, 5.5000000000000008E-13, 8.03524E-05, -8.0343900000000008E-05
DataValue, 1.1500000000000001, 0.1, 7.6700000000000006E-13, 8.16804E-05, -8.1669800000000009E-05
DataValue, 1.175, 0.1, 8.1400000000000007E-13, 8.29819E-05, -8.2974000000000009E-05
DataValue, 1.2, 0.1, 7.1700000000000008E-13, 8.42653E-05, -8.42583E-05
DataValue, 1.225, 0.1, 4.8300000000000006E-13, 8.55316E-05, -8.5523100000000008E-05
DataValue, 1.25, 0.1, 4.3000000000000004E-13, 8.67858E-05, -8.67794E-05
DataValue, 1.2750000000000001, 0.1, 5.43E-13, 8.80161E-05, -8.8004400000000007E-05
DataValue, 1.3, 0.1, 8.3600000000000007E-13, 8.92244E-05, -8.92151E-05
DataValue, 1.325, 0.1, 8.47E-13, 9.04171E-05, -9.04068E-05
DataValue, 1.35, 0.1, 6.2200000000000008E-13, 9.16033E-05, -9.1594E-05
DataValue, 1.375, 0.1, 5.36E-13, 9.27624E-05, -9.27548E-05
