
SetupTitle, Jumbo I/V Sweep
PrimitiveTest, I/V Sweep
TestParameter, Context.MainFrame, B1500A
TestParameter, Channel.UnitType, SMU, SMU, SMU
TestParameter, Channel.Unit, SMU1:HR, SMU2:HR, SMU3:HR
TestParameter, Channel.IName, IG, ID, IS
TestParameter, Channel.VName, VG, VD, VS
TestParameter, Channel.Mode, V, V, COMMON
TestParameter, Channel.Func, VAR1, VAR2, CONST
TestParameter, Channel.Index, 
TestParameter, Channel.Time, 
TestParameter, Measurement.Port.Unit, SMU1:HR, SMU2:HR, SMU3:HR
TestParameter, Measurement.Port.SeriesResistor, NONE, NONE, NONE
TestParameter, Measurement.Port.Filter, ON, ON, ON
TestParameter, Measurement.Port.OutputVoltageComparison, 0, 0, 0
TestParameter, Measurement.Primary.Locus, Single
TestParameter, Measurement.Primary.Scale, LINEAR
TestParameter, Measurement.Primary.Start, -3
TestParameter, Measurement.Primary.Stop, 2
TestParameter, Measurement.Primary.Step, 0.025
TestParameter, Measurement.Primary.Compliance, 0.1
TestParameter, Measurement.Primary.PowerCompliance, 0
TestParameter, Measurement.Aborting.Condition, CONTINUE AT ANY
TestParameter, Measurement.PostOutput.Value, START
TestParameter, Measurement.PostOutput.Retention, OFF
TestParameter, Measurement.Secondary.Start, 0.1
TestParameter, Measurement.Secondary.Count, 8
TestParameter, Measurement.Secondary.Step, 0.2
TestParameter, Measurement.Secondary.Compliance, 0.1
TestParameter, Measurement.Secondary.PowerCompliance, 0
TestParameter, Measurement.Bias.Source, -3, 0.1, 0
TestParameter, Measurement.Bias.Compliance, 0.1, 0.1, 0.1
TestParameter, Measurement.Monitor.Unit, SMU1:HR, SMU2:HR, SMU3:HR
TestParameter, Measurement.Monitor.Adc, HR ADC, HR ADC, HR ADC
TestParameter, Measurement.Monitor.Measurement, Compliance Side, Compliance Side, Compliance Side
TestParameter, Measurement.Monitor.RangingMode, LIMITED, LIMITED, LIMITED
TestParameter, Measurement.Monitor.RangeBoundary, 1nA, 1nA, 1nA
TestParameter, Measurement.Monitor.RangeRating, BY FULL RANGE, BY FULL RANGE, BY FULL RANGE
TestParameter, Measurement.Monitor.RangeRatingCoeff, 50, 50, 50
TestParameter, Measurement.Timing.Hold, 0
TestParameter, Measurement.Timing.Delay, 0
TestParameter, Measurement.Adc.HighSpeed.Mode, AUTO
TestParameter, Measurement.Adc.HighSpeed.Coeff, 1
TestParameter, Measurement.Adc.HighResolution.AutoZero, ON
TestParameter, Measurement.Adc.HighResolution.Mode, PLC
TestParameter, Measurement.Adc.HighResolution.Coeff, 6
TestParameter, Measurement.WaitTime.Source.Coeff, 1
TestParameter, Measurement.WaitTime.Source.Offset, 0
TestParameter, Measurement.WaitTime.Monitor.Coeff, 1
TestParameter, Measurement.WaitTime.Monitor.Offset, 0
TestParameter, Function.User.Name, ID_gexc
TestParameter, Function.User.Unit, A
TestParameter, Function.User.Definition, ID+IG
TestParameter, Output.Graph.Enabled, true
TestParameter, Output.Graph.AutoScaling, false
TestParameter, Output.Graph.XAxis.Data, VG
TestParameter, Output.Graph.XAxis.Scale, Linear
TestParameter, Output.Graph.XAxis.Left, -3
TestParameter, Output.Graph.XAxis.Right, 2
TestParameter, Output.Graph.XAxis.RunTimeAutoScale, false
TestParameter, Output.Graph.YAxis.Data, ID, IG
TestParameter, Output.Graph.YAxis.Scale, Log, Log
TestParameter, Output.Graph.YAxis.Bottom, 0.001, 0.001
TestParameter, Output.Graph.YAxis.Top, 0.01, 0.01
TestParameter, Output.Graph.YAxis.Group, , 
TestParameter, Output.Graph.YAxis.RunTimeAutoScale, true, true
TestParameter, Output.List.Data, VG, VD, ID, IS, IG, ID_gexc
TestParameter, AutoAnalysis.Interpolation, false
TestParameter, AutoAnalysis.Var2StepCount, 1
TestParameter, AutoAnalysis.Var2StepScript, 
TestParameter, AutoAnalysis.Line1.Enabled, false
TestParameter, AutoAnalysis.Line1.Type, 1
TestParameter, AutoAnalysis.Line1.Fix, True
TestParameter, AutoAnalysis.Line1.YAxis, 0
TestParameter, AutoAnalysis.Line1.Point1.Type, 0
TestParameter, AutoAnalysis.Line1.Point1.XY.X, 
TestParameter, AutoAnalysis.Line1.Point1.XY.Y, 
TestParameter, AutoAnalysis.Line1.Point1.Data.Var, 
TestParameter, AutoAnalysis.Line1.Point1.Data.Condition, 
TestParameter, AutoAnalysis.Line1.Point1.Data.Start, false
TestParameter, AutoAnalysis.Line1.Point1.Data.StartVar, 
TestParameter, AutoAnalysis.Line1.Point1.Data.StartCondition, 
TestParameter, AutoAnalysis.Line1.Point2.Type, 0
TestParameter, AutoAnalysis.Line1.Point2.XY.X, 
TestParameter, AutoAnalysis.Line1.Point2.XY.Y, 
TestParameter, AutoAnalysis.Line1.Point2.Data.Var, 
TestParameter, AutoAnalysis.Line1.Point2.Data.Condition, 
TestParameter, AutoAnalysis.Line1.Point2.Data.Start, false
TestParameter, AutoAnalysis.Line1.Point2.Data.StartVar, 
TestParameter, AutoAnalysis.Line1.Point2.Data.StartCondition, 
TestParameter, AutoAnalysis.Line1.GradientExpr, 0
TestParameter, AutoAnalysis.Line2.Enabled, false
TestParameter, AutoAnalysis.Line2.Type, 1
TestParameter, AutoAnalysis.Line2.Fix, True
TestParameter, AutoAnalysis.Line2.YAxis, 0
TestParameter, AutoAnalysis.Line2.Point1.Type, 0
TestParameter, AutoAnalysis.Line2.Point1.XY.X, 
TestParameter, AutoAnalysis.Line2.Point1.XY.Y, 
TestParameter, AutoAnalysis.Line2.Point1.Data.Var, 
TestParameter, AutoAnalysis.Line2.Point1.Data.Condition, 
TestParameter, AutoAnalysis.Line2.Point1.Data.Start, false
TestParameter, AutoAnalysis.Line2.Point1.Data.StartVar, 
TestParameter, AutoAnalysis.Line2.Point1.Data.StartCondition, 
TestParameter, AutoAnalysis.Line2.Point2.Type, 0
TestParameter, AutoAnalysis.Line2.Point2.XY.X, 
TestParameter, AutoAnalysis.Line2.Point2.XY.Y, 
TestParameter, AutoAnalysis.Line2.Point2.Data.Var, 
TestParameter, AutoAnalysis.Line2.Point2.Data.Condition, 
TestParameter, AutoAnalysis.Line2.Point2.Data.Start, false
TestParameter, AutoAnalysis.Line2.Point2.Data.StartVar, 
TestParameter, AutoAnalysis.Line2.Point2.Data.StartCondition, 
TestParameter, AutoAnalysis.Line2.GradientExpr, 0
TestParameter, AutoAnalysis.Marker.Enabled, false
TestParameter, AutoAnalysis.Marker.Data.Var, 
TestParameter, AutoAnalysis.Marker.Data.Condition, 
TestParameter, AutoAnalysis.Marker.Data.Start, false
TestParameter, AutoAnalysis.Marker.Data.StartVar, 
TestParameter, AutoAnalysis.Marker.Data.StartCondition, 
MetaData, TestRecord.EntryPoint, true
MetaData, TestRecord.RecordTime, 12/15/2025 12:44:57
MetaData, TestRecord.TestTarget, WF01_251203_#1_Jumbo_R1
MetaData, TestRecord.IterationIndex, 7
MetaData, TestRecord.Preservation, true
MetaData, TestRecord.Flag, 
MetaData, TestRecord.Remarks, 
MetaData, TestRecord.LinkKey, 0e7950e0-4b98-4e2c-9380-b9f4087299c8
MetaData, TestRecord.Parameters, 
Dimension1, 201, 201, 201, 201, 201, 201
Dimension2, 8, 8, 8, 8, 8, 8
DataName, VG, VD, IG, ID, IS, ID_gexc
DataValue, -3, 0.1, -1.2231600000000002E-10, 2.7327E-11, 1.1805000000000002E-11, -9.4989000000000017E-11
DataValue, -2.975, 0.1, -2.1003000000000002E-11, 1.1849000000000001E-11, 4.17E-12, -9.154E-12
DataValue, -2.95, 0.1, -1.1977E-11, 8.553E-12, 1.7790000000000002E-12, -3.424E-12
DataValue, -2.9250000000000003, 0.1, -7.782E-12, 6.7560000000000007E-12, 5.18E-13, -1.0259999999999999E-12
DataValue, -2.9, 0.1, -5.687E-12, 6.0070000000000006E-12, -1.9600000000000002E-13, 3.2000000000000025E-13
DataValue, -2.875, 0.1, -4.128E-12, 5.2920000000000005E-12, -8.060000000000001E-13, 1.1640000000000003E-12
DataValue, -2.85, 0.1, -3.1530000000000004E-12, 5.103E-12, -1.1600000000000001E-12, 1.95E-12
DataValue, -2.825, 0.1, -2.4160000000000002E-12, 4.6450000000000005E-12, -1.4320000000000002E-12, 2.2290000000000003E-12
DataValue, -2.8000000000000003, 0.1, -1.807E-12, 4.255E-12, -1.7020000000000002E-12, 2.448E-12
DataValue, -2.775, 0.1, -1.2210000000000002E-12, 4.094E-12, -1.7540000000000002E-12, 2.873E-12
DataValue, -2.75, 0.1, -9.17E-13, 3.7820000000000006E-12, -1.976E-12, 2.8650000000000004E-12
DataValue, -2.725, 0.1, -6.4800000000000007E-13, 3.6960000000000004E-12, -1.9790000000000004E-12, 3.0480000000000003E-12
DataValue, -2.7, 0.1, -6.35E-13, 3.4980000000000002E-12, -2.0950000000000003E-12, 2.8630000000000002E-12
DataValue, -2.6750000000000003, 0.1, -2.82E-13, 3.4990000000000003E-12, -2.3910000000000002E-12, 3.2170000000000005E-12
DataValue, -2.65, 0.1, -5.1000000000000004E-14, 3.5580000000000004E-12, -2.364E-12, 3.5070000000000003E-12
DataValue, -2.625, 0.1, 8E-15, 3.2110000000000004E-12, -2.5640000000000004E-12, 3.2190000000000003E-12
DataValue, -2.6, 0.1, 1.89E-13, 3.4190000000000003E-12, -2.6050000000000003E-12, 3.6080000000000004E-12
DataValue, -2.575, 0.1, 3.4900000000000003E-13, 3.2020000000000003E-12, -2.4870000000000002E-12, 3.5510000000000005E-12
DataValue, -2.5500000000000003, 0.1, 2.9000000000000003E-13, 3.301E-12, -2.7510000000000003E-12, 3.5910000000000003E-12
DataValue, -2.525, 0.1, 2.83E-13, 3.2030000000000004E-12, -2.6960000000000002E-12, 3.4860000000000003E-12
DataValue, -2.5, 0.1, 6.870000000000001E-13, 3.1E-12, -2.8180000000000003E-12, 3.787E-12
DataValue, -2.475, 0.1, 7.2000000000000006E-13, 3.042E-12, -3.067E-12, 3.762E-12
DataValue, -2.45, 0.1, 9.1000000000000016E-13, 3.154E-12, -2.9020000000000004E-12, 4.0640000000000005E-12
DataValue, -2.4250000000000003, 0.1, 8.1700000000000005E-13, 3.0010000000000002E-12, -3.084E-12, 3.818E-12
DataValue, -2.4, 0.1, 9.5600000000000017E-13, 3.0720000000000002E-12, -3.0930000000000003E-12, 4.028E-12
DataValue, -2.375, 0.1, 1.088E-12, 2.904E-12, -3.1060000000000003E-12, 3.992E-12
DataValue, -2.35, 0.1, 1.04E-12, 2.728E-12, -2.9090000000000002E-12, 3.768E-12
DataValue, -2.325, 0.1, 1.162E-12, 2.6470000000000003E-12, -2.899E-12, 3.8090000000000004E-12
DataValue, -2.3000000000000003, 0.1, 1.186E-12, 2.878E-12, -2.916E-12, 4.0640000000000005E-12
DataValue, -2.275, 0.1, 1.153E-12, 2.49E-12, -2.9100000000000003E-12, 3.643E-12
DataValue, -2.25, 0.1, 1.197E-12, 2.658E-12, -2.9440000000000004E-12, 3.855E-12
DataValue, -2.225, 0.1, 1.149E-12, 2.6140000000000004E-12, -2.8980000000000004E-12, 3.763E-12
DataValue, -2.2, 0.1, 1.3690000000000001E-12, 2.6380000000000003E-12, -3.067E-12, 4.007E-12
DataValue, -2.1750000000000003, 0.1, 1.2880000000000002E-12, 2.599E-12, -2.928E-12, 3.8870000000000007E-12
DataValue, -2.15, 0.1, 1.5240000000000002E-12, 2.5330000000000002E-12, -3.1280000000000004E-12, 4.057E-12
DataValue, -2.125, 0.1, 1.329E-12, 2.6500000000000002E-12, -3.154E-12, 3.979E-12
DataValue, -2.1, 0.1, 1.7280000000000001E-12, 2.6550000000000003E-12, -3.1980000000000003E-12, 4.383E-12
DataValue, -2.075, 0.1, 1.293E-12, 2.7310000000000004E-12, -3.0300000000000002E-12, 4.0240000000000006E-12
DataValue, -2.05, 0.1, 1.4450000000000002E-12, 2.5680000000000004E-12, -3.0690000000000004E-12, 4.0130000000000008E-12
DataValue, -2.025, 0.1, 1.3670000000000001E-12, 2.6310000000000004E-12, -3.397E-12, 3.9980000000000005E-12
DataValue, -2, 0.1, 1.285E-12, 2.79E-12, -3.3780000000000003E-12, 4.075E-12
DataValue, -1.975, 0.1, 1.5680000000000002E-12, 2.758E-12, -3.3440000000000003E-12, 4.3260000000000008E-12
DataValue, -1.95, 0.1, 1.3400000000000002E-12, 2.616E-12, -3.3160000000000004E-12, 3.9560000000000005E-12
DataValue, -1.925, 0.1, 1.525E-12, 2.732E-12, -3.3540000000000005E-12, 4.257E-12
DataValue, -1.9000000000000001, 0.1, 1.3270000000000001E-12, 2.719E-12, -3.3E-12, 4.046E-12
DataValue, -1.875, 0.1, 1.5090000000000001E-12, 2.432E-12, -3.2690000000000003E-12, 3.941E-12
DataValue, -1.85, 0.1, 1.4400000000000001E-12, 2.5890000000000004E-12, -3.3350000000000002E-12, 4.0290000000000007E-12
DataValue, -1.825, 0.1, 1.5850000000000002E-12, 2.3840000000000003E-12, -3.0560000000000003E-12, 3.9690000000000006E-12
DataValue, -1.8, 0.1, 1.4470000000000002E-12, 2.29E-12, -3.1810000000000003E-12, 3.737E-12
DataValue, -1.7750000000000001, 0.1, 1.5800000000000001E-12, 2.243E-12, -3.1320000000000004E-12, 3.823E-12
DataValue, -1.75, 0.1, 1.7040000000000002E-12, 2.297E-12, -3.1280000000000004E-12, 4.0010000000000004E-12
DataValue, -1.725, 0.1, 1.4800000000000002E-12, 2.4510000000000004E-12, -3.0890000000000003E-12, 3.931E-12
DataValue, -1.7, 0.1, 1.59E-12, 2.3830000000000002E-12, -3.46E-12, 3.973E-12
DataValue, -1.675, 0.1, 1.5410000000000002E-12, 2.624E-12, -3.3280000000000004E-12, 4.165E-12
DataValue, -1.6500000000000001, 0.1, 1.548E-12, 2.3800000000000004E-12, -3.4000000000000005E-12, 3.928E-12
DataValue, -1.625, 0.1, 1.5970000000000002E-12, 2.23E-12, -3.1240000000000004E-12, 3.827E-12
DataValue, -1.6, 0.1, 1.5490000000000002E-12, 2.4040000000000003E-12, -3.296E-12, 3.9530000000000006E-12
DataValue, -1.575, 0.1, 1.5090000000000001E-12, 2.494E-12, -3.2940000000000003E-12, 4.0030000000000006E-12
DataValue, -1.55, 0.1, 1.5200000000000002E-12, 2.427E-12, -3.313E-12, 3.947E-12
DataValue, -1.5250000000000001, 0.1, 1.7270000000000002E-12, 2.364E-12, -3.3370000000000004E-12, 4.091E-12
DataValue, -1.5, 0.1, 1.5550000000000001E-12, 2.4550000000000003E-12, -3.167E-12, 4.0100000000000009E-12
DataValue, -1.475, 0.1, 1.5630000000000001E-12, 2.3550000000000004E-12, -3.2410000000000004E-12, 3.918E-12
DataValue, -1.45, 0.1, 1.6740000000000001E-12, 2.5710000000000003E-12, -3.3060000000000003E-12, 4.2450000000000006E-12
DataValue, -1.425, 0.1, 1.5070000000000001E-12, 2.5050000000000003E-12, -3.614E-12, 4.012E-12
DataValue, -1.4000000000000001, 0.1, 1.7640000000000002E-12, 2.4550000000000003E-12, -3.4110000000000003E-12, 4.2190000000000005E-12
DataValue, -1.375, 0.1, 1.6260000000000001E-12, 2.548E-12, -3.438E-12, 4.1740000000000006E-12
DataValue, -1.35, 0.1, 1.6010000000000002E-12, 2.364E-12, -3.4740000000000003E-12, 3.965E-12
DataValue, -1.325, 0.1, 1.577E-12, 2.436E-12, -3.518E-12, 4.013E-12
DataValue, -1.3, 0.1, 1.7220000000000001E-12, 2.5760000000000003E-12, -3.3E-12, 4.2980000000000005E-12
DataValue, -1.2750000000000001, 0.1, 1.5800000000000001E-12, 2.3590000000000003E-12, -3.246E-12, 3.9390000000000009E-12
DataValue, -1.25, 0.1, 1.485E-12, 2.5260000000000003E-12, -3.376E-12, 4.0110000000000006E-12
DataValue, -1.225, 0.1, 1.525E-12, 2.537E-12, -3.3700000000000004E-12, 4.062E-12
DataValue, -1.2, 0.1, 1.5010000000000002E-12, 2.3750000000000003E-12, -3.2520000000000003E-12, 3.876E-12
DataValue, -1.175, 0.1, 1.5890000000000002E-12, 2.4830000000000002E-12, -3.3200000000000004E-12, 4.0720000000000004E-12
DataValue, -1.1500000000000001, 0.1, 1.6930000000000002E-12, 2.4420000000000003E-12, -3.3750000000000005E-12, 4.1350000000000005E-12
DataValue, -1.125, 0.1, 1.5930000000000002E-12, 2.481E-12, -3.4230000000000003E-12, 4.0740000000000006E-12
DataValue, -1.1, 0.1, 1.567E-12, 2.432E-12, -3.4330000000000004E-12, 3.999E-12
DataValue, -1.075, 0.1, 1.3920000000000001E-12, 2.331E-12, -3.4250000000000005E-12, 3.723E-12
DataValue, -1.05, 0.1, 1.6780000000000001E-12, 2.5340000000000003E-12, -3.518E-12, 4.212E-12
DataValue, -1.025, 0.1, 1.5850000000000002E-12, 2.552E-12, -3.53E-12, 4.137E-12
DataValue, -1, 0.1, 1.5970000000000002E-12, 2.627E-12, -3.4540000000000004E-12, 4.224E-12
DataValue, -0.975, 0.1, 1.686E-12, 2.661E-12, -3.522E-12, 4.347E-12
DataValue, -0.95000000000000007, 0.1, 1.5830000000000002E-12, 2.658E-12, -3.7320000000000007E-12, 4.241E-12
DataValue, -0.925, 0.1, 1.6450000000000002E-12, 2.6550000000000003E-12, -3.678E-12, 4.3000000000000007E-12
DataValue, -0.9, 0.1, 1.4470000000000002E-12, 2.7920000000000002E-12, -3.762E-12, 4.2390000000000008E-12
DataValue, -0.875, 0.1, 1.5090000000000001E-12, 2.75E-12, -3.692E-12, 4.259E-12
DataValue, -0.85, 0.1, 1.5550000000000001E-12, 3.1570000000000004E-12, -4.028E-12, 4.712E-12
DataValue, -0.82500000000000007, 0.1, 1.619E-12, 3.5870000000000004E-12, -4.4240000000000005E-12, 5.206E-12
DataValue, -0.8, 0.1, 1.4930000000000002E-12, 3.954E-12, -5.017E-12, 5.4470000000000005E-12
DataValue, -0.775, 0.1, 1.4990000000000002E-12, 5.1150000000000007E-12, -6.1600000000000004E-12, 6.6140000000000007E-12
DataValue, -0.75, 0.1, 1.646E-12, 7.207E-12, -8.237E-12, 8.853E-12
DataValue, -0.725, 0.1, 1.4260000000000002E-12, 9.9850000000000016E-12, -1.0653000000000002E-11, 1.1411000000000001E-11
DataValue, -0.70000000000000007, 0.1, 1.5870000000000002E-12, 1.3160000000000001E-11, -1.4456E-11, 1.4747E-11
DataValue, -0.675, 0.1, 1.573E-12, 1.9467000000000002E-11, -2.0383E-11, 2.1040000000000002E-11
DataValue, -0.65, 0.1, 1.5700000000000002E-12, 2.8766000000000002E-11, -2.9285000000000005E-11, 3.0336E-11
DataValue, -0.625, 0.1, 1.3940000000000001E-12, 3.8774E-11, -3.8838E-11, 4.0168000000000004E-11
DataValue, -0.6, 0.1, 1.51E-12, 5.4420000000000004E-11, -5.5276000000000006E-11, 5.5930000000000007E-11
DataValue, -0.57500000000000007, 0.1, 1.5400000000000001E-12, 7.664500000000001E-11, -7.482E-11, 7.8185000000000012E-11
DataValue, -0.55, 0.1, 1.5630000000000001E-12, 1.01023E-10, -1.01077E-10, 1.0258600000000001E-10
DataValue, -0.525, 0.1, 1.5700000000000002E-12, 1.3277500000000002E-10, -1.3383000000000002E-10, 1.3434500000000002E-10
DataValue, -0.5, 0.1, 1.381E-12, 1.6842000000000002E-10, -1.7053100000000001E-10, 1.6980100000000003E-10
DataValue, -0.47500000000000003, 0.1, 1.648E-12, 2.2504700000000001E-10, -2.2326400000000002E-10, 2.26695E-10
DataValue, -0.45, 0.1, 1.458E-12, 2.8281600000000003E-10, -2.83291E-10, 2.84274E-10
DataValue, -0.425, 0.1, 1.475E-12, 3.6052200000000003E-10, -3.59025E-10, 3.61997E-10
DataValue, -0.4, 0.1, 1.6300000000000001E-12, 4.5145900000000005E-10, -4.5319900000000004E-10, 4.5308900000000008E-10
DataValue, -0.375, 0.1, 1.4150000000000001E-12, 5.5489400000000007E-10, -5.54453E-10, 5.5630900000000011E-10
DataValue, -0.35000000000000003, 0.1, 1.4550000000000002E-12, 6.84374E-10, -6.81131E-10, 6.85829E-10
DataValue, -0.325, 0.1, 1.858E-12, 8.40581E-10, -8.38256E-10, 8.42439E-10
DataValue, -0.3, 0.1, 2.1070000000000002E-12, 1.02522E-09, -1.02158E-09, 1.0273269999999999E-09
DataValue, -0.275, 0.1, 2.733E-12, 1.2469E-09, -1.23796E-09, 1.2496329999999999E-09
DataValue, -0.25, 0.1, 3.2650000000000003E-12, 1.52367E-09, -1.52175E-09, 1.526935E-09
DataValue, -0.225, 0.1, 3.5460000000000004E-12, 1.88026E-09, -1.8671E-09, 1.883806E-09
DataValue, -0.2, 0.1, 3.665E-12, 2.2832E-09, -2.26886E-09, 2.286865E-09
DataValue, -0.17500000000000002, 0.1, 3.5380000000000005E-12, 2.7999E-09, -2.78232E-09, 2.8034379999999998E-09
DataValue, -0.15, 0.1, 3.765E-12, 3.45481E-09, -3.43766E-09, 3.458575E-09
DataValue, -0.125, 0.1, 3.831E-12, 4.38387E-09, -4.37469E-09, 4.387701E-09
DataValue, -0.1, 0.1, 3.663E-12, 5.85114E-09, -5.83043E-09, 5.8548029999999994E-09
DataValue, -0.075, 0.1, 3.388E-12, 8.35032E-09, -8.2964E-09, 8.353708E-09
DataValue, -0.05, 0.1, 3.0050000000000002E-12, 1.2965199999999998E-08, -1.2913799999999998E-08, 1.2968204999999998E-08
DataValue, -0.025, 0.1, 3.3320000000000003E-12, 2.21482E-08, -2.2026699999999996E-08, 2.2151532E-08
DataValue, 0, 0.1, 3.133E-12, 4.0960799999999994E-08, -4.07619E-08, 4.0963933E-08
DataValue, 0.025, 0.1, 2.9900000000000004E-12, 8.0015399999999987E-08, -7.9574199999999993E-08, 8.0018389999999981E-08
DataValue, 0.05, 0.1, 2.8270000000000004E-12, 1.5996099999999999E-07, -1.59147E-07, 1.59963827E-07
DataValue, 0.075, 0.1, 2.7060000000000004E-12, 3.12375E-07, -3.10992E-07, 3.1237770600000004E-07
DataValue, 0.1, 0.1, 2.6420000000000003E-12, 5.8269999999999994E-07, -5.80281E-07, 5.8270264199999989E-07
DataValue, 0.125, 0.1, 2.6810000000000004E-12, 1.021893E-06, -1.01823E-06, 1.021895681E-06
DataValue, 0.15, 0.1, 1.9200000000000003E-12, 1.6763000000000002E-06, -1.67102E-06, 1.6763019200000001E-06
DataValue, 0.17500000000000002, 0.1, 2.3210000000000003E-12, 2.58509E-06, -2.57895E-06, 2.585092321E-06
DataValue, 0.2, 0.1, 2.282E-12, 3.7742200000000003E-06, -3.7665200000000004E-06, 3.7742222820000004E-06
DataValue, 0.225, 0.1, 1.897E-12, 5.2227200000000005E-06, -5.2135E-06, 5.222721897000001E-06
DataValue, 0.25, 0.1, 2.0870000000000003E-12, 6.9254600000000006E-06, -6.9157800000000011E-06, 6.925462087E-06
DataValue, 0.275, 0.1, 2.6290000000000002E-12, 8.8624400000000012E-06, -8.8511800000000012E-06, 8.862442629E-06
DataValue, 0.3, 0.1, 1.867E-12, 1.10071E-05, -1.09924E-05, 1.1007101867E-05
DataValue, 0.325, 0.1, 2.8560000000000004E-12, 1.3336900000000001E-05, -1.33255E-05, 1.3336902856E-05
DataValue, 0.35000000000000003, 0.1, 1.905E-12, 1.58351E-05, -1.5822100000000002E-05, 1.5835101905E-05
