
SetupTitle, Jumbo I/V Sweep
PrimitiveTest, I/V Sweep
TestParameter, Context.MainFrame, B1500A
TestParameter, Channel.UnitType, SMU, SMU, SMU
TestParameter, Channel.Unit, SMU3:HR, SMU1:HR, SMU4:HR
TestParameter, Channel.IName, IG, ID, IS
TestParameter, Channel.VName, VG, VD, VS
TestParameter, Channel.Mode, V, V, COMMON
TestParameter, Channel.Func, VAR1, VAR2, CONST
TestParameter, Channel.Index, 
TestParameter, Channel.Time, 
TestParameter, Measurement.Port.Unit, SMU3:HR, SMU1:HR, SMU4:HR
TestParameter, Measurement.Port.SeriesResistor, NONE, NONE, NONE
TestParameter, Measurement.Port.Filter, ON, ON, ON
TestParameter, Measurement.Port.OutputVoltageComparison, 0, 0, 0
TestParameter, Measurement.Primary.Locus, Single
TestParameter, Measurement.Primary.Scale, LINEAR
TestParameter, Measurement.Primary.Start, -3
TestParameter, Measurement.Primary.Stop, 2
TestParameter, Measurement.Primary.Step, 0.025
TestParameter, Measurement.Primary.Compliance, 0.1
TestParameter, Measurement.Primary.PowerCompliance, 0
TestParameter, Measurement.Aborting.Condition, CONTINUE AT ANY
TestParameter, Measurement.PostOutput.Value, START
TestParameter, Measurement.PostOutput.Retention, OFF
TestParameter, Measurement.Secondary.Start, 0.1
TestParameter, Measurement.Secondary.Count, 8
TestParameter, Measurement.Secondary.Step, 0.2
TestParameter, Measurement.Secondary.Compliance, 0.1
TestParameter, Measurement.Secondary.PowerCompliance, 0
TestParameter, Measurement.Bias.Source, -3, 0.1, 0
TestParameter, Measurement.Bias.Compliance, 0.1, 0.1, 0.1
TestParameter, Measurement.Monitor.Unit, SMU3:HR, SMU1:HR, SMU4:HR
TestParameter, Measurement.Monitor.Adc, HR ADC, HR ADC, HR ADC
TestParameter, Measurement.Monitor.Measurement, Compliance Side, Compliance Side, Compliance Side
TestParameter, Measurement.Monitor.RangingMode, LIMITED, LIMITED, LIMITED
TestParameter, Measurement.Monitor.RangeBoundary, 1nA, 1nA, 1nA
TestParameter, Measurement.Monitor.RangeRating, BY FULL RANGE, BY FULL RANGE, BY FULL RANGE
TestParameter, Measurement.Monitor.RangeRatingCoeff, 50, 50, 50
TestParameter, Measurement.Timing.Hold, 0
TestParameter, Measurement.Timing.Delay, 0
TestParameter, Measurement.Adc.HighSpeed.Mode, AUTO
TestParameter, Measurement.Adc.HighSpeed.Coeff, 1
TestParameter, Measurement.Adc.HighResolution.AutoZero, ON
TestParameter, Measurement.Adc.HighResolution.Mode, PLC
TestParameter, Measurement.Adc.HighResolution.Coeff, 6
TestParameter, Measurement.WaitTime.Source.Coeff, 1
TestParameter, Measurement.WaitTime.Source.Offset, 0
TestParameter, Measurement.WaitTime.Monitor.Coeff, 1
TestParameter, Measurement.WaitTime.Monitor.Offset, 0
TestParameter, Output.Graph.Enabled, true
TestParameter, Output.Graph.AutoScaling, false
TestParameter, Output.Graph.XAxis.Data, VG
TestParameter, Output.Graph.XAxis.Scale, Linear
TestParameter, Output.Graph.XAxis.Left, -3
TestParameter, Output.Graph.XAxis.Right, 2
TestParameter, Output.Graph.XAxis.RunTimeAutoScale, false
TestParameter, Output.Graph.YAxis.Data, ID, IG
TestParameter, Output.Graph.YAxis.Scale, Log, Log
TestParameter, Output.Graph.YAxis.Bottom, 0.001, 0.001
TestParameter, Output.Graph.YAxis.Top, 0.01, 0.01
TestParameter, Output.Graph.YAxis.Group, , 
TestParameter, Output.Graph.YAxis.RunTimeAutoScale, true, true
TestParameter, Output.List.Data, VG, VD, ID, IS, IG
TestParameter, AutoAnalysis.Interpolation, false
TestParameter, AutoAnalysis.Var2StepCount, 1
TestParameter, AutoAnalysis.Var2StepScript, 
TestParameter, AutoAnalysis.Line1.Enabled, false
TestParameter, AutoAnalysis.Line1.Type, 1
TestParameter, AutoAnalysis.Line1.Fix, True
TestParameter, AutoAnalysis.Line1.YAxis, 0
TestParameter, AutoAnalysis.Line1.Point1.Type, 0
TestParameter, AutoAnalysis.Line1.Point1.XY.X, 
TestParameter, AutoAnalysis.Line1.Point1.XY.Y, 
TestParameter, AutoAnalysis.Line1.Point1.Data.Var, 
TestParameter, AutoAnalysis.Line1.Point1.Data.Condition, 
TestParameter, AutoAnalysis.Line1.Point1.Data.Start, false
TestParameter, AutoAnalysis.Line1.Point1.Data.StartVar, 
TestParameter, AutoAnalysis.Line1.Point1.Data.StartCondition, 
TestParameter, AutoAnalysis.Line1.Point2.Type, 0
TestParameter, AutoAnalysis.Line1.Point2.XY.X, 
TestParameter, AutoAnalysis.Line1.Point2.XY.Y, 
TestParameter, AutoAnalysis.Line1.Point2.Data.Var, 
TestParameter, AutoAnalysis.Line1.Point2.Data.Condition, 
TestParameter, AutoAnalysis.Line1.Point2.Data.Start, false
TestParameter, AutoAnalysis.Line1.Point2.Data.StartVar, 
TestParameter, AutoAnalysis.Line1.Point2.Data.StartCondition, 
TestParameter, AutoAnalysis.Line1.GradientExpr, 0
TestParameter, AutoAnalysis.Line2.Enabled, false
TestParameter, AutoAnalysis.Line2.Type, 1
TestParameter, AutoAnalysis.Line2.Fix, True
TestParameter, AutoAnalysis.Line2.YAxis, 0
TestParameter, AutoAnalysis.Line2.Point1.Type, 0
TestParameter, AutoAnalysis.Line2.Point1.XY.X, 
TestParameter, AutoAnalysis.Line2.Point1.XY.Y, 
TestParameter, AutoAnalysis.Line2.Point1.Data.Var, 
TestParameter, AutoAnalysis.Line2.Point1.Data.Condition, 
TestParameter, AutoAnalysis.Line2.Point1.Data.Start, false
TestParameter, AutoAnalysis.Line2.Point1.Data.StartVar, 
TestParameter, AutoAnalysis.Line2.Point1.Data.StartCondition, 
TestParameter, AutoAnalysis.Line2.Point2.Type, 0
TestParameter, AutoAnalysis.Line2.Point2.XY.X, 
TestParameter, AutoAnalysis.Line2.Point2.XY.Y, 
TestParameter, AutoAnalysis.Line2.Point2.Data.Var, 
TestParameter, AutoAnalysis.Line2.Point2.Data.Condition, 
TestParameter, AutoAnalysis.Line2.Point2.Data.Start, false
TestParameter, AutoAnalysis.Line2.Point2.Data.StartVar, 
TestParameter, AutoAnalysis.Line2.Point2.Data.StartCondition, 
TestParameter, AutoAnalysis.Line2.GradientExpr, 0
TestParameter, AutoAnalysis.Marker.Enabled, false
TestParameter, AutoAnalysis.Marker.Data.Var, 
TestParameter, AutoAnalysis.Marker.Data.Condition, 
TestParameter, AutoAnalysis.Marker.Data.Start, false
TestParameter, AutoAnalysis.Marker.Data.StartVar, 
TestParameter, AutoAnalysis.Marker.Data.StartCondition, 
MetaData, TestRecord.EntryPoint, true
MetaData, TestRecord.RecordTime, 12/12/2025 09:51:57
MetaData, TestRecord.TestTarget, WF01_251203_#1_Jumbo_L0
MetaData, TestRecord.IterationIndex, 1
MetaData, TestRecord.Preservation, true
MetaData, TestRecord.Flag, 
MetaData, TestRecord.Remarks, 
MetaData, TestRecord.LinkKey, 40633331-4a6a-42df-bcc9-49c13ef15d0e
MetaData, TestRecord.Parameters, 
Dimension1, 201, 201, 201, 201, 201
Dimension2, 8, 8, 8, 8, 8
DataName, VG, VD, IG, ID, IS
DataValue, -3, 0.1, -2.7744E-11, 6.5930000000000007E-12, 2.7930000000000003E-12
DataValue, -2.975, 0.1, -5.1340000000000005E-12, 2.5470000000000004E-12, 1.5450000000000002E-12
DataValue, -2.95, 0.1, -2.9090000000000002E-12, 1.5390000000000002E-12, 1.122E-12
DataValue, -2.9250000000000003, 0.1, -2.327E-12, 1.1750000000000001E-12, 7.6800000000000006E-13
DataValue, -2.9, 0.1, -1.994E-12, 9.6200000000000014E-13, 5.4700000000000009E-13
DataValue, -2.875, 0.1, -1.458E-12, 8.2E-13, 5.66E-13
DataValue, -2.85, 0.1, -1.019E-12, 6.16E-13, 5.46E-13
DataValue, -2.825, 0.1, -1.0640000000000001E-12, 4.65E-13, 4.21E-13
DataValue, -2.8000000000000003, 0.1, -1.155E-12, 5.12E-13, 3.08E-13
DataValue, -2.775, 0.1, -9.3300000000000016E-13, 5.0700000000000006E-13, 3.3500000000000004E-13
DataValue, -2.75, 0.1, -5.5200000000000007E-13, 4E-13, 3.64E-13
DataValue, -2.725, 0.1, -6.06E-13, 2.55E-13, 2.71E-13
DataValue, -2.7, 0.1, -7.72E-13, 2.7E-13, 1.82E-13
DataValue, -2.6750000000000003, 0.1, -7.6300000000000008E-13, 3.41E-13, 2.0800000000000002E-13
DataValue, -2.65, 0.1, -3.63E-13, 3.03E-13, 3.1000000000000004E-13
DataValue, -2.625, 0.1, -2.68E-13, 1.4900000000000002E-13, 2.93E-13
DataValue, -2.6, 0.1, -5.66E-13, 1.0800000000000001E-13, 1.63E-13
DataValue, -2.575, 0.1, -6.35E-13, 2.2800000000000004E-13, 1.5000000000000002E-13
DataValue, -2.5500000000000003, 0.1, -3.07E-13, 2.17E-13, 2.81E-13
DataValue, -2.525, 0.1, -8.9000000000000012E-14, 6.7E-14, 1.77E-13
DataValue, -2.5, 0.1, -4.5800000000000007E-13, 3.5E-14, 1.1500000000000002E-13
DataValue, -2.475, 0.1, -5.2700000000000008E-13, 1.7E-13, 1.12E-13
DataValue, -2.45, 0.1, -2.4000000000000004E-13, 1.59E-13, 1.7300000000000002E-13
DataValue, -2.4250000000000003, 0.1, -2.6000000000000003E-14, 7.3E-14, 1.9500000000000003E-13
DataValue, -2.4, 0.1, -3.3500000000000004E-13, 6.0000000000000005E-15, 8.8E-14
DataValue, -2.375, 0.1, -4.4100000000000004E-13, 1.0700000000000001E-13, -3.0000000000000002E-15
DataValue, -2.35, 0.1, -1.93E-13, 1.63E-13, 1.28E-13
DataValue, -2.325, 0.1, 2.8E-14, 4E-15, 1.57E-13
DataValue, -2.3000000000000003, 0.1, -2.3900000000000004E-13, -1.8000000000000002E-14, 8.2E-14
DataValue, -2.275, 0.1, -3.6900000000000004E-13, 6.1E-14, 6.6000000000000009E-14
DataValue, -2.25, 0.1, -2.17E-13, 8.7000000000000008E-14, 1.46E-13
DataValue, -2.225, 0.1, 7.4E-14, 1.7E-14, 1.19E-13
DataValue, -2.2, 0.1, -5.4000000000000003E-14, -1.1E-14, 6.5E-14
DataValue, -2.1750000000000003, 0.1, -4.63E-13, 2.6000000000000003E-14, -1.2000000000000001E-14
DataValue, -2.15, 0.1, -2.4100000000000003E-13, 6.5E-14, 4.3000000000000006E-14
DataValue, -2.125, 0.1, 8.3000000000000012E-14, -1.7E-14, 1.23E-13
DataValue, -2.1, 0.1, 3.6000000000000004E-14, -9.1E-14, 1.46E-13
DataValue, -2.075, 0.1, -3.5700000000000004E-13, -7E-14, 4.2000000000000004E-14
DataValue, -2.05, 0.1, -3.18E-13, 2.3000000000000003E-14, 5.3E-14
DataValue, -2.025, 0.1, 7.3E-14, 3.9000000000000004E-14, 1.2600000000000002E-13
DataValue, -2, 0.1, 1.7400000000000002E-13, -5.8E-14, 7.9E-14
DataValue, -1.975, 0.1, -2.7500000000000004E-13, -1.24E-13, 8E-15
DataValue, -1.95, 0.1, -2.8900000000000003E-13, 1.2000000000000001E-14, 1.2000000000000001E-14
DataValue, -1.925, 0.1, 7.5000000000000009E-14, -4E-15, 1.2000000000000002E-13
DataValue, -1.9000000000000001, 0.1, 1.3100000000000002E-13, -6.9000000000000009E-14, 5.700000000000001E-14
DataValue, -1.875, 0.1, -2.33E-13, -6.6000000000000009E-14, 3.0000000000000002E-15
DataValue, -1.85, 0.1, -3.0200000000000003E-13, 4.7E-14, -3.0000000000000005E-14
DataValue, -1.825, 0.1, 5.3E-14, 3.6000000000000004E-14, 1.06E-13
DataValue, -1.8, 0.1, 2.47E-13, -1.24E-13, 4.9000000000000006E-14
DataValue, -1.7750000000000001, 0.1, -1.9000000000000002E-13, -1.03E-13, -3.2E-14
DataValue, -1.75, 0.1, -3.27E-13, -3.0000000000000005E-14, -8E-15
DataValue, -1.725, 0.1, -3.5E-14, 2.3000000000000003E-14, 8.0000000000000013E-14
DataValue, -1.7, 0.1, 2.1000000000000001E-13, -1.0500000000000001E-13, 9.0000000000000008E-14
DataValue, -1.675, 0.1, -2.2E-14, -1.3700000000000002E-13, -2.8E-14
DataValue, -1.6500000000000001, 0.1, -2.61E-13, -5.3E-14, -8.8E-14
DataValue, -1.625, 0.1, -1.65E-13, -2.0000000000000003E-14, 4.2000000000000004E-14
DataValue, -1.6, 0.1, 2.81E-13, -7.9E-14, 1.0500000000000001E-13
DataValue, -1.575, 0.1, 8.4000000000000008E-14, -1.3300000000000001E-13, 1.8000000000000002E-14
DataValue, -1.55, 0.1, -2.7700000000000003E-13, -8.5E-14, 2.2E-14
DataValue, -1.5250000000000001, 0.1, -1.88E-13, 1.0000000000000002E-14, 3.9000000000000004E-14
DataValue, -1.5, 0.1, 1.94E-13, -7.8000000000000008E-14, 1.28E-13
DataValue, -1.475, 0.1, 3.1E-14, -1.5500000000000002E-13, -1E-15
DataValue, -1.45, 0.1, -2.35E-13, -7.3E-14, -1.1000000000000001E-13
DataValue, -1.425, 0.1, -1.9700000000000002E-13, -2.1000000000000002E-14, -5E-14
DataValue, -1.4000000000000001, 0.1, 1.89E-13, -3.9000000000000004E-14, 8.8E-14
DataValue, -1.375, 0.1, 2.2000000000000002E-13, -1.5500000000000002E-13, 5.1000000000000004E-14
DataValue, -1.35, 0.1, -2.4100000000000003E-13, -1.3700000000000002E-13, -4.8000000000000004E-14
DataValue, -1.325, 0.1, -2.4200000000000003E-13, -1.7E-14, -5.8E-14
DataValue, -1.3, 0.1, 3.5600000000000005E-13, -8.5E-14, 5.5000000000000005E-14
DataValue, -1.2750000000000001, 0.1, 2.67E-13, -1.75E-13, -1.0000000000000002E-14
DataValue, -1.25, 0.1, -1.18E-13, -8.7000000000000008E-14, -8.0000000000000013E-14
DataValue, -1.225, 0.1, -1.9100000000000002E-13, -4.5000000000000004E-14, -2.2E-14
DataValue, -1.2, 0.1, 1.88E-13, -6.3000000000000009E-14, 4.3000000000000006E-14
DataValue, -1.175, 0.1, 2.24E-13, -1.6100000000000002E-13, 3.2E-14
DataValue, -1.1500000000000001, 0.1, -1.77E-13, -1.5100000000000001E-13, -8.7000000000000008E-14
DataValue, -1.125, 0.1, -2.23E-13, -1.7E-14, -8.3000000000000012E-14
DataValue, -1.1, 0.1, 2.06E-13, -4.4E-14, 2.5E-14
DataValue, -1.075, 0.1, 2.43E-13, -1.54E-13, 5E-14
DataValue, -1.05, 0.1, -2.0100000000000003E-13, -1.16E-13, -1.4E-14
DataValue, -1.025, 0.1, -2.2200000000000001E-13, -5E-14, -4.3000000000000006E-14
DataValue, -1, 0.1, 1.58E-13, -6.0000000000000009E-14, 5.3E-14
DataValue, -0.975, 0.1, 2.17E-13, -2.0300000000000002E-13, -3.3000000000000005E-14
DataValue, -0.95000000000000007, 0.1, -1.57E-13, -1.6600000000000003E-13, -1.25E-13
DataValue, -0.925, 0.1, -2.49E-13, -9.2000000000000012E-14, -7.2000000000000009E-14
DataValue, -0.9, 0.1, 1.47E-13, -8.6000000000000012E-14, 4.2000000000000004E-14
DataValue, -0.875, 0.1, 2.12E-13, -1.83E-13, 1.6E-14
DataValue, -0.85, 0.1, -1.25E-13, -1.5500000000000002E-13, -5.6E-14
DataValue, -0.82500000000000007, 0.1, -2.49E-13, -5E-14, -2.3000000000000003E-14
DataValue, -0.8, 0.1, 1.88E-13, -1.0400000000000001E-13, 6.3000000000000009E-14
DataValue, -0.775, 0.1, 2.1300000000000003E-13, -1.54E-13, -3.4E-14
DataValue, -0.75, 0.1, -2.0200000000000002E-13, -1.52E-13, -7.9E-14
DataValue, -0.725, 0.1, -1.58E-13, -8.6000000000000012E-14, 9.0000000000000011E-15
DataValue, -0.70000000000000007, 0.1, 3.03E-13, -1.1500000000000002E-13, 7.1E-14
DataValue, -0.675, 0.1, 2.0300000000000002E-13, -1.93E-13, -4E-15
DataValue, -0.65, 0.1, -1.47E-13, -1.6200000000000002E-13, -1.0700000000000001E-13
DataValue, -0.625, 0.1, -1.2100000000000002E-13, -5.6E-14, -3.5E-14
DataValue, -0.6, 0.1, 2.17E-13, -1.35E-13, 3.7E-14
DataValue, -0.57500000000000007, 0.1, 1.53E-13, -2.05E-13, -1E-15
DataValue, -0.55, 0.1, -1.7400000000000002E-13, -1.2100000000000002E-13, -1E-13
DataValue, -0.525, 0.1, -5.1000000000000004E-14, -5.700000000000001E-14, -3.5E-14
DataValue, -0.5, 0.1, 4.6100000000000006E-13, -1.3200000000000002E-13, -4.6000000000000006E-14
DataValue, -0.47500000000000003, 0.1, 4.73E-13, -2.0700000000000003E-13, -3.1100000000000004E-13
DataValue, -0.45, 0.1, 4.71E-13, -4.1E-14, -5.93E-13
DataValue, -0.425, 0.1, 1.013E-12, 3.4400000000000005E-13, -9.3700000000000015E-13
DataValue, -0.4, 0.1, 1.6060000000000002E-12, 1.26E-12, -1.972E-12
DataValue, -0.375, 0.1, 1.525E-12, 3.8090000000000004E-12, -4.7340000000000006E-12
DataValue, -0.35000000000000003, 0.1, 1.2770000000000001E-12, 1.0359000000000001E-11, -1.1155000000000001E-11
DataValue, -0.325, 0.1, 1.4840000000000001E-12, 2.6561000000000002E-11, -2.7119000000000003E-11
DataValue, -0.3, 0.1, 1.864E-12, 6.5603000000000011E-11, -6.5965E-11
DataValue, -0.275, 0.1, 1.5740000000000002E-12, 1.6024100000000002E-10, -1.6012400000000002E-10
DataValue, -0.25, 0.1, 1.2960000000000001E-12, 3.8825300000000006E-10, -3.8555000000000003E-10
DataValue, -0.225, 0.1, 1.498E-12, 9.32278E-10, -9.24787E-10
DataValue, -0.2, 0.1, 1.153E-12, 2.20802E-09, -2.19014E-09
DataValue, -0.17500000000000002, 0.1, 1.2980000000000001E-12, 5.17705E-09, -5.13634E-09
DataValue, -0.15, 0.1, 1.0750000000000002E-12, 1.1896499999999998E-08, -1.1814599999999999E-08
DataValue, -0.125, 0.1, 1.594E-12, 2.67661E-08, -2.65673E-08
DataValue, -0.1, 0.1, 1.3530000000000002E-12, 5.8646199999999992E-08, -5.8197699999999993E-08
DataValue, -0.075, 0.1, 9.3900000000000014E-13, 1.22016E-07, -1.2116E-07
DataValue, -0.05, 0.1, 1.2710000000000001E-12, 2.41373E-07, -2.39725E-07
DataValue, -0.025, 0.1, 1.3460000000000001E-12, 4.4943199999999997E-07, -4.46633E-07
DataValue, 0, 0.1, 1.352E-12, 7.88646E-07, -7.8413E-07
DataValue, 0.025, 0.1, 5.9600000000000009E-13, 1.2891400000000001E-06, -1.2821900000000001E-06
DataValue, 0.05, 0.1, 6.9000000000000009E-13, 1.9900100000000003E-06, -1.9815400000000003E-06
DataValue, 0.075, 0.1, 5.13E-13, 2.9071600000000005E-06, -2.8963200000000002E-06
DataValue, 0.1, 0.1, 4.5600000000000008E-13, 4.04421E-06, -4.0309100000000005E-06
DataValue, 0.125, 0.1, 4.72E-13, 5.3895700000000005E-06, -5.3739900000000007E-06
DataValue, 0.15, 0.1, 4.65E-13, 6.925550000000001E-06, -6.9080400000000009E-06
DataValue, 0.17500000000000002, 0.1, 6.4500000000000008E-13, 8.62896E-06, -8.61002E-06
DataValue, 0.2, 0.1, 6.6500000000000009E-13, 1.0467E-05, -1.04462E-05
DataValue, 0.225, 0.1, 5.7900000000000006E-13, 1.24254E-05, -1.24057E-05
DataValue, 0.25, 0.1, 8.1600000000000006E-13, 1.44767E-05, -1.4456400000000001E-05
DataValue, 0.275, 0.1, 8.19E-13, 1.65983E-05, -1.65781E-05
DataValue, 0.3, 0.1, 7.76E-13, 1.8771900000000002E-05, -1.87509E-05
DataValue, 0.325, 0.1, 5.84E-13, 2.0976700000000002E-05, -2.09564E-05
DataValue, 0.35000000000000003, 0.1, 4.33E-13, 2.32009E-05, -2.31805E-05
DataValue, 0.375, 0.1, 3.1200000000000003E-13, 2.54505E-05, -2.54304E-05
DataValue, 0.4, 0.1, 1.75E-13, 2.76745E-05, -2.7654900000000002E-05
DataValue, 0.425, 0.1, 2.46E-13, 2.98916E-05, -2.9872400000000002E-05
DataValue, 0.45, 0.1, 3.5600000000000005E-13, 3.2089100000000004E-05, -3.20701E-05
DataValue, 0.47500000000000003, 0.1, 5.2700000000000008E-13, 3.42641E-05, -3.4245900000000004E-05
DataValue, 0.5, 0.1, 6.400000000000001E-13, 3.64108E-05, -3.63929E-05
DataValue, 0.525, 0.1, 6.9300000000000008E-13, 3.85259E-05, -3.85081E-05
DataValue, 0.55, 0.1, 7.3700000000000009E-13, 4.06078E-05, -4.05911E-05
DataValue, 0.57500000000000007, 0.1, 6.2700000000000005E-13, 4.26543E-05, -4.26386E-05
DataValue, 0.6, 0.1, 4.72E-13, 4.46655E-05, -4.46494E-05
DataValue, 0.625, 0.1, 3.26E-13, 4.66375E-05, -4.6623100000000004E-05
DataValue, 0.65, 0.1, 1.41E-13, 4.85723E-05, -4.85567E-05
DataValue, 0.675, 0.1, 7.6E-14, 5.04711E-05, -5.04574E-05
DataValue, 0.70000000000000007, 0.1, 2.91E-13, 5.23331E-05, -5.2318800000000005E-05
DataValue, 0.725, 0.1, 4.97E-13, 5.41591E-05, -5.41459E-05
DataValue, 0.75, 0.1, 6.77E-13, 5.59473E-05, -5.5934700000000005E-05
DataValue, 0.775, 0.1, 8.68E-13, 5.77158E-05, -5.77033E-05
DataValue, 0.8, 0.1, 7.23E-13, 5.9432600000000004E-05, -5.94192E-05
DataValue, 0.82500000000000007, 0.1, 6.0400000000000005E-13, 6.11164E-05, -6.11057E-05
DataValue, 0.85, 0.1, 3.8400000000000003E-13, 6.27663E-05, -6.2756000000000007E-05
DataValue, 0.875, 0.1, 2.7E-13, 6.4387800000000007E-05, -6.43767E-05
DataValue, 0.9, 0.1, 1.87E-13, 6.5992500000000009E-05, -6.598E-05
DataValue, 0.925, 0.1, 2.0700000000000003E-13, 6.7553200000000009E-05, -6.75419E-05
DataValue, 0.95000000000000007, 0.1, 3.2400000000000003E-13, 6.9085400000000008E-05, -6.90752E-05
DataValue, 0.975, 0.1, 6.09E-13, 7.0591100000000009E-05, -7.05831E-05
DataValue, 1, 0.1, 7.03E-13, 7.20684E-05, -7.2059000000000009E-05
DataValue, 1.025, 0.1, 7.9200000000000006E-13, 7.35337E-05, -7.3524E-05
DataValue, 1.05, 0.1, 8.5100000000000011E-13, 7.49595E-05, -7.49489E-05
DataValue, 1.075, 0.1, 5.7600000000000007E-13, 7.6363500000000008E-05, -7.6354600000000009E-05
DataValue, 1.1, 0.1, 4.21E-13, 7.7744400000000007E-05, -7.77368E-05
DataValue, 1.125, 0.1, 2.38E-13, 7.9116400000000007E-05, -7.91069E-05
DataValue, 1.1500000000000001, 0.1, 2.5100000000000004E-13, 8.0452200000000009E-05, -8.04442E-05
DataValue, 1.175, 0.1, 2.57E-13, 8.17661E-05, -8.17576E-05
DataValue, 1.2, 0.1, 4.5900000000000006E-13, 8.3060200000000008E-05, -8.30537E-05
DataValue, 1.225, 0.1, 6.9300000000000008E-13, 8.43382E-05, -8.43296E-05
DataValue, 1.25, 0.1, 8.71E-13, 8.5603100000000007E-05, -8.55953E-05
DataValue, 1.2750000000000001, 0.1, 9.0200000000000009E-13, 8.6842400000000007E-05, -8.68353E-05
DataValue, 1.3, 0.1, 7.2000000000000006E-13, 8.80634E-05, -8.80552E-05
DataValue, 1.325, 0.1, 5.45E-13, 8.92679E-05, -8.926020000000001E-05
DataValue, 1.35, 0.1, 3.6100000000000003E-13, 9.046540000000001E-05, -9.0458200000000007E-05
DataValue, 1.375, 0.1, 2.5E-13, 9.16362E-05, -9.16291E-05
DataValue, 1.4000000000000001, 0.1, 2.71E-13, 9.27914E-05, -9.27848E-05
DataValue, 1.425, 0.1, 4.01E-13, 9.3931800000000008E-05, -9.39247E-05
DataValue, 1.45, 0.1, 6.36E-13, 9.5059700000000007E-05, -9.50517E-05
