
SetupTitle, Check UnitTransistor
PrimitiveTest, I/V Sweep
TestParameter, Context.MainFrame, B1500A
TestParameter, Channel.UnitType, SMU, SMU, SMU, SMU
TestParameter, Channel.Unit, SMU1:HR, SMU2:HR, SMU4:HR, SMU3:HR
TestParameter, Channel.IName, IG, ISS, IDD, IBG
TestParameter, Channel.VName, VG, VSS, VDD, BG
TestParameter, Channel.Mode, V, COMMON, V, V
TestParameter, Channel.Func, VAR1, CONST, CONST, CONST
TestParameter, Channel.Index, 
TestParameter, Channel.Time, 
TestParameter, Measurement.Port.Unit, SMU1:HR, SMU2:HR, SMU4:HR, SMU3:HR
TestParameter, Measurement.Port.SeriesResistor, NONE, NONE, NONE, NONE
TestParameter, Measurement.Port.Filter, ON, ON, ON, ON
TestParameter, Measurement.Port.OutputVoltageComparison, 0, 0, 0, 0
TestParameter, Measurement.Primary.Locus, Single
TestParameter, Measurement.Primary.Scale, LINEAR
TestParameter, Measurement.Primary.Start, -3
TestParameter, Measurement.Primary.Stop, 3
TestParameter, Measurement.Primary.Step, 0.06
TestParameter, Measurement.Primary.Compliance, 0.1
TestParameter, Measurement.Primary.PowerCompliance, 0
TestParameter, Measurement.Aborting.Condition, CONTINUE AT ANY
TestParameter, Measurement.PostOutput.Value, START
TestParameter, Measurement.PostOutput.Retention, OFF
TestParameter, Measurement.Bias.Source, -3, 0, 0.1, 0
TestParameter, Measurement.Bias.Compliance, 0.1, 0.1, 0.1, 0.1
TestParameter, Measurement.Monitor.Unit, SMU1:HR, SMU2:HR, SMU4:HR, SMU3:HR
TestParameter, Measurement.Monitor.Adc, HR ADC, HR ADC, HR ADC, HR ADC
TestParameter, Measurement.Monitor.Measurement, Compliance Side, Compliance Side, Compliance Side, Compliance Side
TestParameter, Measurement.Monitor.RangingMode, LIMITED, LIMITED, LIMITED, LIMITED
TestParameter, Measurement.Monitor.RangeBoundary, 1nA, 1nA, 1nA, 1nA
TestParameter, Measurement.Monitor.RangeRating, BY FULL RANGE, BY FULL RANGE, BY FULL RANGE, BY FULL RANGE
TestParameter, Measurement.Monitor.RangeRatingCoeff, 50, 50, 50, 50
TestParameter, Measurement.Timing.Hold, 0
TestParameter, Measurement.Timing.Delay, 0
TestParameter, Measurement.Adc.HighSpeed.Mode, AUTO
TestParameter, Measurement.Adc.HighSpeed.Coeff, 1
TestParameter, Measurement.Adc.HighResolution.AutoZero, ON
TestParameter, Measurement.Adc.HighResolution.Mode, PLC
TestParameter, Measurement.Adc.HighResolution.Coeff, 1
TestParameter, Measurement.WaitTime.Source.Coeff, 1
TestParameter, Measurement.WaitTime.Source.Offset, 0
TestParameter, Measurement.WaitTime.Monitor.Coeff, 1
TestParameter, Measurement.WaitTime.Monitor.Offset, 0
TestParameter, Function.User.Name, I_NET
TestParameter, Function.User.Unit, A
TestParameter, Function.User.Definition, IG+IDD+ISS
TestParameter, Output.Graph.Enabled, true
TestParameter, Output.Graph.AutoScaling, false
TestParameter, Output.Graph.XAxis.Data, VG
TestParameter, Output.Graph.XAxis.Scale, Linear
TestParameter, Output.Graph.XAxis.Left, -2
TestParameter, Output.Graph.XAxis.Right, 2
TestParameter, Output.Graph.XAxis.RunTimeAutoScale, false
TestParameter, Output.Graph.YAxis.Data, IDD, I_NET
TestParameter, Output.Graph.YAxis.Scale, Log, Linear
TestParameter, Output.Graph.YAxis.Bottom, 1E-14, 0
TestParameter, Output.Graph.YAxis.Top, 0.01, 1
TestParameter, Output.Graph.YAxis.Group, , 
TestParameter, Output.Graph.YAxis.RunTimeAutoScale, false, true
TestParameter, Output.List.Data, VG, IDD, ISS, IG, I_NET, BG
TestParameter, AutoAnalysis.Interpolation, false
TestParameter, AutoAnalysis.Var2StepCount, 1
TestParameter, AutoAnalysis.Var2StepScript, 
TestParameter, AutoAnalysis.Line1.Enabled, false
TestParameter, AutoAnalysis.Line1.Type, 1
TestParameter, AutoAnalysis.Line1.Fix, True
TestParameter, AutoAnalysis.Line1.YAxis, 0
TestParameter, AutoAnalysis.Line1.Point1.Type, 0
TestParameter, AutoAnalysis.Line1.Point1.XY.X, 
TestParameter, AutoAnalysis.Line1.Point1.XY.Y, 
TestParameter, AutoAnalysis.Line1.Point1.Data.Var, 
TestParameter, AutoAnalysis.Line1.Point1.Data.Condition, 
TestParameter, AutoAnalysis.Line1.Point1.Data.Start, false
TestParameter, AutoAnalysis.Line1.Point1.Data.StartVar, 
TestParameter, AutoAnalysis.Line1.Point1.Data.StartCondition, 
TestParameter, AutoAnalysis.Line1.Point2.Type, 0
TestParameter, AutoAnalysis.Line1.Point2.XY.X, 
TestParameter, AutoAnalysis.Line1.Point2.XY.Y, 
TestParameter, AutoAnalysis.Line1.Point2.Data.Var, 
TestParameter, AutoAnalysis.Line1.Point2.Data.Condition, 
TestParameter, AutoAnalysis.Line1.Point2.Data.Start, false
TestParameter, AutoAnalysis.Line1.Point2.Data.StartVar, 
TestParameter, AutoAnalysis.Line1.Point2.Data.StartCondition, 
TestParameter, AutoAnalysis.Line1.GradientExpr, 0
TestParameter, AutoAnalysis.Line2.Enabled, false
TestParameter, AutoAnalysis.Line2.Type, 1
TestParameter, AutoAnalysis.Line2.Fix, True
TestParameter, AutoAnalysis.Line2.YAxis, 0
TestParameter, AutoAnalysis.Line2.Point1.Type, 0
TestParameter, AutoAnalysis.Line2.Point1.XY.X, 
TestParameter, AutoAnalysis.Line2.Point1.XY.Y, 
TestParameter, AutoAnalysis.Line2.Point1.Data.Var, 
TestParameter, AutoAnalysis.Line2.Point1.Data.Condition, 
TestParameter, AutoAnalysis.Line2.Point1.Data.Start, false
TestParameter, AutoAnalysis.Line2.Point1.Data.StartVar, 
TestParameter, AutoAnalysis.Line2.Point1.Data.StartCondition, 
TestParameter, AutoAnalysis.Line2.Point2.Type, 0
TestParameter, AutoAnalysis.Line2.Point2.XY.X, 
TestParameter, AutoAnalysis.Line2.Point2.XY.Y, 
TestParameter, AutoAnalysis.Line2.Point2.Data.Var, 
TestParameter, AutoAnalysis.Line2.Point2.Data.Condition, 
TestParameter, AutoAnalysis.Line2.Point2.Data.Start, false
TestParameter, AutoAnalysis.Line2.Point2.Data.StartVar, 
TestParameter, AutoAnalysis.Line2.Point2.Data.StartCondition, 
TestParameter, AutoAnalysis.Line2.GradientExpr, 0
TestParameter, AutoAnalysis.Marker.Enabled, false
TestParameter, AutoAnalysis.Marker.Data.Var, 
TestParameter, AutoAnalysis.Marker.Data.Condition, 
TestParameter, AutoAnalysis.Marker.Data.Start, false
TestParameter, AutoAnalysis.Marker.Data.StartVar, 
TestParameter, AutoAnalysis.Marker.Data.StartCondition, 
MetaData, TestRecord.EntryPoint, true
MetaData, TestRecord.RecordTime, 12/17/2025 11:15:08
MetaData, TestRecord.TestTarget, PRAGMATIC_LOWER
MetaData, TestRecord.IterationIndex, 4
MetaData, TestRecord.Preservation, true
MetaData, TestRecord.Flag, 
MetaData, TestRecord.Remarks, 
MetaData, TestRecord.LinkKey, ae093d31-fee0-497a-8d9f-8dee8a817686
MetaData, TestRecord.Parameters, 
Dimension1, 101, 101, 101, 101, 101, 101
Dimension2, 1, 1, 1, 1, 1, 1
DataName, VG, BG, IG, ISS, IDD, I_NET
DataValue, -3, 0, -3.9000000000000004E-14, 8.5E-14, -1.58E-13, -1.1200000000000002E-13
DataValue, -2.94, 0, -8.5E-14, -7.6E-14, -1.75E-13, -3.36E-13
DataValue, -2.88, 0, -1.5100000000000001E-13, -4.2000000000000004E-14, 3.3000000000000005E-14, -1.6E-13
DataValue, -2.82, 0, -4.5000000000000004E-14, 6.3000000000000009E-14, 6.0000000000000009E-14, 7.8000000000000021E-14
DataValue, -2.7600000000000002, 0, 2.3000000000000003E-14, -4.9000000000000006E-14, -1.9E-14, -4.5000000000000004E-14
DataValue, -2.7, 0, -4.2000000000000004E-14, 6.2E-14, -1.06E-13, -8.6E-14
DataValue, -2.64, 0, -1E-13, -6.9000000000000009E-14, 2.0100000000000003E-13, 3.2000000000000015E-14
DataValue, -2.58, 0, -3.0000000000000002E-15, -2.4000000000000002E-14, 6.8E-14, 4.1E-14
DataValue, -2.52, 0, 2E-15, -1.2000000000000002E-13, -4.3000000000000006E-14, -1.6100000000000002E-13
DataValue, -2.46, 0, -6.1E-14, -1E-13, -5E-14, -2.11E-13
DataValue, -2.4, 0, 9.0000000000000011E-15, -6.0000000000000005E-15, 1.3E-13, 1.3300000000000001E-13
DataValue, -2.34, 0, -1.2000000000000001E-14, -1.0000000000000002E-14, 4.0000000000000006E-14, 1.8000000000000005E-14
DataValue, -2.2800000000000002, 0, -2.3000000000000003E-14, -3.0000000000000005E-14, -2.1500000000000002E-13, -2.68E-13
DataValue, -2.22, 0, 2.6000000000000003E-14, -4.4E-14, -7.3E-14, -9.1E-14
DataValue, -2.16, 0, 7.2000000000000009E-14, -2.8E-14, 7.5000000000000009E-14, 1.1900000000000002E-13
DataValue, -2.1, 0, 4.4E-14, -1.0500000000000001E-13, -8.6000000000000012E-14, -1.4700000000000003E-13
DataValue, -2.04, 0, 1.5000000000000002E-14, -5.0000000000000008E-15, 1.53E-13, 1.63E-13
DataValue, -1.98, 0, -1.1300000000000001E-13, -4.1E-14, 1.9E-14, -1.35E-13
DataValue, -1.92, 0, -3.1E-14, 5.700000000000001E-14, -5.4000000000000003E-14, -2.7999999999999994E-14
DataValue, -1.86, 0, 5.0000000000000008E-15, 1.0000000000000002E-14, -2.84E-13, -2.69E-13
DataValue, -1.8, 0, -6.7E-14, 1.6700000000000002E-13, 1.83E-13, 2.83E-13
DataValue, -1.74, 0, -1.18E-13, -1.19E-13, 1.1500000000000002E-13, -1.2199999999999999E-13
DataValue, -1.68, 0, -1E-15, -1.9E-14, -5.5000000000000005E-14, -7.5000000000000009E-14
DataValue, -1.62, 0, 3.6000000000000004E-14, -4.9000000000000006E-14, 8.0000000000000013E-14, 6.7E-14
DataValue, -1.56, 0, -7.5000000000000009E-14, -8E-15, -9.1E-14, -1.74E-13
DataValue, -1.5, 0, -2.4000000000000002E-14, 8.0000000000000013E-14, -1.7400000000000002E-13, -1.18E-13
DataValue, -1.44, 0, -5.1000000000000004E-14, 1.3200000000000002E-13, 6.6000000000000009E-14, 1.4700000000000003E-13
DataValue, -1.3800000000000001, 0, 6.5E-14, -4.6000000000000006E-14, 3.0000000000000002E-15, 2.1999999999999995E-14
DataValue, -1.32, 0, -4.1E-14, -4E-15, -6.7E-14, -1.12E-13
DataValue, -1.26, 0, -6.4E-14, -6.3000000000000009E-14, -3.6000000000000003E-13, -4.87E-13
DataValue, -1.2, 0, -7E-15, 1.53E-13, 1.46E-13, 2.92E-13
DataValue, -1.1400000000000001, 0, -2.2E-14, -5.0000000000000008E-15, 4.1E-14, 1.4E-14
DataValue, -1.08, 0, -1.57E-13, 1E-15, 1.0000000000000002E-14, -1.46E-13
DataValue, -1.02, 0, -1.06E-13, 1.6E-14, -1.1000000000000001E-13, -2E-13
DataValue, -0.96, 0, -1.64E-13, 0, 1.6700000000000002E-13, 3.0000000000000125E-15
DataValue, -0.9, 0, -6.0000000000000005E-15, -1.1100000000000001E-13, -2.8900000000000003E-13, -4.0600000000000009E-13
DataValue, -0.84, 0, -1.09E-13, 1.4400000000000002E-13, 1.5000000000000002E-14, 5.0000000000000014E-14
DataValue, -0.78, 0, 6.3000000000000009E-14, -2.9E-14, -2.7000000000000002E-14, 7.000000000000008E-15
DataValue, -0.72, 0, -4.6000000000000006E-14, 1.0700000000000001E-13, -5.5000000000000005E-14, 6E-15
DataValue, -0.66, 0, -6.5E-14, -1.18E-13, -1.88E-13, -3.7100000000000003E-13
DataValue, -0.6, 0, -6.9000000000000009E-14, 3.2E-14, 3.3700000000000003E-13, 3.0000000000000003E-13
DataValue, -0.54, 0, 1.2000000000000001E-14, -5E-14, -1.24E-13, -1.6200000000000002E-13
DataValue, -0.48, 0, 6.0000000000000005E-15, 0, 3.0000000000000005E-14, 3.6000000000000004E-14
DataValue, -0.42, 0, -1.0400000000000001E-13, -6.6000000000000009E-14, -4.9000000000000006E-14, -2.1900000000000003E-13
DataValue, -0.36, 0, -4.3000000000000006E-14, 1.8000000000000002E-14, 6.9000000000000009E-14, 4.4E-14
DataValue, -0.3, 0, -8.9000000000000012E-14, -5.3E-14, -2.0300000000000002E-13, -3.4500000000000004E-13
DataValue, -0.24, 0, 2.7000000000000002E-14, 3.3000000000000005E-14, 6.4E-14, 1.24E-13
DataValue, -0.18, 0, -1.52E-13, 7E-15, 1.24E-13, -2.1000000000000005E-14
DataValue, -0.12, 0, -9.5000000000000012E-14, 3.6000000000000004E-14, -2.4000000000000002E-14, -8.3000000000000025E-14
DataValue, -0.06, 0, -9.5000000000000012E-14, -4.4E-14, -2.2600000000000002E-13, -3.6500000000000006E-13
DataValue, 0, 0, -3.6000000000000004E-14, -8.9000000000000012E-14, 2.9E-14, -9.600000000000002E-14
DataValue, 0.06, 0, -6.8E-14, -5.5000000000000005E-14, 9.4E-14, -2.9E-14
DataValue, 0.12, 0, -1.8000000000000002E-14, -3.5E-13, 2.56E-13, -1.1200000000000003E-13
DataValue, 0.18, 0, -6.6000000000000009E-14, -2.481E-12, 2.46E-12, -8.6999999999999932E-14
DataValue, 0.24, 0, -9.0000000000000011E-15, -1.7135E-11, 1.6979E-11, -1.6500000000000021E-13
DataValue, 0.3, 0, -8.8E-14, -1.10786E-10, 1.09293E-10, -1.5810000000000047E-12
DataValue, 0.36, 0, -4.2000000000000004E-14, -5.62205E-10, 5.5954600000000007E-10, -2.7010000000000096E-12
DataValue, 0.42, 0, -1.9700000000000002E-13, -1.98343E-09, 1.97572E-09, -7.9070000000001051E-12
DataValue, 0.48, 0, -1.09E-13, -5.00636E-09, 4.98951E-09, -1.6959000000000417E-11
DataValue, 0.54, 0, -6.0000000000000009E-14, -9.77403E-09, 9.74861E-09, -2.5479999999999378E-11
DataValue, 0.6, 0, -7.7E-14, -1.61316E-08, 1.6133999999999997E-08, 2.3229999999960431E-12
DataValue, 0.66, 0, -1.0800000000000001E-13, -2.3886199999999997E-08, 2.3882399999999997E-08, -3.9080000000016785E-12
DataValue, 0.72, 0, -3.8E-14, -3.28084E-08, 3.27412E-08, -6.7237999999999639E-11
DataValue, 0.78, 0, -6.3000000000000009E-14, -4.2589199999999996E-08, 4.2628099999999995E-08, 3.8837000000002189E-11
DataValue, 0.84, 0, -4.2000000000000004E-14, -5.33933E-08, 5.3384399999999992E-08, -8.9420000000049514E-12
DataValue, 0.9, 0, -4.0000000000000006E-14, -6.49398E-08, 6.49931E-08, 5.3259999999997395E-11
DataValue, 0.96, 0, -5.5000000000000005E-14, -7.7160299999999987E-08, 7.7163799999999991E-08, 3.44500000000298E-12
DataValue, 1.02, 0, -2.4000000000000002E-14, -9.004339999999999E-08, 9.0074999999999991E-08, 3.1576000000007006E-11
DataValue, 1.08, 0, -6.8E-14, -1.0365919999999999E-07, 1.0363029999999999E-07, -2.8967999999996213E-11
DataValue, 1.1400000000000001, 0, 4E-15, -1.17718E-07, 1.1783E-07, 1.1200400000000916E-10
DataValue, 1.2, 0, -1.6200000000000002E-13, -1.32535E-07, 1.32641E-07, 1.05838000000009E-10
DataValue, 1.26, 0, -4.8000000000000004E-14, -1.47783E-07, 1.47913E-07, 1.2995200000002623E-10
DataValue, 1.32, 0, -2.6000000000000003E-14, -1.6359E-07, 1.63704E-07, 1.1397400000000848E-10
DataValue, 1.3800000000000001, 0, -2.3000000000000003E-14, -1.80073E-07, 1.8010699999999999E-07, 3.3976999999981591E-11
DataValue, 1.44, 0, -4.4E-14, -1.96566E-07, 1.96568E-07, 1.9560000000014768E-12
DataValue, 1.5, 0, -5E-14, -2.13591E-07, 2.13757E-07, 1.6595000000000686E-10
DataValue, 1.56, 0, -7.1E-14, -2.30965E-07, 2.31081E-07, 1.1592900000000633E-10
DataValue, 1.62, 0, -8.1000000000000008E-14, -2.48775E-07, 2.48976E-07, 2.009190000000135E-10
DataValue, 1.68, 0, 3.9000000000000004E-14, -2.66737E-07, 2.6681499999999997E-07, 7.803899999996522E-11
DataValue, 1.74, 0, -8.7000000000000008E-14, -2.85336E-07, 2.85561E-07, 2.2491300000001895E-10
DataValue, 1.8, 0, -2E-15, -3.04158E-07, 3.04198E-07, 3.9997999999985162E-11
DataValue, 1.86, 0, 2.8E-14, -3.2334E-07, 3.23208E-07, -1.3197199999999517E-10
DataValue, 1.92, 0, -4.5000000000000004E-14, -3.42458E-07, 3.42423E-07, -3.5045000000017636E-11
DataValue, 1.98, 0, -4.5000000000000004E-14, -3.62115E-07, 3.62432E-07, 3.1695500000001093E-10
DataValue, 2.04, 0, 8.7000000000000008E-14, -3.82398E-07, 3.82515E-07, 1.1708699999999827E-10
DataValue, 2.1, 0, -8.4000000000000008E-14, -4.0308E-07, 4.03206E-07, 1.2591600000004992E-10
DataValue, 2.16, 0, -4.5000000000000004E-14, -4.23425E-07, 4.23459E-07, 3.3954999999981195E-11
DataValue, 2.22, 0, 7.4E-14, -4.44065E-07, 4.44243E-07, 1.7807399999999382E-10
DataValue, 2.2800000000000002, 0, 3.2E-14, -4.6548799999999997E-07, 4.65545E-07, 5.7032000000048364E-11
DataValue, 2.34, 0, 1.8000000000000002E-14, -4.86716E-07, 4.86763E-07, 4.701799999998624E-11
DataValue, 2.4, 0, 3.4E-14, -5.0804599999999994E-07, 5.0811E-07, 6.4034000000090027E-11
DataValue, 2.46, 0, -4E-15, -5.29758E-07, 5.29735E-07, -2.300400000001412E-11
DataValue, 2.52, 0, 3.1E-14, -5.51517E-07, 5.51617E-07, 1.0003100000001409E-10
DataValue, 2.58, 0, -6.0000000000000009E-14, -5.73655E-07, 5.73611E-07, -4.4060000000055784E-11
DataValue, 2.64, 0, -8.9000000000000012E-14, -5.95804E-07, 5.9604E-07, 2.3591100000005064E-10
DataValue, 2.7, 0, -1.0200000000000001E-13, -6.1853E-07, 6.18724E-07, 1.938980000000088E-10
DataValue, 2.7600000000000002, 0, -3.0000000000000002E-15, -6.41285E-07, 6.41433E-07, 1.4799699999994518E-10
DataValue, 2.82, 0, 5.1000000000000004E-14, -6.64286E-07, 6.64318E-07, 3.2051000000009529E-11
DataValue, 2.88, 0, -1.4E-14, -6.87392E-07, 6.87314E-07, -7.8013999999980412E-11
DataValue, 2.94, 0, 1E-15, -7.10434E-07, 7.10659E-07, 2.2500099999996759E-10
DataValue, 3, 0, 7.8000000000000008E-14, -7.34091E-07, 7.3403E-07, -6.0922000000024453E-11