VDD,IDD,ISS,VREF,IREF,VIN,VOUT
3.3,2.23e-12,-2.022e-11,0.5,-4e-14,0.0,0.000418
3.3,-2.43e-12,-1.994e-11,0.5,-4e-14,0.05,0.0003
3.3,8.7e-13,-1.98e-11,0.5,0.0,0.1,0.000304
3.3,-3.4e-13,-1.985e-11,0.5,-4e-14,0.15,0.00032
3.3,6.5e-12,-2.309e-11,0.5,1e-14,0.2,0.000284
3.3,2.625e-11,-4.198e-11,0.5,-1e-14,0.25,0.000472
3.3,1.1681e-10,-1.3435e-10,0.5,0.0,0.3,0.001156
3.3,4.4895e-10,-4.6759e-10,0.5,0.0,0.35,0.003864
3.3,1.28027e-09,-1.2962e-09,0.5,-2e-14,0.4,0.013662
3.3,2.67104e-09,-2.67642e-09,0.5,-1e-14,0.45,0.026432
3.3,4.29908e-09,-4.32348e-09,0.5,2e-14,0.5,0.049728
3.3,5.79745e-09,-5.80536e-09,0.5,1e-14,0.55,0.080176
3.3,6.90023e-09,-6.90639e-09,0.5,2e-14,0.6,0.117888
3.3,7.50049e-09,-7.50147e-09,0.5,0.0,0.65,0.161008
3.3,7.78019e-09,-7.78214e-09,0.5,1e-14,0.7,0.207948
3.3,7.91573e-09,-7.9205e-09,0.5,1e-14,0.75,0.256454
3.3,7.99845e-09,-8.01677e-09,0.5,2e-14,0.8,0.305314
3.3,8.07629e-09,-8.10311e-09,0.5,-1e-14,0.85,0.36619
3.3,8.15462e-09,-8.16239e-09,0.5,2e-14,0.9,0.415808
3.3,8.19271e-09,-8.22154e-09,0.5,1e-14,0.95,0.46554
3.3,8.25319e-09,-8.26911e-09,0.5,-1e-14,1.0,0.51468
3.3,8.2976e-09,-8.32251e-09,0.5,4e-14,1.05,0.5643
3.3,8.35412e-09,-8.36822e-09,0.5,3e-14,1.1,0.613856
3.3,8.38332e-09,-8.39291e-09,0.5,0.0,1.15,0.664202
3.3,8.43134e-09,-8.44884e-09,0.5,4e-14,1.2,0.71297
3.3,8.46704e-09,-8.48672e-09,0.5,0.0,1.25,0.763084
3.3,8.5077e-09,-8.53467e-09,0.5,3e-14,1.3,0.812874
3.3,8.55562e-09,-8.56239e-09,0.5,3e-14,1.35,0.862468
3.3,8.5588e-09,-8.59257e-09,0.5,2e-14,1.4,0.911738
3.3,8.61771e-09,-8.64613e-09,0.5,2e-14,1.45,0.961698
3.3,8.63266e-09,-8.65394e-09,0.5,0.0,1.5,1.011468
3.3,8.65704e-09,-8.67126e-09,0.5,1e-14,1.55,1.061724
3.3,8.69661e-09,-8.71688e-09,0.5,2e-14,1.6,1.111414
3.3,8.70156e-09,-8.71782e-09,0.5,6e-14,1.65,1.16077
3.3,8.74288e-09,-8.75258e-09,0.5,4e-14,1.7,1.210532
3.3,8.7533e-09,-8.77735e-09,0.5,2e-14,1.75,1.260508
3.3,8.80292e-09,-8.81334e-09,0.5,5e-14,1.8,1.310094
3.3,8.84347e-09,-8.8569e-09,0.5,2e-14,1.85,1.359356
3.3,8.8597e-09,-8.8804e-09,0.5,3e-14,1.9,1.40941
3.3,8.89618e-09,-8.90065e-09,0.5,2e-14,1.95,1.459056
3.3,8.89514e-09,-8.92934e-09,0.5,4e-14,2.0,1.509088
3.3,8.95099e-09,-8.97328e-09,0.5,3e-14,2.05,1.558212
3.3,8.94672e-09,-8.98002e-09,0.5,1e-14,2.1,1.607912
3.3,8.9982e-09,-9.0028e-09,0.5,4e-14,2.15,1.65818
3.3,9.01949e-09,-9.02679e-09,0.5,4e-14,2.2,1.708096
3.3,9.02288e-09,-9.05257e-09,0.5,2e-14,2.25,1.757384
3.3,9.05841e-09,-9.09165e-09,0.5,5e-14,2.3,1.807254
3.3,9.08886e-09,-9.11389e-09,0.5,3e-14,2.35,1.856826
3.3,9.11523e-09,-9.13943e-09,0.5,2e-14,2.4,1.90715
3.3,9.12908e-09,-9.15696e-09,0.5,1e-14,2.45,1.956918
3.3,9.19178e-09,-9.19803e-09,0.5,7e-14,2.5,2.006108
3.3,9.19639e-09,-9.21008e-09,0.5,4e-14,2.55,2.056062
3.3,9.20687e-09,-9.24056e-09,0.5,4e-14,2.6,2.106346
3.3,9.25297e-09,-9.28405e-09,0.5,5e-14,2.65,2.155906
3.3,9.24865e-09,-9.26559e-09,0.5,1e-14,2.7,2.20494
3.3,9.27093e-09,-9.28603e-09,0.5,4e-14,2.75,2.25516
3.3,9.29923e-09,-9.31005e-09,0.5,4e-14,2.8,2.30496
3.3,9.29129e-09,-9.32964e-09,0.5,1e-14,2.85,2.3551
3.3,9.32578e-09,-9.34418e-09,0.5,2e-14,2.9,2.40422
3.3,9.34862e-09,-9.35669e-09,0.5,0.0,2.95,2.45384
3.3,9.35573e-09,-9.37415e-09,0.5,0.0,3.0,2.50372
3.3,1.02e-12,-2.056e-11,0.6,1e-14,0.0,1.419188
3.3,-2.64e-12,-1.891e-11,0.6,3e-14,0.05,0.000182
3.3,-9.7e-13,-1.667e-11,0.6,1e-14,0.1,0.000184
3.3,-3.4e-13,-1.618e-11,0.6,0.0,0.15,0.000172
3.3,3.76e-12,-2.164e-11,0.6,4e-14,0.2,0.000176
3.3,2.32e-11,-3.764e-11,0.6,2e-14,0.25,0.000286
3.3,1.1086e-10,-1.3025e-10,0.6,2e-14,0.3,0.00065
3.3,4.6472e-10,-4.7988e-10,0.6,2e-14,0.35,0.002102
3.3,1.48392e-09,-1.49129e-09,0.6,3e-14,0.4,0.00684
3.3,3.46875e-09,-3.47625e-09,0.6,3e-14,0.45,0.015556
3.3,6.39974e-09,-6.41524e-09,0.6,2e-14,0.5,0.030192
3.3,9.86373e-09,-9.89651e-09,0.6,0.0,0.55,0.04983
3.3,1.36188e-08,-1.36813e-08,0.6,4e-14,0.6,0.077708
3.3,1.7183e-08,-1.7216e-08,0.6,4e-14,0.65,0.105082
3.3,2.02004e-08,-2.02104e-08,0.6,2e-14,0.7,0.139986
3.3,2.24289e-08,-2.2438e-08,0.6,2e-14,0.75,0.179698
3.3,2.38109e-08,-2.38091e-08,0.6,-1e-14,0.8,0.222752
3.3,2.45792e-08,-2.46086e-08,0.6,3e-14,0.85,0.269562
3.3,2.50272e-08,-2.50499e-08,0.6,4e-14,0.9,0.318244
3.3,2.53298e-08,-2.53613e-08,0.6,6e-14,0.95,0.368056
3.3,2.55363e-08,-2.55325e-08,0.6,3e-14,1.0,0.417248
3.3,2.57102e-08,-2.57589e-08,0.6,3e-14,1.05,0.466768
3.3,2.59015e-08,-2.59211e-08,0.6,3e-14,1.1,0.516514
3.3,2.60302e-08,-2.60417e-08,0.6,4e-14,1.15,0.566286
3.3,2.61822e-08,-2.62041e-08,0.6,1e-14,1.2,0.615334
3.3,2.62929e-08,-2.62904e-08,0.6,2e-14,1.25,0.665264
3.3,2.63647e-08,-2.64136e-08,0.6,2e-14,1.3,0.715148
3.3,2.64872e-08,-2.65028e-08,0.6,3e-14,1.35,0.764868
3.3,2.65675e-08,-2.66023e-08,0.6,3e-14,1.4,0.814016
3.3,2.666e-08,-2.66745e-08,0.6,7e-14,1.45,0.864676
3.3,2.67576e-08,-2.67659e-08,0.6,5e-14,1.5,0.914618
3.3,2.68607e-08,-2.68574e-08,0.6,1e-14,1.55,0.964348
3.3,2.69178e-08,-2.69505e-08,0.6,1e-14,1.6,1.014482
3.3,2.6996e-08,-2.70055e-08,0.6,0.0,1.65,1.06357
3.3,2.70696e-08,-2.70735e-08,0.6,3e-14,1.7,1.112828
3.3,2.71373e-08,-2.71809e-08,0.6,2e-14,1.75,1.163134
3.3,2.72306e-08,-2.72271e-08,0.6,-2e-14,1.8,1.212922
3.3,2.73441e-08,-2.73339e-08,0.6,0.0,1.85,1.262166
3.3,2.73741e-08,-2.74087e-08,0.6,0.0,1.9,1.312034
3.3,2.74685e-08,-2.74549e-08,0.6,3e-14,1.95,1.362236
3.3,2.74977e-08,-2.75308e-08,0.6,4e-14,2.0,1.41191
3.3,2.75652e-08,-2.75757e-08,0.6,5e-14,2.05,1.461436
3.3,2.76205e-08,-2.76389e-08,0.6,5e-14,2.1,1.511156
3.3,2.76819e-08,-2.77025e-08,0.6,2e-14,2.15,1.56102
3.3,2.77675e-08,-2.77631e-08,0.6,-1e-14,2.2,1.61087
3.3,2.7812e-08,-2.78336e-08,0.6,2e-14,2.25,1.660306
3.3,2.78903e-08,-2.79112e-08,0.6,5e-14,2.3,1.710268
3.3,2.79345e-08,-2.79482e-08,0.6,5e-14,2.35,1.760354
3.3,2.80062e-08,-2.80242e-08,0.6,6e-14,2.4,1.81018
3.3,2.80728e-08,-2.80861e-08,0.6,2e-14,2.45,1.859732
3.3,2.8144e-08,-2.81417e-08,0.6,1e-14,2.5,1.909164
3.3,2.81677e-08,-2.81858e-08,0.6,6e-14,2.55,1.958908
3.3,2.82497e-08,-2.82436e-08,0.6,-1e-14,2.6,2.008466
3.3,2.82859e-08,-2.82795e-08,0.6,0.0,2.65,2.058708
3.3,2.83775e-08,-2.83733e-08,0.6,1e-14,2.7,2.10772
3.3,2.84102e-08,-2.84183e-08,0.6,3e-14,2.75,2.157202
3.3,2.84168e-08,-2.8442e-08,0.6,4e-14,2.8,2.207416
3.3,2.85353e-08,-2.8554e-08,0.6,5e-14,2.85,2.25746
3.3,2.85536e-08,-2.85752e-08,0.6,2e-14,2.9,2.30592
3.3,2.86088e-08,-2.8642e-08,0.6,2e-14,2.95,2.35534
3.3,2.86949e-08,-2.87047e-08,0.6,4e-14,3.0,2.40498
3.3,-3.7e-13,-1.95e-11,0.7,2e-14,0.0,0.651468
3.3,-3.34e-12,-1.87e-11,0.7,2e-14,0.05,0.000144
3.3,3.33e-12,-1.634e-11,0.7,1e-14,0.1,0.000114
3.3,4.29e-12,-1.893e-11,0.7,4e-14,0.15,0.000138
3.3,7.99e-12,-1.735e-11,0.7,2e-14,0.2,0.000158
3.3,2.421e-11,-4.067e-11,0.7,5e-14,0.25,0.000198
3.3,1.1576e-10,-1.3274e-10,0.7,3e-14,0.3,0.000434
3.3,4.824e-10,-4.9839e-10,0.7,3e-14,0.35,0.001392
3.3,1.58948e-09,-1.60034e-09,0.7,4e-14,0.4,0.0043
3.3,3.89124e-09,-3.91019e-09,0.7,-1e-14,0.45,0.01039
3.3,7.61274e-09,-7.62732e-09,0.7,1e-14,0.5,0.020608
3.3,1.24104e-08,-1.24415e-08,0.7,-2e-14,0.55,0.034796
3.3,1.8102e-08,-1.81082e-08,0.7,5e-14,0.6,0.05223
3.3,2.40854e-08,-2.41971e-08,0.7,2e-14,0.65,0.073172
3.3,3.04149e-08,-3.04375e-08,0.7,-6.5e-13,0.7,0.098144
3.3,3.64917e-08,-3.65723e-08,0.7,0.0,0.75,0.126708
3.3,4.20296e-08,-4.20606e-08,0.7,4e-14,0.8,0.158098
3.3,4.68127e-08,-4.68609e-08,0.7,5e-14,0.85,0.193762
3.3,5.06715e-08,-5.06896e-08,0.7,1e-14,0.9,0.233426
3.3,5.33985e-08,-5.34547e-08,0.7,4e-14,0.95,0.276918
3.3,5.51525e-08,-5.51547e-08,0.7,3e-14,1.0,0.321956
3.3,5.61975e-08,-5.62205e-08,0.7,3e-14,1.05,0.370948
3.3,5.69464e-08,-5.6946e-08,0.7,5e-14,1.1,0.419886
3.3,5.74626e-08,-5.74807e-08,0.7,1e-14,1.15,0.46952
3.3,5.777e-08,-5.77858e-08,0.7,1e-14,1.2,0.518212
3.3,5.81654e-08,-5.81644e-08,0.7,5e-14,1.25,0.56854
3.3,5.84355e-08,-5.8458e-08,0.7,5e-14,1.3,0.61904
3.3,5.87888e-08,-5.88707e-08,0.7,3e-14,1.35,0.669524
3.3,5.90023e-08,-5.90471e-08,0.7,4e-14,1.4,0.718158
3.3,5.92572e-08,-5.92928e-08,0.7,1e-14,1.45,0.768702
3.3,5.94617e-08,-5.95494e-08,0.7,4e-14,1.5,0.818366
3.3,5.97166e-08,-5.96886e-08,0.7,1e-14,1.55,0.868234
3.3,5.98837e-08,-5.98808e-08,0.7,1e-14,1.6,0.918522
3.3,6.00214e-08,-6.00102e-08,0.7,0.0,1.65,0.967708
3.3,6.01434e-08,-6.01754e-08,0.7,3e-14,1.7,1.017418
3.3,6.03743e-08,-6.03837e-08,0.7,1e-14,1.75,1.066654
3.3,6.05188e-08,-6.05725e-08,0.7,6e-14,1.8,1.116648
3.3,6.07069e-08,-6.07156e-08,0.7,3e-14,1.85,1.165826
3.3,6.08714e-08,-6.09137e-08,0.7,4e-14,1.9,1.215702
3.3,6.09826e-08,-6.10139e-08,0.7,4e-14,1.95,1.26599
3.3,6.11338e-08,-6.11492e-08,0.7,-2e-14,2.0,1.315278
3.3,6.13035e-08,-6.13157e-08,0.7,2e-14,2.05,1.365296
3.3,6.1492e-08,-6.14878e-08,0.7,2e-14,2.1,1.41528
3.3,6.15745e-08,-6.15734e-08,0.7,5e-14,2.15,1.464348
3.3,6.16596e-08,-6.16725e-08,0.7,-1e-14,2.2,1.514064
3.3,6.18214e-08,-6.18397e-08,0.7,0.0,2.25,1.56353
3.3,6.19696e-08,-6.1947e-08,0.7,2e-14,2.3,1.613806
3.3,6.2045e-08,-6.20374e-08,0.7,8e-14,2.35,1.664078
3.3,6.22051e-08,-6.21811e-08,0.7,3e-14,2.4,1.71372
3.3,6.23298e-08,-6.23181e-08,0.7,4e-14,2.45,1.762968
3.3,6.23973e-08,-6.24653e-08,0.7,2e-14,2.5,1.811508
3.3,6.25483e-08,-6.25809e-08,0.7,2e-14,2.55,1.860744
3.3,6.2607e-08,-6.26076e-08,0.7,3e-14,2.6,1.910648
3.3,6.28469e-08,-6.2846e-08,0.7,1e-14,2.65,1.960504
3.3,6.29294e-08,-6.28937e-08,0.7,4e-14,2.7,2.009804
3.3,6.30703e-08,-6.30142e-08,0.7,1e-14,2.75,2.0589
3.3,6.3085e-08,-6.31429e-08,0.7,1e-14,2.8,2.10779
3.3,6.32258e-08,-6.32217e-08,0.7,3e-14,2.85,2.156554
3.3,6.33506e-08,-6.3279e-08,0.7,5e-14,2.9,2.205528
3.3,6.34129e-08,-6.34175e-08,0.7,3e-14,2.95,2.25432
3.3,6.35278e-08,-6.35089e-08,0.7,2e-14,3.0,2.30388
3.3,2e-14,-1.856e-11,0.8,2e-14,0.0,0.00519
3.3,-1.61e-12,-1.737e-11,0.8,2e-14,0.05,0.00011
3.3,4.5e-13,-1.593e-11,0.8,0.0,0.1,0.000116
3.3,2.6e-13,-1.713e-11,0.8,-1e-14,0.15,0.00012
3.3,4.8e-12,-2.096e-11,0.8,2e-14,0.2,0.00012
3.3,2.426e-11,-3.966e-11,0.8,5e-14,0.25,0.000152
3.3,1.1786e-10,-1.338e-10,0.8,1e-14,0.3,0.000326
3.3,4.9606e-10,-5.1249e-10,0.8,0.0,0.35,0.001002
3.3,1.6527e-09,-1.67523e-09,0.8,-4e-14,0.4,0.003022
3.3,4.19562e-09,-4.20675e-09,0.8,-1e-14,0.45,0.0076
3.3,8.43686e-09,-8.44394e-09,0.8,0.0,0.5,0.015308
3.3,1.42368e-08,-1.42655e-08,0.8,1e-14,0.55,0.026286
3.3,2.12719e-08,-2.13748e-08,0.8,-1e-14,0.6,0.039702
3.3,2.91552e-08,-2.92649e-08,0.8,2e-14,0.65,0.056048
3.3,3.77199e-08,-3.77836e-08,0.8,5e-14,0.7,0.074784
3.3,4.66838e-08,-4.68257e-08,0.8,2e-14,0.75,0.096344
3.3,5.57807e-08,-5.585e-08,0.8,4e-14,0.8,0.12053
3.3,6.46508e-08,-6.48012e-08,0.8,7e-14,0.85,0.147108
3.3,7.33731e-08,-7.34926e-08,0.8,3e-14,0.9,0.17757
3.3,8.14023e-08,-8.14883e-08,0.8,5e-14,0.95,0.210578
3.3,8.8309e-08,-8.84258e-08,0.8,3e-14,1.0,0.246172
3.3,9.41442e-08,-9.41709e-08,0.8,4e-14,1.05,0.285536
3.3,9.85325e-08,-9.85788e-08,0.8,2e-14,1.1,0.327404
3.3,1.01794e-07,-1.017835e-07,0.8,1e-14,1.15,0.37341
3.3,1.03891e-07,-1.039428e-07,0.8,6e-14,1.2,0.419784
3.3,1.05328e-07,-1.053373e-07,0.8,1e-14,1.25,0.467782
3.3,1.06239e-07,-1.06287e-07,0.8,2e-14,1.3,0.51774
3.3,1.07113e-07,-1.07175e-07,0.8,0.0,1.35,0.566166
3.3,1.0778e-07,-1.077665e-07,0.8,-1e-14,1.4,0.61573
3.3,1.08387e-07,-1.083973e-07,0.8,2e-14,1.45,0.665576
3.3,1.08871e-07,-1.08871e-07,0.8,0.0,1.5,0.715942
3.3,1.09365e-07,-1.093666e-07,0.8,1e-14,1.55,0.765852
3.3,1.09849e-07,-1.098785e-07,0.8,2e-14,1.6,0.815618
3.3,1.10244e-07,-1.102006e-07,0.8,4e-14,1.65,0.864406
3.3,1.1055e-07,-1.105969e-07,0.8,3e-14,1.7,0.914196
3.3,1.10806e-07,-1.108059e-07,0.8,2e-14,1.75,0.964508
3.3,1.11198e-07,-1.112034e-07,0.8,3e-14,1.8,1.013824
3.3,1.11578e-07,-1.115038e-07,0.8,1e-14,1.85,1.063232
3.3,1.119e-07,-1.119391e-07,0.8,4e-14,1.9,1.11296
3.3,1.12231e-07,-1.121874e-07,0.8,6e-14,1.95,1.163362
3.3,1.12515e-07,-1.125876e-07,0.8,6e-14,2.0,1.213124
3.3,1.12736e-07,-1.127853e-07,0.8,1e-14,2.05,1.261646
3.3,1.12936e-07,-1.129686e-07,0.8,1e-14,2.1,1.311454
3.3,1.13243e-07,-1.13269e-07,0.8,2e-14,2.15,1.361652
3.3,1.13355e-07,-1.134081e-07,0.8,3e-14,2.2,1.411532
3.3,1.13757e-07,-1.136938e-07,0.8,3e-14,2.25,1.460696
3.3,1.13958e-07,-1.139287e-07,0.8,4e-14,2.3,1.51091
3.3,1.14274e-07,-1.14176e-07,0.8,2e-14,2.35,1.560578
3.3,1.1443e-07,-1.14456e-07,0.8,4e-14,2.4,1.609694
3.3,1.14695e-07,-1.14802e-07,0.8,3e-14,2.45,1.658538
3.3,1.14989e-07,-1.14971e-07,0.8,2e-14,2.5,1.706236
3.3,1.15191e-07,-1.15249e-07,0.8,5e-14,2.55,1.755806
3.3,1.15438e-07,-1.15454e-07,0.8,2e-14,2.6,1.804158
3.3,1.15617e-07,-1.15567e-07,0.8,2e-14,2.65,1.85359
3.3,1.15823e-07,-1.15814e-07,0.8,4e-14,2.7,1.903598
3.3,1.16036e-07,-1.16003e-07,0.8,1e-14,2.75,1.952716
3.3,1.1626e-07,-1.16267e-07,0.8,4e-14,2.8,2.001002
3.3,1.1647e-07,-1.16441e-07,0.8,4e-14,2.85,2.050068
3.3,1.16627e-07,-1.16655e-07,0.8,2e-14,2.9,2.098962
3.3,1.16815e-07,-1.16884e-07,0.8,0.0,2.95,2.147472
3.3,1.16899e-07,-1.16933e-07,0.8,0.0,3.0,2.196596
3.3,1.92e-12,-1.989e-11,0.9,5e-14,0.0,0.000136
3.3,9.5e-13,-1.891e-11,0.9,1e-14,0.05,0.000104
3.3,2.9e-12,-1.956e-11,0.9,3e-14,0.1,0.000104
3.3,2.45e-12,-2.05e-11,0.9,2e-14,0.15,0.000112
3.3,3.82e-12,-2.18e-11,0.9,2e-14,0.2,0.00011
3.3,2.298e-11,-4.224e-11,0.9,5e-14,0.25,0.00014
3.3,1.1983e-10,-1.3685e-10,0.9,2e-14,0.3,0.000282
3.3,5.0718e-10,-5.2242e-10,0.9,5e-14,0.35,0.00079
3.3,1.70938e-09,-1.72866e-09,0.9,6e-14,0.4,0.002304
3.3,4.39717e-09,-4.41832e-09,0.9,4e-14,0.45,0.005856
3.3,9.04872e-09,-9.07707e-09,0.9,3e-14,0.5,0.011976
3.3,1.55812e-08,-1.56065e-08,0.9,4e-14,0.55,0.020506
3.3,2.36732e-08,-2.37537e-08,0.9,2e-14,0.6,0.031486
3.3,3.28751e-08,-3.30065e-08,0.9,0.0,0.65,0.044526
3.3,4.31425e-08,-4.34314e-08,0.9,2e-14,0.7,0.059668
3.3,5.44576e-08,-5.46092e-08,0.9,2e-14,0.75,0.077168
3.3,6.61419e-08,-6.63245e-08,0.9,3e-14,0.8,0.096534
3.3,7.8422e-08,-7.85787e-08,0.9,3e-14,0.85,0.11823
3.3,9.08575e-08,-9.10118e-08,0.9,4e-14,0.9,0.142006
3.3,1.031611e-07,-1.033899e-07,0.9,1e-14,0.95,0.168234
3.3,1.15381e-07,-1.1539e-07,0.9,0.0,1.0,0.196316
3.3,1.2681e-07,-1.2702e-07,0.9,3e-14,1.05,0.227508
3.3,1.37689e-07,-1.37765e-07,0.9,6e-14,1.1,0.261206
3.3,1.47176e-07,-1.47334e-07,0.9,-1e-14,1.15,0.297708
3.3,1.553e-07,-1.55442e-07,0.9,0.0,1.2,0.335474
3.3,1.62029e-07,-1.62135e-07,0.9,3e-14,1.25,0.376628
3.3,1.67108e-07,-1.67288e-07,0.9,3e-14,1.3,0.420804
3.3,1.70946e-07,-1.70926e-07,0.9,1e-14,1.35,0.466134
3.3,1.73447e-07,-1.7342e-07,0.9,6e-14,1.4,0.512214
3.3,1.75358e-07,-1.75375e-07,0.9,1e-14,1.45,0.560672
3.3,1.76703e-07,-1.7681e-07,0.9,-1e-14,1.5,0.609664
3.3,1.7792e-07,-1.77996e-07,0.9,3e-14,1.55,0.658928
3.3,1.78984e-07,-1.79143e-07,0.9,2e-14,1.6,0.708272
3.3,1.79829e-07,-1.79806e-07,0.9,4e-14,1.65,0.756982
3.3,1.80614e-07,-1.8066e-07,0.9,3e-14,1.7,0.80765
3.3,1.81314e-07,-1.81349e-07,0.9,2e-14,1.75,0.857056
3.3,1.81893e-07,-1.81961e-07,0.9,3e-14,1.8,0.907278
3.3,1.82318e-07,-1.82391e-07,0.9,-2e-14,1.85,0.955796
3.3,1.83024e-07,-1.82997e-07,0.9,3e-14,1.9,1.006066
3.3,1.83472e-07,-1.83484e-07,0.9,6e-14,1.95,1.055712
3.3,1.83965e-07,-1.84076e-07,0.9,1e-14,2.0,1.106436
3.3,1.8446e-07,-1.84477e-07,0.9,4e-14,2.05,1.154404
3.3,1.84916e-07,-1.84937e-07,0.9,3e-14,2.1,1.203972
3.3,1.85284e-07,-1.85518e-07,0.9,-2e-14,2.15,1.253748
3.3,1.85834e-07,-1.85766e-07,0.9,0.0,2.2,1.303224
3.3,1.86146e-07,-1.8616e-07,0.9,5e-14,2.25,1.352064
3.3,1.86559e-07,-1.86599e-07,0.9,2e-14,2.3,1.401218
3.3,1.86974e-07,-1.86934e-07,0.9,1e-14,2.35,1.45061
3.3,1.87301e-07,-1.87325e-07,0.9,4e-14,2.4,1.499858
3.3,1.8769e-07,-1.87783e-07,0.9,3e-14,2.45,1.549768
3.3,1.88026e-07,-1.88079e-07,0.9,3e-14,2.5,1.597882
3.3,1.88482e-07,-1.88441e-07,0.9,1e-14,2.55,1.6463
3.3,1.88763e-07,-1.8884e-07,0.9,1e-14,2.6,1.696202
3.3,1.89052e-07,-1.8915e-07,0.9,3e-14,2.65,1.745204
3.3,1.89417e-07,-1.89341e-07,0.9,4e-14,2.7,1.793192
3.3,1.89766e-07,-1.89726e-07,0.9,2e-14,2.75,1.841748
3.3,1.90181e-07,-1.90081e-07,0.9,2e-14,2.8,1.890488
3.3,1.90416e-07,-1.90429e-07,0.9,1e-14,2.85,1.939934
3.3,1.90707e-07,-1.90735e-07,0.9,1e-14,2.9,1.98772
3.3,1.9101e-07,-1.91149e-07,0.9,4e-14,2.95,2.036316
3.3,1.9132e-07,-1.91315e-07,0.9,1e-14,3.0,2.082466
3.3,2.06e-12,-1.942e-11,1.0,3e-14,0.0,0.000112
3.3,1.77e-12,-1.934e-11,1.0,1e-14,0.05,9.4e-05
3.3,-7.5e-13,-1.705e-11,1.0,4e-14,0.1,9e-05
3.3,-8.3e-13,-1.915e-11,1.0,0.0,0.15,9.6e-05
3.3,3.03e-12,-2.173e-11,1.0,3e-14,0.2,9.6e-05
3.3,2.681e-11,-4.179e-11,1.0,2e-14,0.25,0.000116
3.3,1.2392e-10,-1.3689e-10,1.0,0.0,0.3,0.00021
3.3,5.1184e-10,-5.2624e-10,1.0,2e-14,0.35,0.000616
3.3,1.73784e-09,-1.75594e-09,1.0,2e-14,0.4,0.001814
3.3,4.55261e-09,-4.54907e-09,1.0,3e-14,0.45,0.004686
3.3,9.46684e-09,-9.48895e-09,1.0,5e-14,0.5,0.009636
3.3,1.64788e-08,-1.65178e-08,1.0,2e-14,0.55,0.016576
3.3,2.53526e-08,-2.53779e-08,1.0,1e-14,0.6,0.02569
3.3,3.55029e-08,-3.57253e-08,1.0,4e-14,0.65,0.036338
3.3,4.7065e-08,-4.71105e-08,1.0,3e-14,0.7,0.048932
3.3,5.97826e-08,-6.00789e-08,1.0,3e-14,0.75,0.063096
3.3,7.35326e-08,-7.37959e-08,1.0,3e-14,0.8,0.079264
3.3,8.83605e-08,-8.86244e-08,1.0,-1e-14,0.85,0.09755
3.3,1.038522e-07,-1.040524e-07,1.0,0.0,0.9,0.117302
3.3,1.20257e-07,-1.20653e-07,1.0,1e-14,0.95,0.139864
3.3,1.36301e-07,-1.36478e-07,1.0,4e-14,1.0,0.16294
3.3,1.52305e-07,-1.52571e-07,1.0,0.0,1.05,0.188418
3.3,1.68031e-07,-1.68205e-07,1.0,5e-14,1.1,0.215574
3.3,1.83397e-07,-1.83558e-07,1.0,3e-14,1.15,0.244908
3.3,1.97928e-07,-1.98058e-07,1.0,4e-14,1.2,0.276216
3.3,2.1136e-07,-2.11465e-07,1.0,2e-14,1.25,0.308738
3.3,2.23623e-07,-2.23873e-07,1.0,1e-14,1.3,0.344066
3.3,2.34793e-07,-2.34901e-07,1.0,0.0,1.35,0.382276
3.3,2.44062e-07,-2.44176e-07,1.0,2e-14,1.4,0.42173
3.3,2.51732e-07,-2.51715e-07,1.0,0.0,1.45,0.464166
3.3,2.57646e-07,-2.57708e-07,1.0,2e-14,1.5,0.509414
3.3,2.61963e-07,-2.62172e-07,1.0,3e-14,1.55,0.555546
3.3,2.65316e-07,-2.65378e-07,1.0,7e-14,1.6,0.603756
3.3,2.67798e-07,-2.67857e-07,1.0,-2e-14,1.65,0.650456
3.3,2.69679e-07,-2.697e-07,1.0,2e-14,1.7,0.699566
3.3,2.71317e-07,-2.71282e-07,1.0,-1e-14,1.75,0.748828
3.3,2.72653e-07,-2.72742e-07,1.0,3e-14,1.8,0.798988
3.3,2.73866e-07,-2.7381e-07,1.0,3e-14,1.85,0.847348
3.3,2.74795e-07,-2.74855e-07,1.0,1e-14,1.9,0.895766
3.3,2.75973e-07,-2.75916e-07,1.0,2e-14,1.95,0.944506
3.3,2.76654e-07,-2.76785e-07,1.0,2e-14,2.0,0.994628
3.3,2.77515e-07,-2.77536e-07,1.0,2e-14,2.05,1.04376
3.3,2.78552e-07,-2.78618e-07,1.0,0.0,2.1,1.09395
3.3,2.79326e-07,-2.79307e-07,1.0,1e-14,2.15,1.143972
3.3,2.79999e-07,-2.79993e-07,1.0,3e-14,2.2,1.19332
3.3,2.8066e-07,-2.80638e-07,1.0,6e-14,2.25,1.241636
3.3,2.81218e-07,-2.81232e-07,1.0,0.0,2.3,1.290928
3.3,2.8197e-07,-2.81821e-07,1.0,4e-14,2.35,1.340246
3.3,2.82521e-07,-2.82432e-07,1.0,0.0,2.4,1.387472
3.3,2.83095e-07,-2.8307e-07,1.0,1e-14,2.45,1.43644
3.3,2.83602e-07,-2.83689e-07,1.0,5e-14,2.5,1.484656
3.3,2.84038e-07,-2.84342e-07,1.0,4e-14,2.55,1.533956
3.3,2.84817e-07,-2.84783e-07,1.0,1e-14,2.6,1.582802
3.3,2.85202e-07,-2.85367e-07,1.0,4e-14,2.65,1.63063
3.3,2.85807e-07,-2.85852e-07,1.0,2e-14,2.7,1.678148
3.3,2.86366e-07,-2.86296e-07,1.0,5e-14,2.75,1.725988
3.3,2.86701e-07,-2.86622e-07,1.0,5e-14,2.8,1.775846
3.3,2.87215e-07,-2.87361e-07,1.0,0.0,2.85,1.82485
3.3,2.87644e-07,-2.87748e-07,1.0,1e-14,2.9,1.873136
3.3,2.88314e-07,-2.88303e-07,1.0,5e-14,2.95,1.92184
3.3,2.8889e-07,-2.88859e-07,1.0,3e-14,3.0,1.970096
3.3,2.3e-12,-1.851e-11,1.1,-1e-14,0.0,0.000114
3.3,-1.81e-12,-1.598e-11,1.1,1e-14,0.05,8.6e-05
3.3,-2e-14,-1.48e-11,1.1,2e-14,0.1,0.000104
3.3,8.4e-13,-1.555e-11,1.1,3e-14,0.15,8.6e-05
3.3,3.09e-12,-1.883e-11,1.1,1e-14,0.2,8.6e-05
3.3,2.244e-11,-3.929e-11,1.1,2e-14,0.25,0.00011
3.3,1.2279e-10,-1.3783e-10,1.1,0.0,0.3,0.000188
3.3,5.1847e-10,-5.3217e-10,1.1,0.0,0.35,0.000514
3.3,1.78149e-09,-1.78764e-09,1.1,1e-14,0.4,0.001564
3.3,4.68694e-09,-4.69882e-09,1.1,7e-14,0.45,0.003962
3.3,9.85061e-09,-9.86322e-09,1.1,1e-14,0.5,0.008076
3.3,1.72833e-08,-1.73225e-08,1.1,2e-14,0.55,0.013966
3.3,2.69323e-08,-2.70484e-08,1.1,2e-14,0.6,0.02171
3.3,3.7959e-08,-3.81236e-08,1.1,0.0,0.65,0.03076
3.3,5.06874e-08,-5.09083e-08,1.1,6e-14,0.7,0.041578
3.3,6.46912e-08,-6.50815e-08,1.1,3e-14,0.75,0.053726
3.3,8.0098e-08,-8.03591e-08,1.1,0.0,0.8,0.067354
3.3,9.67769e-08,-9.69608e-08,1.1,4e-14,0.85,0.082618
3.3,1.15004e-07,-1.15321e-07,1.1,3e-14,0.9,0.099786
3.3,1.33876e-07,-1.34114e-07,1.1,0.0,0.95,0.11876
3.3,1.52523e-07,-1.52784e-07,1.1,3e-14,1.0,0.138528
3.3,1.72163e-07,-1.72436e-07,1.1,5e-14,1.05,0.15995
3.3,1.92323e-07,-1.92587e-07,1.1,0.0,1.1,0.18313
