
SetupTitle, TR TRANSFER (FAST)
PrimitiveTest, I/V Sweep
TestParameter, Context.MainFrame, B1500A
TestParameter, Channel.UnitType, SMU, SMU, SMU
TestParameter, Channel.Unit, SMU2:HR, SMU4:HR, SMU3:HR
TestParameter, Channel.IName, IG, ID, IS
TestParameter, Channel.VName, VG, VD, VS
TestParameter, Channel.Mode, V, V, COMMON
TestParameter, Channel.Func, VAR1, CONST, CONST
TestParameter, Channel.Index, 
TestParameter, Channel.Time, 
TestParameter, Measurement.Port.Unit, SMU2:HR, SMU4:HR, SMU3:HR
TestParameter, Measurement.Port.SeriesResistor, NONE, NONE, NONE
TestParameter, Measurement.Port.Filter, ON, ON, ON
TestParameter, Measurement.Port.OutputVoltageComparison, 0, 0, 0
TestParameter, Measurement.Primary.Locus, Single
TestParameter, Measurement.Primary.Scale, LINEAR
TestParameter, Measurement.Primary.Start, -3
TestParameter, Measurement.Primary.Stop, 3
TestParameter, Measurement.Primary.Step, 0.05
TestParameter, Measurement.Primary.Compliance, 0.1
TestParameter, Measurement.Primary.PowerCompliance, 0
TestParameter, Measurement.Aborting.Condition, CONTINUE AT ANY
TestParameter, Measurement.PostOutput.Value, START
TestParameter, Measurement.PostOutput.Retention, OFF
TestParameter, Measurement.Bias.Source, -3, 0.1, 0
TestParameter, Measurement.Bias.Compliance, 0.1, 0.1, 0.1
TestParameter, Measurement.Monitor.Unit, SMU2:HR, SMU4:HR, SMU3:HR
TestParameter, Measurement.Monitor.Adc, HR ADC, HR ADC, HR ADC
TestParameter, Measurement.Monitor.Measurement, Compliance Side, Compliance Side, Compliance Side
TestParameter, Measurement.Monitor.RangingMode, LIMITED, LIMITED, LIMITED
TestParameter, Measurement.Monitor.RangeBoundary, 1nA, 1nA, 1nA
TestParameter, Measurement.Monitor.RangeRating, BY FULL RANGE, BY FULL RANGE, BY FULL RANGE
TestParameter, Measurement.Monitor.RangeRatingCoeff, 50, 50, 50
TestParameter, Measurement.Timing.Hold, 0
TestParameter, Measurement.Timing.Delay, 0
TestParameter, Measurement.Adc.HighSpeed.Mode, AUTO
TestParameter, Measurement.Adc.HighSpeed.Coeff, 1
TestParameter, Measurement.Adc.HighResolution.AutoZero, OFF
TestParameter, Measurement.Adc.HighResolution.Mode, AUTO
TestParameter, Measurement.Adc.HighResolution.Coeff, 6
TestParameter, Measurement.WaitTime.Source.Coeff, 1
TestParameter, Measurement.WaitTime.Source.Offset, 0
TestParameter, Measurement.WaitTime.Monitor.Coeff, 1
TestParameter, Measurement.WaitTime.Monitor.Offset, 0
TestParameter, Function.User.Name, I_NET
TestParameter, Function.User.Unit, A
TestParameter, Function.User.Definition, IG+ID+IS
TestParameter, Output.Graph.Enabled, true
TestParameter, Output.Graph.AutoScaling, false
TestParameter, Output.Graph.XAxis.Data, VG
TestParameter, Output.Graph.XAxis.Scale, Linear
TestParameter, Output.Graph.XAxis.Left, -3
TestParameter, Output.Graph.XAxis.Right, 3
TestParameter, Output.Graph.XAxis.RunTimeAutoScale, false
TestParameter, Output.Graph.YAxis.Data, ID, IG
TestParameter, Output.Graph.YAxis.Scale, Log, Log
TestParameter, Output.Graph.YAxis.Bottom, 0.001, 0.001
TestParameter, Output.Graph.YAxis.Top, 0.01, 0.01
TestParameter, Output.Graph.YAxis.Group, , 
TestParameter, Output.Graph.YAxis.RunTimeAutoScale, true, true
TestParameter, Output.List.Data, VG, VD, VS, IG, ID, I_NET, I_NET
TestParameter, AutoAnalysis.Interpolation, false
TestParameter, AutoAnalysis.Var2StepCount, 1
TestParameter, AutoAnalysis.Var2StepScript, 
TestParameter, AutoAnalysis.Line1.Enabled, false
TestParameter, AutoAnalysis.Line1.Type, 1
TestParameter, AutoAnalysis.Line1.Fix, True
TestParameter, AutoAnalysis.Line1.YAxis, 0
TestParameter, AutoAnalysis.Line1.Point1.Type, 0
TestParameter, AutoAnalysis.Line1.Point1.XY.X, 
TestParameter, AutoAnalysis.Line1.Point1.XY.Y, 
TestParameter, AutoAnalysis.Line1.Point1.Data.Var, 
TestParameter, AutoAnalysis.Line1.Point1.Data.Condition, 
TestParameter, AutoAnalysis.Line1.Point1.Data.Start, false
TestParameter, AutoAnalysis.Line1.Point1.Data.StartVar, 
TestParameter, AutoAnalysis.Line1.Point1.Data.StartCondition, 
TestParameter, AutoAnalysis.Line1.Point2.Type, 0
TestParameter, AutoAnalysis.Line1.Point2.XY.X, 
TestParameter, AutoAnalysis.Line1.Point2.XY.Y, 
TestParameter, AutoAnalysis.Line1.Point2.Data.Var, 
TestParameter, AutoAnalysis.Line1.Point2.Data.Condition, 
TestParameter, AutoAnalysis.Line1.Point2.Data.Start, false
TestParameter, AutoAnalysis.Line1.Point2.Data.StartVar, 
TestParameter, AutoAnalysis.Line1.Point2.Data.StartCondition, 
TestParameter, AutoAnalysis.Line1.GradientExpr, 0
TestParameter, AutoAnalysis.Line2.Enabled, false
TestParameter, AutoAnalysis.Line2.Type, 1
TestParameter, AutoAnalysis.Line2.Fix, True
TestParameter, AutoAnalysis.Line2.YAxis, 0
TestParameter, AutoAnalysis.Line2.Point1.Type, 0
TestParameter, AutoAnalysis.Line2.Point1.XY.X, 
TestParameter, AutoAnalysis.Line2.Point1.XY.Y, 
TestParameter, AutoAnalysis.Line2.Point1.Data.Var, 
TestParameter, AutoAnalysis.Line2.Point1.Data.Condition, 
TestParameter, AutoAnalysis.Line2.Point1.Data.Start, false
TestParameter, AutoAnalysis.Line2.Point1.Data.StartVar, 
TestParameter, AutoAnalysis.Line2.Point1.Data.StartCondition, 
TestParameter, AutoAnalysis.Line2.Point2.Type, 0
TestParameter, AutoAnalysis.Line2.Point2.XY.X, 
TestParameter, AutoAnalysis.Line2.Point2.XY.Y, 
TestParameter, AutoAnalysis.Line2.Point2.Data.Var, 
TestParameter, AutoAnalysis.Line2.Point2.Data.Condition, 
TestParameter, AutoAnalysis.Line2.Point2.Data.Start, false
TestParameter, AutoAnalysis.Line2.Point2.Data.StartVar, 
TestParameter, AutoAnalysis.Line2.Point2.Data.StartCondition, 
TestParameter, AutoAnalysis.Line2.GradientExpr, 0
TestParameter, AutoAnalysis.Marker.Enabled, false
TestParameter, AutoAnalysis.Marker.Data.Var, 
TestParameter, AutoAnalysis.Marker.Data.Condition, 
TestParameter, AutoAnalysis.Marker.Data.Start, false
TestParameter, AutoAnalysis.Marker.Data.StartVar, 
TestParameter, AutoAnalysis.Marker.Data.StartCondition, 
MetaData, TestRecord.EntryPoint, true
MetaData, TestRecord.RecordTime, 12/17/2025 14:42:52
MetaData, TestRecord.TestTarget, WF02_251203_#3_UNIT_TR_40/20/1_R0
MetaData, TestRecord.IterationIndex, 9
MetaData, TestRecord.Preservation, true
MetaData, TestRecord.Flag, 
MetaData, TestRecord.Remarks, 
MetaData, TestRecord.LinkKey, 9e064363-3133-4efa-b628-2970b2194865
MetaData, TestRecord.Parameters, 
Dimension1, 121, 121, 121, 121, 121, 121, 121
Dimension2, 1, 1, 1, 1, 1, 1, 1
DataName, VG, VD, VS, IG, ID, IS, I_NET
DataValue, -3, 0.1, 0, -2.77E-12, -1.2940000000000001E-11, 2.09E-12, -1.362E-11
DataValue, -2.95, 0.1, 0, -3.3200000000000004E-12, 1.2000000000000001E-12, 1.55E-11, 1.3380000000000002E-11
DataValue, -2.9, 0.1, 0, -5.3000000000000006E-13, 1.3950000000000001E-11, 8.86E-12, 2.228E-11
DataValue, -2.85, 0.1, 0, 3.61E-12, 1.0500000000000001E-11, 1.0000000000000002E-14, 1.412E-11
DataValue, -2.8000000000000003, 0.1, 0, 2.9900000000000004E-12, 2.6E-13, -1.4940000000000002E-11, -1.1690000000000002E-11
DataValue, -2.75, 0.1, 0, 1.3E-13, -1.279E-11, -1.0220000000000001E-11, -2.2880000000000003E-11
DataValue, -2.7, 0.1, 0, -3.9400000000000006E-12, -1.1320000000000001E-11, 8.0000000000000013E-14, -1.518E-11
DataValue, -2.65, 0.1, 0, -4.37E-12, 2.0000000000000003E-14, 1.261E-11, 8.26E-12
DataValue, -2.6, 0.1, 0, -9.8E-13, 1.0400000000000001E-11, 1.2020000000000001E-11, 2.1440000000000002E-11
DataValue, -2.5500000000000003, 0.1, 0, 2.2200000000000002E-12, 1.384E-11, 1.8000000000000002E-12, 1.786E-11
DataValue, -2.5, 0.1, 0, 4.52E-12, 2.7100000000000004E-12, -9.7200000000000014E-12, -2.4900000000000009E-12
DataValue, -2.45, 0.1, 0, 1.07E-12, -7.1000000000000008E-12, -1.454E-11, -2.057E-11
DataValue, -2.4, 0.1, 0, -2.09E-12, -1.489E-11, -2.46E-12, -1.944E-11
DataValue, -2.35, 0.1, 0, -5.6800000000000008E-12, -2.8900000000000004E-12, 7.02E-12, -1.5500000000000005E-12
DataValue, -2.3000000000000003, 0.1, 0, -1.5700000000000002E-12, 4.47E-12, 1.577E-11, 1.8670000000000002E-11
DataValue, -2.25, 0.1, 0, 6.9000000000000009E-13, 1.664E-11, 3.9E-12, 2.123E-11
DataValue, -2.2, 0.1, 0, 5.3200000000000008E-12, 4.9500000000000005E-12, -4.9100000000000007E-12, 5.36E-12
DataValue, -2.15, 0.1, 0, 1.6800000000000001E-12, -3.0900000000000004E-12, -1.6780000000000002E-11, -1.8190000000000004E-11
DataValue, -2.1, 0.1, 0, -5.9E-13, -1.3080000000000002E-11, -9.5E-13, -1.462E-11
DataValue, -2.05, 0.1, 0, -4.23E-12, -1.3300000000000002E-12, 1.1E-11, 5.44E-12
DataValue, -2, 0.1, 0, -8E-13, 1.0020000000000001E-11, 1.19E-11, 2.112E-11
DataValue, -1.95, 0.1, 0, 2.2200000000000002E-12, 1.3540000000000001E-11, 1.79E-12, 1.7550000000000003E-11
DataValue, -1.9000000000000001, 0.1, 0, 4.7000000000000006E-12, 2.6100000000000004E-12, -1.0020000000000001E-11, -2.7099999999999996E-12
DataValue, -1.85, 0.1, 0, 9.5E-13, -7.41E-12, -1.484E-11, -2.13E-11
DataValue, -1.8, 0.1, 0, -1.93E-12, -1.535E-11, -2.59E-12, -1.987E-11
DataValue, -1.75, 0.1, 0, -5.3600000000000006E-12, -3.2200000000000004E-12, 6E-12, -2.5800000000000007E-12
DataValue, -1.7, 0.1, 0, -1.4700000000000002E-12, 4.6100000000000008E-12, 1.562E-11, 1.8760000000000002E-11
DataValue, -1.6500000000000001, 0.1, 0, 7.3E-13, 1.621E-11, 4.6100000000000008E-12, 2.1550000000000002E-11
DataValue, -1.6, 0.1, 0, 5.2000000000000005E-12, 6.09E-12, -3.85E-12, 7.44E-12
DataValue, -1.55, 0.1, 0, 2.49E-12, -1.88E-12, -1.632E-11, -1.5710000000000003E-11
DataValue, -1.5, 0.1, 0, -2.6E-13, -1.63E-11, -5.6800000000000008E-12, -2.2240000000000002E-11
DataValue, -1.45, 0.1, 0, -4.5500000000000006E-12, -6.56E-12, 2.21E-12, -8.9000000000000013E-12
DataValue, -1.4000000000000001, 0.1, 0, -2.1700000000000002E-12, 1.08E-12, 1.602E-11, 1.493E-11
DataValue, -1.35, 0.1, 0, 5.5000000000000008E-13, 1.506E-11, 7.07E-12, 2.2680000000000003E-11
DataValue, -1.3, 0.1, 0, 5.1000000000000005E-12, 8.8100000000000014E-12, -1.3000000000000001E-12, 1.2610000000000002E-11
DataValue, -1.25, 0.1, 0, 4.3400000000000005E-12, 2.0000000000000003E-14, -1.593E-11, -1.1569999999999999E-11
DataValue, -1.2, 0.1, 0, 1.5400000000000001E-12, -1.491E-11, -1.0000000000000001E-11, -2.337E-11
DataValue, -1.1500000000000001, 0.1, 0, -2.2700000000000002E-12, -1.086E-11, -5E-13, -1.363E-11
DataValue, -1.1, 0.1, 0, -1.9400000000000002E-12, -9.4E-13, 1.211E-11, 9.23E-12
DataValue, -1.05, 0.1, 0, 2.8100000000000003E-12, 1.026E-11, 9.85E-12, 2.292E-11
DataValue, -1, 0.1, 0, 6.6E-12, 1.2270000000000002E-11, -5.5000000000000008E-13, 1.832E-11
DataValue, -0.95000000000000007, 0.1, 0, 9.1000000000000012E-12, 5.13E-12, -6.6900000000000008E-12, 7.54E-12
DataValue, -0.9, 0.1, 0, 5.24E-12, -1.2900000000000002E-12, -1.8870000000000002E-11, -1.4920000000000002E-11
DataValue, -0.85, 0.1, 0, 1.18E-12, -1.3800000000000002E-11, -8.7100000000000015E-12, -2.1330000000000005E-11
DataValue, -0.8, 0.1, 0, -4.53E-12, -3.1900000000000003E-12, -1.6800000000000001E-12, -9.4000000000000011E-12
DataValue, -0.75, 0.1, 0, -2.74E-12, 5.8700000000000006E-12, 1.0240000000000002E-11, 1.3370000000000001E-11
DataValue, -0.70000000000000007, 0.1, 0, 7E-14, 2.2310000000000002E-11, -2.6E-13, 2.212E-11
DataValue, -0.65, 0.1, 0, 4.31E-12, 1.936E-11, -1.1210000000000001E-11, 1.246E-11
DataValue, -0.6, 0.1, 0, 1.93E-12, 1.038E-11, -3.125E-11, -1.894E-11
DataValue, -0.55, 0.1, 0, -5.2E-13, 3.48E-12, -2.4610000000000003E-11, -2.1650000000000004E-11
DataValue, -0.5, 0.1, 0, -4.6500000000000006E-12, 2.1060000000000003E-11, -2.4190000000000003E-11, -7.7800000000000012E-12
DataValue, -0.45, 0.1, 0, -1.7200000000000001E-12, 3.78E-11, -2.078E-11, 1.5299999999999998E-11
DataValue, -0.4, 0.1, 0, 5.6E-13, 6.535E-11, -4.3360000000000006E-11, 2.2549999999999989E-11
DataValue, -0.35000000000000003, 0.1, 0, 5.08E-12, 7.3570000000000011E-11, -6.7840000000000008E-11, 1.081E-11
DataValue, -0.3, 0.1, 0, 2.9600000000000003E-12, 7.9090000000000008E-11, -1.0231000000000001E-10, -2.0260000000000003E-11
DataValue, -0.25, 0.1, 0, -2.04E-12, 1.008E-10, -1.1851E-10, -1.9750000000000009E-11
DataValue, -0.2, 0.1, 0, -5.0000000000000005E-12, 1.4947E-10, -1.4517E-10, -7.0000000000000792E-13
DataValue, -0.15, 0.1, 0, -1.2800000000000002E-12, 2.0468E-10, -1.8425E-10, 1.9150000000000006E-11
DataValue, -0.1, 0.1, 0, 1.1000000000000002E-12, 2.7442E-10, -2.5497E-10, 2.0549999999999996E-11
DataValue, -0.05, 0.1, 0, 5.28E-12, 3.3831000000000004E-10, -3.3982E-10, 3.7700000000000294E-12
DataValue, 0, 0.1, 0, 1.3900000000000001E-12, 4.2337E-10, -4.4443000000000004E-10, -1.9670000000000047E-11
DataValue, 0.05, 0.1, 0, -2.95E-12, 5.3450000000000007E-10, -5.4706000000000007E-10, -1.5509999999999981E-11
DataValue, 0.1, 0.1, 0, -4.63E-12, 6.9281E-10, -6.8382E-10, 4.3599999999999725E-12
DataValue, 0.15, 0.1, 0, -5.2E-13, 8.8489E-10, -8.6341E-10, 2.0959999999999998E-11
DataValue, 0.2, 0.1, 0, 2.06E-12, 1.1179100000000001E-09, -1.10108E-09, 1.8890000000000128E-11
DataValue, 0.25, 0.1, 0, -3.8000000000000005E-13, 1.3742E-09, -1.3684E-09, 5.4200000000001736E-12
DataValue, 0.3, 0.1, 0, 3.2100000000000003E-12, 1.7079E-09, -1.7232E-09, -1.2089999999999903E-11
DataValue, 0.35000000000000003, 0.1, 0, -2.6E-13, 2.1002E-09, -2.1199E-09, -1.9960000000000415E-11
DataValue, 0.4, 0.1, 0, -4.6600000000000007E-12, 2.6087E-09, -2.6041E-09, -6.0000000000101122E-14
DataValue, 0.45, 0.1, 0, -1.22E-12, 3.2136E-09, -3.1931E-09, 1.9279999999999958E-11
DataValue, 0.5, 0.1, 0, 2.29E-12, 3.9322E-09, -3.9155E-09, 1.8990000000000159E-11
DataValue, 0.55, 0.1, 0, 4.1500000000000007E-12, 4.7641E-09, -4.7777E-09, -9.4499999999997968E-12
DataValue, 0.6, 0.1, 0, 2E-13, 5.7537E-09, -5.7714E-09, -1.7499999999999991E-11
DataValue, 0.65, 0.1, 0, -5.0100000000000007E-12, 6.9432E-09, -6.9385E-09, -3.100000000003846E-13
DataValue, 0.70000000000000007, 0.1, 0, -1.8900000000000002E-12, 8.3352E-09, -8.3125E-09, 2.0809999999999642E-11
DataValue, 0.75, 0.1, 0, 1.7700000000000001E-12, 9.9535E-09, -9.9343E-09, 2.0970000000001014E-11
DataValue, 0.8, 0.1, 0, 5.63E-12, 1.17902E-08, -1.1790799999999999E-08, 5.0300000000003435E-12
DataValue, 0.85, 0.1, 0, -5.1100000000000006E-12, 1.3935199999999998E-08, -1.3929799999999999E-08, 2.8999999999979944E-13
DataValue, 0.9, 0.1, 0, 4.41E-12, 1.63816E-08, -1.6387199999999997E-08, -1.1899999999988347E-12
DataValue, 0.95000000000000007, 0.1, 0, -3.46E-12, 1.92252E-08, -1.9219599999999998E-08, 2.1400000000005737E-12
DataValue, 1, 0.1, 0, 2.5600000000000004E-12, 2.23896E-08, -2.2386E-08, 6.15999999999825E-12
DataValue, 1.05, 0.1, 0, -1.1600000000000001E-12, 2.6020799999999998E-08, -2.6011999999999998E-08, 7.6400000000001928E-12
DataValue, 1.1, 0.1, 0, 1.3000000000000001E-12, 3.00388E-08, -3.0033999999999996E-08, 6.099999999998976E-12
DataValue, 1.1500000000000001, 0.1, 0, 1.2000000000000002E-13, 3.46082E-08, -3.46078E-08, 5.2000000000032494E-13
DataValue, 1.2, 0.1, 0, -4.6000000000000006E-13, 3.9615999999999996E-08, -3.9596399999999994E-08, 1.9139999999999998E-11
DataValue, 1.25, 0.1, 0, 1.6E-12, 4.5200999999999996E-08, -4.5191799999999994E-08, 1.0800000000001658E-11
DataValue, 1.3, 0.1, 0, -4.22E-12, 5.1345599999999994E-08, -5.13262E-08, 1.5179999999994978E-11
DataValue, 1.35, 0.1, 0, 4.52E-12, 5.8081799999999993E-08, -5.8063199999999993E-08, 2.3119999999998158E-11
DataValue, 1.4000000000000001, 0.1, 0, -5.0500000000000005E-12, 6.54452E-08, -6.5424199999999988E-08, 1.5950000000008822E-11
DataValue, 1.45, 0.1, 0, 4.57E-12, 7.3437799999999988E-08, -7.34056E-08, 3.676999999998849E-11
DataValue, 1.5, 0.1, 0, -4.1000000000000007E-12, 8.2155799999999987E-08, -8.2125799999999993E-08, 2.5899999999997605E-11
DataValue, 1.55, 0.1, 0, 2.54E-12, 9.147499999999999E-08, -9.1431599999999986E-08, 4.5940000000006564E-11
DataValue, 1.6, 0.1, 0, -1.2800000000000002E-12, 1.0157019999999999E-07, -1.0152699999999999E-07, 4.1919999999995653E-11
DataValue, 1.6500000000000001, 0.1, 0, 1.32E-12, 1.1230959999999998E-07, -1.1225879999999999E-07, 5.2119999999991337E-11
DataValue, 1.7, 0.1, 0, 5.09E-12, 1.2388E-07, -1.2384E-07, 4.5089999999980454E-11
DataValue, 1.75, 0.1, 0, 3.23E-12, 1.3621999999999999E-07, -1.3621999999999999E-07, 3.2299999999906924E-12
DataValue, 1.8, 0.1, 0, 2.92E-12, 1.4932E-07, -1.4928E-07, 4.2919999999996787E-11
DataValue, 1.85, 0.1, 0, 2.6300000000000003E-12, 1.6318E-07, -1.6314E-07, 4.2630000000030075E-11
DataValue, 1.9000000000000001, 0.1, 0, 1.86E-12, 1.7784E-07, -1.778E-07, 4.1860000000016232E-11
DataValue, 1.95, 0.1, 0, 1.6E-12, 1.9322E-07, -1.931E-07, 1.2160000000001083E-10
DataValue, 2, 0.1, 0, 1.1100000000000001E-12, 2.0937999999999999E-07, -2.0926E-07, 1.2110999999998036E-10
DataValue, 2.05, 0.1, 0, 1.3400000000000002E-12, 2.2622E-07, -2.2613999999999999E-07, 8.13400000000017E-11
DataValue, 2.1, 0.1, 0, 6.6E-13, 2.4398E-07, -2.4388E-07, 1.0066000000001938E-10
DataValue, 2.15, 0.1, 0, 4.1E-13, 2.624E-07, -2.6234E-07, 6.041000000002006E-11
DataValue, 2.2, 0.1, 0, -4.1E-13, 2.8162E-07, -2.8149999999999997E-07, 1.1959000000002523E-10
DataValue, 2.25, 0.1, 0, 1.0000000000000002E-14, 3.0152E-07, -3.0144E-07, 8.0010000000021109E-11
DataValue, 2.3000000000000003, 0.1, 0, -5.5000000000000008E-13, 3.2232E-07, -3.2218E-07, 1.3945000000001651E-10
DataValue, 2.35, 0.1, 0, -1.4700000000000002E-12, 3.4377999999999997E-07, -3.4363999999999997E-07, 1.3853000000001441E-10
DataValue, 2.4, 0.1, 0, -2.7600000000000004E-12, 3.6592E-07, -3.6576E-07, 1.5723999999996336E-10
DataValue, 2.45, 0.1, 0, -3.66E-12, 3.8873999999999997E-07, -3.8858E-07, 1.5633999999998087E-10
DataValue, 2.5, 0.1, 0, -3.82E-12, 4.124E-07, -4.1224E-07, 1.5618000000003575E-10
DataValue, 2.5500000000000003, 0.1, 0, -4.7100000000000007E-12, 4.3662E-07, -4.3648E-07, 1.3529000000001391E-10
DataValue, 2.6, 0.1, 0, -4.93E-12, 4.6148E-07, -4.6132E-07, 1.550699999999797E-10
DataValue, 2.65, 0.1, 0, -5.24E-12, 4.8716E-07, -4.8694E-07, 2.1476000000008788E-10
DataValue, 2.7, 0.1, 0, -5.13E-12, 5.134E-07, -5.1314E-07, 2.5487000000010874E-10
DataValue, 2.75, 0.1, 0, -4.79E-12, 5.4014E-07, -5.3986E-07, 2.7520999999998834E-10
DataValue, 2.8000000000000003, 0.1, 0, -4.3400000000000005E-12, 5.6756E-07, -5.673E-07, 2.5566000000011573E-10
DataValue, 2.85, 0.1, 0, -3.7800000000000005E-12, 5.9574E-07, -5.955E-07, 2.3622000000011274E-10
DataValue, 2.9, 0.1, 0, -2.57E-12, 6.2432E-07, -6.241E-07, 2.1743000000003241E-10
DataValue, 2.95, 0.1, 0, -2.2200000000000002E-12, 6.5354E-07, -6.5328E-07, 2.5777999999997096E-10
DataValue, 3, 0.1, 0, -1.4300000000000002E-12, 6.8318E-07, -6.8306E-07, 1.1856999999992507E-10