VIN,VSS,VDD,IDD,ISS,VREF,IREF,VOUT
0.0,0.0,3.3,2e-13,9.91e+307,0.0,9.91e+307,0.042668
0.05,0.0,3.3,5.4e-13,9.91e+307,0.0,9.91e+307,0.050082
0.1,0.0,3.3,5.2e-13,9.91e+307,0.0,9.91e+307,0.053648
0.15,0.0,3.3,1.11e-12,9.91e+307,0.0,9.91e+307,0.057396
0.2,0.0,3.3,3.47e-12,9.91e+307,0.0,9.91e+307,0.061282
0.25,0.0,3.3,1.533e-11,9.91e+307,0.0,9.91e+307,0.06598
0.3,0.0,3.3,4.729e-11,9.91e+307,0.0,9.91e+307,0.0748
0.35,0.0,3.3,2.537e-11,9.91e+307,0.0,9.91e+307,0.087616
0.4,0.0,3.3,1.793e-11,9.91e+307,0.0,9.91e+307,0.095884
0.45,0.0,3.3,2.682e-11,9.91e+307,0.0,9.91e+307,0.103002
0.5,0.0,3.3,2.6153e-10,9.91e+307,0.0,9.91e+307,0.113532
0.55,0.0,3.3,2.205e-11,9.91e+307,0.0,9.91e+307,0.132382
0.6,0.0,3.3,1.4125e-10,9.91e+307,0.0,9.91e+307,0.15694
0.65,0.0,3.3,2.7014e-10,9.91e+307,0.0,9.91e+307,0.308324
0.7,0.0,3.3,2.093e-11,9.91e+307,0.0,9.91e+307,0.385786
0.75,0.0,3.3,1.9964e-10,9.91e+307,0.0,9.91e+307,0.44087
0.8,0.0,3.3,1.7755e-10,9.91e+307,0.0,9.91e+307,0.479466
0.85,0.0,3.3,4.0091e-10,9.91e+307,0.0,9.91e+307,0.525336
0.9,0.0,3.3,2.036e-10,9.91e+307,0.0,9.91e+307,0.569498
0.95,0.0,3.3,3.1669e-10,9.91e+307,0.0,9.91e+307,0.620834
1.0,0.0,3.3,2.3642e-10,9.91e+307,0.0,9.91e+307,0.672654
1.05,0.0,3.3,2.0116e-10,9.91e+307,0.0,9.91e+307,0.73637
1.1,0.0,3.3,2.2013e-10,9.91e+307,0.0,9.91e+307,0.773732
1.15,0.0,3.3,8.257e-11,9.91e+307,0.0,9.91e+307,0.814668
1.2,0.0,3.3,1.5204e-10,9.91e+307,0.0,9.91e+307,0.872512
1.25,0.0,3.3,1.5675e-10,9.91e+307,0.0,9.91e+307,0.936058
1.3,0.0,3.3,1.703e-10,9.91e+307,0.0,9.91e+307,0.965216
1.35,0.0,3.3,3.19e-12,9.91e+307,0.0,9.91e+307,0.988144
1.4,0.0,3.3,1.8e-12,9.91e+307,0.0,9.91e+307,1.032154
1.45,0.0,3.3,1.6088e-10,9.91e+307,0.0,9.91e+307,1.146318
1.5,0.0,3.3,5.397e-11,9.91e+307,0.0,9.91e+307,1.200526
1.55,0.0,3.3,1.9958e-10,9.91e+307,0.0,9.91e+307,1.239554
1.6,0.0,3.3,1.196e-11,9.91e+307,0.0,9.91e+307,1.276362
1.65,0.0,3.3,5.423e-11,9.91e+307,0.0,9.91e+307,1.297058
1.7,0.0,3.3,1.0395e-10,9.91e+307,0.0,9.91e+307,1.3176
1.75,0.0,3.3,3.771e-11,9.91e+307,0.0,9.91e+307,1.436366
1.8,0.0,3.3,3.67e-12,9.91e+307,0.0,9.91e+307,1.462206
1.85,0.0,3.3,2.26e-11,9.91e+307,0.0,9.91e+307,1.46999
1.9,0.0,3.3,7.88e-12,9.91e+307,0.0,9.91e+307,1.495158
1.95,0.0,3.3,6.1887e-10,9.91e+307,0.0,9.91e+307,1.53821
2.0,0.0,3.3,4.818e-11,9.91e+307,0.0,9.91e+307,1.643908
2.05,0.0,3.3,1.9784e-10,9.91e+307,0.0,9.91e+307,1.715846
2.1,0.0,3.3,2.2619e-10,9.91e+307,0.0,9.91e+307,1.788394
2.15,0.0,3.3,1.2428e-10,9.91e+307,0.0,9.91e+307,1.83599
2.2,0.0,3.3,1.988e-10,9.91e+307,0.0,9.91e+307,1.880734
2.25,0.0,3.3,1.1484e-10,9.91e+307,0.0,9.91e+307,1.91272
2.3,0.0,3.3,6.164e-11,9.91e+307,0.0,9.91e+307,1.950186
2.35,0.0,3.3,1.7982e-10,9.91e+307,0.0,9.91e+307,1.98212
2.4,0.0,3.3,3.0563e-10,9.91e+307,0.0,9.91e+307,2.030966
2.45,0.0,3.3,2.5609e-10,9.91e+307,0.0,9.91e+307,2.088126
2.5,0.0,3.3,2.0205e-10,9.91e+307,0.0,9.91e+307,2.129474
2.55,0.0,3.3,3.3005e-10,9.91e+307,0.0,9.91e+307,2.185282
2.6,0.0,3.3,1.4558e-10,9.91e+307,0.0,9.91e+307,2.25694
2.65,0.0,3.3,1.8361e-10,9.91e+307,0.0,9.91e+307,2.30306
2.7,0.0,3.3,1.429e-10,9.91e+307,0.0,9.91e+307,2.34588
2.75,0.0,3.3,1.5472e-10,9.91e+307,0.0,9.91e+307,2.38316
2.8,0.0,3.3,1.2231e-10,9.91e+307,0.0,9.91e+307,2.4198
2.85,0.0,3.3,1.6968e-10,9.91e+307,0.0,9.91e+307,2.45514
2.9,0.0,3.3,2.3323e-10,9.91e+307,0.0,9.91e+307,2.4897
2.95,0.0,3.3,1.1512e-10,9.91e+307,0.0,9.91e+307,2.54712
3.0,0.0,3.3,1.3481e-10,9.91e+307,0.0,9.91e+307,2.6048
0.0,0.0,3.3,6.6e-13,9.91e+307,0.25,9.91e+307,2.66712
0.05,0.0,3.3,1.1e-13,9.91e+307,0.25,9.91e+307,2.65396
0.1,0.0,3.3,2e-13,9.91e+307,0.25,9.91e+307,2.64516
0.15,0.0,3.3,-2.8e-13,9.91e+307,0.25,9.91e+307,2.6366
0.2,0.0,3.3,1.1e-13,9.91e+307,0.25,9.91e+307,2.62806
0.25,0.0,3.3,-2e-13,9.91e+307,0.25,9.91e+307,2.61984
0.3,0.0,3.3,-4.1e-13,9.91e+307,0.25,9.91e+307,2.61158
0.35,0.0,3.3,-1.7e-13,9.91e+307,0.25,9.91e+307,2.60354
0.4,0.0,3.3,-2.7e-13,9.91e+307,0.25,9.91e+307,2.59546
0.45,0.0,3.3,-2e-13,9.91e+307,0.25,9.91e+307,2.58726
0.5,0.0,3.3,5.3e-13,9.91e+307,0.25,9.91e+307,2.57914
0.55,0.0,3.3,-1.1e-13,9.91e+307,0.25,9.91e+307,2.57098
0.6,0.0,3.3,6.1e-13,9.91e+307,0.25,9.91e+307,2.5628
0.65,0.0,3.3,2.8e-13,9.91e+307,0.25,9.91e+307,2.55468
0.7,0.0,3.3,3.8e-13,9.91e+307,0.25,9.91e+307,2.54696
0.75,0.0,3.3,-4e-14,9.91e+307,0.25,9.91e+307,2.53908
0.8,0.0,3.3,6e-14,9.91e+307,0.25,9.91e+307,2.53132
0.85,0.0,3.3,1.02e-12,9.91e+307,0.25,9.91e+307,2.52388
0.9,0.0,3.3,9.7e-13,9.91e+307,0.25,9.91e+307,2.51484
0.95,0.0,3.3,1.56e-12,9.91e+307,0.25,9.91e+307,2.50894
1.0,0.0,3.3,1.12e-12,9.91e+307,0.25,9.91e+307,2.50122
1.05,0.0,3.3,4.8e-13,9.91e+307,0.25,9.91e+307,2.49248
1.1,0.0,3.3,1.7e-13,9.91e+307,0.25,9.91e+307,2.48468
1.15,0.0,3.3,-1.2e-13,9.91e+307,0.25,9.91e+307,2.47564
1.2,0.0,3.3,-2e-14,9.91e+307,0.25,9.91e+307,2.46468
1.25,0.0,3.3,-2.2e-13,9.91e+307,0.25,9.91e+307,2.44806
1.3,0.0,3.3,1.5e-13,9.91e+307,0.25,9.91e+307,2.43772
1.35,0.0,3.3,2.1e-13,9.91e+307,0.25,9.91e+307,2.42764
1.4,0.0,3.3,-1.4e-13,9.91e+307,0.25,9.91e+307,2.4179
1.45,0.0,3.3,-1e-14,9.91e+307,0.25,9.91e+307,2.4092
1.5,0.0,3.3,-2.5e-13,9.91e+307,0.25,9.91e+307,2.40264
1.55,0.0,3.3,1.1e-13,9.91e+307,0.25,9.91e+307,2.3934
1.6,0.0,3.3,-1.7e-13,9.91e+307,0.25,9.91e+307,2.38336
1.65,0.0,3.3,8e-14,9.91e+307,0.25,9.91e+307,2.37548
1.7,0.0,3.3,1.1e-13,9.91e+307,0.25,9.91e+307,2.3657
1.75,0.0,3.3,2.1e-13,9.91e+307,0.25,9.91e+307,2.3554
1.8,0.0,3.3,2.8e-13,9.91e+307,0.25,9.91e+307,2.3451
1.85,0.0,3.3,1e-14,9.91e+307,0.25,9.91e+307,2.337
1.9,0.0,3.3,6e-14,9.91e+307,0.25,9.91e+307,2.32988
1.95,0.0,3.3,3.5e-13,9.91e+307,0.25,9.91e+307,2.32052
2.0,0.0,3.3,7e-14,9.91e+307,0.25,9.91e+307,2.31216
2.05,0.0,3.3,4.1e-13,9.91e+307,0.25,9.91e+307,2.30196
2.1,0.0,3.3,1.4e-13,9.91e+307,0.25,9.91e+307,2.28652
2.15,0.0,3.3,6.6e-13,9.91e+307,0.25,9.91e+307,2.2758
2.2,0.0,3.3,-2.6e-13,9.91e+307,0.25,9.91e+307,2.26528
2.25,0.0,3.3,6e-14,9.91e+307,0.25,9.91e+307,2.2561
2.3,0.0,3.3,1.4e-13,9.91e+307,0.25,9.91e+307,2.24596
2.35,0.0,3.3,1.24e-12,9.91e+307,0.25,9.91e+307,2.23802
2.4,0.0,3.3,7.8e-12,9.91e+307,0.25,9.91e+307,2.23214
2.45,0.0,3.3,4.541e-11,9.91e+307,0.25,9.91e+307,2.22774
2.5,0.0,3.3,1.1092e-10,9.91e+307,0.25,9.91e+307,2.23178
2.55,0.0,3.3,8.557e-11,9.91e+307,0.25,9.91e+307,2.24426
2.6,0.0,3.3,7.462e-11,9.91e+307,0.25,9.91e+307,2.25296
2.65,0.0,3.3,5.138e-11,9.91e+307,0.25,9.91e+307,2.25994
2.7,0.0,3.3,6.164e-11,9.91e+307,0.25,9.91e+307,2.2638
2.75,0.0,3.3,4.358e-11,9.91e+307,0.25,9.91e+307,2.26632
2.8,0.0,3.3,6.317e-11,9.91e+307,0.25,9.91e+307,2.26688
2.85,0.0,3.3,6.876e-11,9.91e+307,0.25,9.91e+307,2.27214
2.9,0.0,3.3,5.036e-11,9.91e+307,0.25,9.91e+307,2.2767
2.95,0.0,3.3,5.506e-11,9.91e+307,0.25,9.91e+307,2.28476
3.0,0.0,3.3,6.191e-11,9.91e+307,0.25,9.91e+307,2.28684
0.0,0.0,3.3,1.17e-12,9.91e+307,0.5,9.91e+307,1.752594
0.05,0.0,3.3,8e-14,9.91e+307,0.5,9.91e+307,0.000106
0.1,0.0,3.3,6.7e-13,9.91e+307,0.5,9.91e+307,0.0001
0.15,0.0,3.3,4.4e-12,9.91e+307,0.5,9.91e+307,0.000122
0.2,0.0,3.3,2.324e-11,9.91e+307,0.5,9.91e+307,0.000258
0.25,0.0,3.3,1.1139e-10,9.91e+307,0.5,9.91e+307,0.000904
0.3,0.0,3.3,4.4556e-10,9.91e+307,0.5,9.91e+307,0.00335
0.35,0.0,3.3,1.27513e-09,9.91e+307,0.5,9.91e+307,0.009006
0.4,0.0,3.3,2.83989e-09,9.91e+307,0.5,9.91e+307,0.021866
0.45,0.0,3.3,4.28539e-09,9.91e+307,0.5,9.91e+307,0.040456
0.5,0.0,3.3,6.70083e-09,9.91e+307,0.5,9.91e+307,0.057808
0.55,0.0,3.3,7.59829e-09,9.91e+307,0.5,9.91e+307,0.085526
0.6,0.0,3.3,1.11728e-08,9.91e+307,0.5,9.91e+307,0.095866
0.65,0.0,3.3,5.8188e-09,9.91e+307,0.5,9.91e+307,0.090238
0.7,0.0,3.3,4.348e-09,9.91e+307,0.5,9.91e+307,0.184044
0.75,0.0,3.3,9.2254e-09,9.91e+307,0.5,9.91e+307,0.097704
0.8,0.0,3.3,9.0187e-09,9.91e+307,0.5,9.91e+307,0.116014
0.85,0.0,3.3,1.16404e-08,9.91e+307,0.5,9.91e+307,0.24745
0.9,0.0,3.3,1.18245e-08,9.91e+307,0.5,9.91e+307,0.232586
0.95,0.0,3.3,9.9887e-09,9.91e+307,0.5,9.91e+307,0.44021
1.0,0.0,3.3,1.09298e-08,9.91e+307,0.5,9.91e+307,0.26643
1.05,0.0,3.3,8.1332e-09,9.91e+307,0.5,9.91e+307,0.336464
1.1,0.0,3.3,1.0751e-08,9.91e+307,0.5,9.91e+307,0.502046
1.15,0.0,3.3,1.06523e-08,9.91e+307,0.5,9.91e+307,0.500974
1.2,0.0,3.3,1.23507e-08,9.91e+307,0.5,9.91e+307,0.449012
1.25,0.0,3.3,5.9217e-09,9.91e+307,0.5,9.91e+307,0.0961
1.3,0.0,3.3,2.37066e-09,9.91e+307,0.5,9.91e+307,0.013848
1.35,0.0,3.3,1.43385e-09,9.91e+307,0.5,9.91e+307,0.011878
1.4,0.0,3.3,2.56708e-09,9.91e+307,0.5,9.91e+307,0.017572
1.45,0.0,3.3,2.96734e-09,9.91e+307,0.5,9.91e+307,0.019916
1.5,0.0,3.3,3.14461e-09,9.91e+307,0.5,9.91e+307,0.02348
1.55,0.0,3.3,2.10389e-09,9.91e+307,0.5,9.91e+307,0.032242
1.6,0.0,3.3,4.0605e-09,9.91e+307,0.5,9.91e+307,0.038292
1.65,0.0,3.3,4.49336e-09,9.91e+307,0.5,9.91e+307,0.041458
1.7,0.0,3.3,6.50443e-09,9.91e+307,0.5,9.91e+307,0.054742
1.75,0.0,3.3,5.12744e-09,9.91e+307,0.5,9.91e+307,0.05118
1.8,0.0,3.3,3.10625e-09,9.91e+307,0.5,9.91e+307,0.027934
1.85,0.0,3.3,4.2303e-09,9.91e+307,0.5,9.91e+307,0.035242
1.9,0.0,3.3,3.63505e-09,9.91e+307,0.5,9.91e+307,0.031924
1.95,0.0,3.3,1.99549e-09,9.91e+307,0.5,9.91e+307,0.017838
2.0,0.0,3.3,3.21486e-09,9.91e+307,0.5,9.91e+307,0.014614
2.05,0.0,3.3,4.34625e-09,9.91e+307,0.5,9.91e+307,0.029182
2.1,0.0,3.3,5.32901e-09,9.91e+307,0.5,9.91e+307,0.045634
2.15,0.0,3.3,6.29726e-09,9.91e+307,0.5,9.91e+307,0.028634
2.2,0.0,3.3,8.65988e-09,9.91e+307,0.5,9.91e+307,0.071866
2.25,0.0,3.3,9.49428e-09,9.91e+307,0.5,9.91e+307,0.086244
2.3,0.0,3.3,6.2298e-09,9.91e+307,0.5,9.91e+307,0.081386
2.35,0.0,3.3,5.15147e-09,9.91e+307,0.5,9.91e+307,0.035228
2.4,0.0,3.3,6.00631e-09,9.91e+307,0.5,9.91e+307,0.044032
2.45,0.0,3.3,6.44053e-09,9.91e+307,0.5,9.91e+307,0.06733
2.5,0.0,3.3,9.75708e-09,9.91e+307,0.5,9.91e+307,0.106324
2.55,0.0,3.3,1.11518e-08,9.91e+307,0.5,9.91e+307,0.19104
2.6,0.0,3.3,1.26032e-08,9.91e+307,0.5,9.91e+307,0.369974
2.65,0.0,3.3,1.14322e-08,9.91e+307,0.5,9.91e+307,0.468262
2.7,0.0,3.3,1.06831e-08,9.91e+307,0.5,9.91e+307,0.511442
2.75,0.0,3.3,1.12406e-08,9.91e+307,0.5,9.91e+307,0.501818
2.8,0.0,3.3,1.20863e-08,9.91e+307,0.5,9.91e+307,0.510826
2.85,0.0,3.3,1.19605e-08,9.91e+307,0.5,9.91e+307,0.494392
2.9,0.0,3.3,1.17807e-08,9.91e+307,0.5,9.91e+307,0.441944
2.95,0.0,3.3,1.20897e-08,9.91e+307,0.5,9.91e+307,0.43604
3.0,0.0,3.3,1.25195e-08,9.91e+307,0.5,9.91e+307,0.498904
0.0,0.0,3.3,3.4e-13,9.91e+307,0.75,9.91e+307,2.6e-05
0.05,0.0,3.3,8e-14,9.91e+307,0.75,9.91e+307,1e-05
0.1,0.0,3.3,6.4e-13,9.91e+307,0.75,9.91e+307,1.4e-05
0.15,0.0,3.3,2.87e-12,9.91e+307,0.75,9.91e+307,1.6e-05
0.2,0.0,3.3,1.519e-11,9.91e+307,0.75,9.91e+307,3.6e-05
0.25,0.0,3.3,7.811e-11,9.91e+307,0.75,9.91e+307,0.000138
0.3,0.0,3.3,3.33e-10,9.91e+307,0.75,9.91e+307,0.000608
0.35,0.0,3.3,1.10349e-09,9.91e+307,0.75,9.91e+307,0.001968
0.4,0.0,3.3,2.98731e-09,9.91e+307,0.75,9.91e+307,0.005082
0.45,0.0,3.3,6.0565e-09,9.91e+307,0.75,9.91e+307,0.010876
0.5,0.0,3.3,5.83381e-09,9.91e+307,0.75,9.91e+307,0.014146
0.55,0.0,3.3,2.71679e-09,9.91e+307,0.75,9.91e+307,0.00635
0.6,0.0,3.3,1.56761e-09,9.91e+307,0.75,9.91e+307,0.002126
0.65,0.0,3.3,2.28483e-09,9.91e+307,0.75,9.91e+307,0.004182
0.7,0.0,3.3,1.43626e-09,9.91e+307,0.75,9.91e+307,0.003004
0.75,0.0,3.3,1.0605e-09,9.91e+307,0.75,9.91e+307,0.001582
0.8,0.0,3.3,2.3906e-10,9.91e+307,0.75,9.91e+307,0.001294
0.85,0.0,3.3,5.166e-10,9.91e+307,0.75,9.91e+307,0.000884
0.9,0.0,3.3,6.6973e-10,9.91e+307,0.75,9.91e+307,0.000816
0.95,0.0,3.3,2.0456e-10,9.91e+307,0.75,9.91e+307,0.00068
1.0,0.0,3.3,3.6631e-10,9.91e+307,0.75,9.91e+307,0.000372
1.05,0.0,3.3,2.6802e-10,9.91e+307,0.75,9.91e+307,0.000804
1.1,0.0,3.3,3.3872e-10,9.91e+307,0.75,9.91e+307,0.00061
1.15,0.0,3.3,4.9835e-10,9.91e+307,0.75,9.91e+307,0.000674
1.2,0.0,3.3,3.8973e-10,9.91e+307,0.75,9.91e+307,0.000724
1.25,0.0,3.3,3.1101e-10,9.91e+307,0.75,9.91e+307,0.000644
1.3,0.0,3.3,2.7042e-10,9.91e+307,0.75,9.91e+307,0.000888
1.35,0.0,3.3,2.7853e-10,9.91e+307,0.75,9.91e+307,0.000596
1.4,0.0,3.3,6.3392e-10,9.91e+307,0.75,9.91e+307,0.000418
1.45,0.0,3.3,6.6322e-10,9.91e+307,0.75,9.91e+307,0.000822
1.5,0.0,3.3,9.7132e-10,9.91e+307,0.75,9.91e+307,0.00121
1.55,0.0,3.3,8.6426e-10,9.91e+307,0.75,9.91e+307,0.00186
1.6,0.0,3.3,1.53256e-09,9.91e+307,0.75,9.91e+307,0.002314
1.65,0.0,3.3,2.33166e-09,9.91e+307,0.75,9.91e+307,0.003786
1.7,0.0,3.3,2.23626e-09,9.91e+307,0.75,9.91e+307,0.004186
1.75,0.0,3.3,4.27263e-09,9.91e+307,0.75,9.91e+307,0.006068
1.8,0.0,3.3,1.22792e-08,9.91e+307,0.75,9.91e+307,0.020422
1.85,0.0,3.3,1.36482e-08,9.91e+307,0.75,9.91e+307,0.027676
1.9,0.0,3.3,1.24983e-08,9.91e+307,0.75,9.91e+307,0.025146
1.95,0.0,3.3,1.07817e-08,9.91e+307,0.75,9.91e+307,0.024266
2.0,0.0,3.3,1.04538e-08,9.91e+307,0.75,9.91e+307,0.018234
2.05,0.0,3.3,9.6648e-09,9.91e+307,0.75,9.91e+307,0.02135
2.1,0.0,3.3,1.18712e-08,9.91e+307,0.75,9.91e+307,0.01912
2.15,0.0,3.3,1.38156e-08,9.91e+307,0.75,9.91e+307,0.022816
2.2,0.0,3.3,1.75032e-08,9.91e+307,0.75,9.91e+307,0.028004
2.25,0.0,3.3,2.05561e-08,9.91e+307,0.75,9.91e+307,0.038054
2.3,0.0,3.3,7.8509e-09,9.91e+307,0.75,9.91e+307,0.027352
2.35,0.0,3.3,1.52496e-08,9.91e+307,0.75,9.91e+307,0.021776
2.4,0.0,3.3,9.2817e-09,9.91e+307,0.75,9.91e+307,0.01404
2.45,0.0,3.3,2.0927e-10,9.91e+307,0.75,9.91e+307,0.00091
2.5,0.0,3.3,1.5135e-10,9.91e+307,0.75,9.91e+307,0.000242
2.55,0.0,3.3,8.625e-11,9.91e+307,0.75,9.91e+307,0.000106
2.6,0.0,3.3,7.677e-11,9.91e+307,0.75,9.91e+307,0.0001
2.65,0.0,3.3,6.825e-11,9.91e+307,0.75,9.91e+307,0.000168
2.7,0.0,3.3,1.1075e-10,9.91e+307,0.75,9.91e+307,0.00013
2.75,0.0,3.3,1.3471e-10,9.91e+307,0.75,9.91e+307,0.000178
2.8,0.0,3.3,1.3191e-10,9.91e+307,0.75,9.91e+307,0.000322
2.85,0.0,3.3,1.2385e-10,9.91e+307,0.75,9.91e+307,0.000166
2.9,0.0,3.3,7.248e-11,9.91e+307,0.75,9.91e+307,0.000154
2.95,0.0,3.3,9.89e-11,9.91e+307,0.75,9.91e+307,0.000156
3.0,0.0,3.3,8.46e-11,9.91e+307,0.75,9.91e+307,0.000214
0.0,0.0,3.3,-4.5e-13,9.91e+307,1.0,9.91e+307,-4e-06
0.05,0.0,3.3,3.2e-13,9.91e+307,1.0,9.91e+307,-2e-06
0.1,0.0,3.3,2.7e-13,9.91e+307,1.0,9.91e+307,-6e-06
0.15,0.0,3.3,1.91e-12,9.91e+307,1.0,9.91e+307,-6e-06
0.2,0.0,3.3,9.9e-12,9.91e+307,1.0,9.91e+307,4e-06
0.25,0.0,3.3,4.874e-11,9.91e+307,1.0,9.91e+307,3.2e-05
0.3,0.0,3.3,1.2206e-10,9.91e+307,1.0,9.91e+307,0.000148
0.35,0.0,3.3,8.96e-11,9.91e+307,1.0,9.91e+307,4.8e-05
0.4,0.0,3.3,6.719e-11,9.91e+307,1.0,9.91e+307,4.8e-05
0.45,0.0,3.3,9.557e-11,9.91e+307,1.0,9.91e+307,6e-05
0.5,0.0,3.3,7.266e-11,9.91e+307,1.0,9.91e+307,7.6e-05
0.55,0.0,3.3,7.369e-11,9.91e+307,1.0,9.91e+307,6.6e-05
0.6,0.0,3.3,5.531e-11,9.91e+307,1.0,9.91e+307,3.6e-05
0.65,0.0,3.3,6.383e-11,9.91e+307,1.0,9.91e+307,6.2e-05
0.7,0.0,3.3,7.473e-11,9.91e+307,1.0,9.91e+307,4.8e-05
0.75,0.0,3.3,8.23e-11,9.91e+307,1.0,9.91e+307,5.6e-05
0.8,0.0,3.3,9.771e-11,9.91e+307,1.0,9.91e+307,5.2e-05
0.85,0.0,3.3,5.676e-11,9.91e+307,1.0,9.91e+307,4.2e-05
0.9,0.0,3.3,5.75e-11,9.91e+307,1.0,9.91e+307,4.2e-05
0.95,0.0,3.3,4.21e-11,9.91e+307,1.0,9.91e+307,6.6e-05
1.0,0.0,3.3,5.624e-11,9.91e+307,1.0,9.91e+307,3.2e-05
1.05,0.0,3.3,5.205e-11,9.91e+307,1.0,9.91e+307,5.6e-05
1.1,0.0,3.3,5.995e-11,9.91e+307,1.0,9.91e+307,2.8e-05
1.15,0.0,3.3,5.141e-11,9.91e+307,1.0,9.91e+307,4e-05
1.2,0.0,3.3,8.274e-11,9.91e+307,1.0,9.91e+307,4.8e-05
1.25,0.0,3.3,7.137e-11,9.91e+307,1.0,9.91e+307,5.6e-05
1.3,0.0,3.3,7.68e-11,9.91e+307,1.0,9.91e+307,3.4e-05
1.35,0.0,3.3,5.558e-11,9.91e+307,1.0,9.91e+307,6.4e-05
1.4,0.0,3.3,8.087e-11,9.91e+307,1.0,9.91e+307,7e-05
1.45,0.0,3.3,5.455e-11,9.91e+307,1.0,9.91e+307,5.4e-05
1.5,0.0,3.3,6.252e-11,9.91e+307,1.0,9.91e+307,5e-05
1.55,0.0,3.3,5.625e-11,9.91e+307,1.0,9.91e+307,3.6e-05
1.6,0.0,3.3,5.949e-11,9.91e+307,1.0,9.91e+307,3.2e-05
1.65,0.0,3.3,4.851e-11,9.91e+307,1.0,9.91e+307,5e-05
1.7,0.0,3.3,1.1631e-10,9.91e+307,1.0,9.91e+307,4e-05
1.75,0.0,3.3,6.6916e-10,9.91e+307,1.0,9.91e+307,0.000656
1.8,0.0,3.3,1.7747e-10,9.91e+307,1.0,9.91e+307,0.000304
1.85,0.0,3.3,2.2382e-10,9.91e+307,1.0,9.91e+307,0.000226
1.9,0.0,3.3,2.1618e-10,9.91e+307,1.0,9.91e+307,0.000164
1.95,0.0,3.3,2.5981e-10,9.91e+307,1.0,9.91e+307,7.2e-05
2.0,0.0,3.3,2.2079e-10,9.91e+307,1.0,9.91e+307,0.000214
2.05,0.0,3.3,1.3017e-10,9.91e+307,1.0,9.91e+307,0.000134
2.1,0.0,3.3,6.922e-11,9.91e+307,1.0,9.91e+307,4.2e-05
2.15,0.0,3.3,7.805e-11,9.91e+307,1.0,9.91e+307,0.000172
2.2,0.0,3.3,9.953e-11,9.91e+307,1.0,9.91e+307,9.8e-05
2.25,0.0,3.3,8.175e-11,9.91e+307,1.0,9.91e+307,6.2e-05
2.3,0.0,3.3,8.368e-11,9.91e+307,1.0,9.91e+307,5.4e-05
2.35,0.0,3.3,1.225e-10,9.91e+307,1.0,9.91e+307,7.8e-05
2.4,0.0,3.3,5.61e-11,9.91e+307,1.0,9.91e+307,5.6e-05
2.45,0.0,3.3,5.212e-11,9.91e+307,1.0,9.91e+307,5.8e-05
2.5,0.0,3.3,6.174e-11,9.91e+307,1.0,9.91e+307,2.6e-05
2.55,0.0,3.3,4.532e-11,9.91e+307,1.0,9.91e+307,3.2e-05
2.6,0.0,3.3,5.871e-11,9.91e+307,1.0,9.91e+307,3.8e-05
2.65,0.0,3.3,4.246e-11,9.91e+307,1.0,9.91e+307,4e-05
2.7,0.0,3.3,4.401e-11,9.91e+307,1.0,9.91e+307,1.2e-05
2.75,0.0,3.3,2.97e-11,9.91e+307,1.0,9.91e+307,2.2e-05
2.8,0.0,3.3,2.714e-11,9.91e+307,1.0,9.91e+307,2e-06
2.85,0.0,3.3,3.792e-11,9.91e+307,1.0,9.91e+307,1e-05
2.9,0.0,3.3,1.865e-11,9.91e+307,1.0,9.91e+307,1e-05
2.95,0.0,3.3,1.951e-11,9.91e+307,1.0,9.91e+307,6e-06
3.0,0.0,3.3,1.519e-11,9.91e+307,1.0,9.91e+307,6e-06
0.0,0.0,3.3,4.3e-13,9.91e+307,1.25,9.91e+307,-1e-05
0.05,0.0,3.3,3.6e-13,9.91e+307,1.25,9.91e+307,-2e-06
0.1,0.0,3.3,3.3e-13,9.91e+307,1.25,9.91e+307,2e-06
0.15,0.0,3.3,1.75e-12,9.91e+307,1.25,9.91e+307,-1e-05
0.2,0.0,3.3,8.52e-12,9.91e+307,1.25,9.91e+307,-4e-06
0.25,0.0,3.3,2.607e-11,9.91e+307,1.25,9.91e+307,1e-05
0.3,0.0,3.3,4.269e-11,9.91e+307,1.25,9.91e+307,6e-06
0.35,0.0,3.3,5.098e-11,9.91e+307,1.25,9.91e+307,1e-05
0.4,0.0,3.3,5.669e-11,9.91e+307,1.25,9.91e+307,6e-06
0.45,0.0,3.3,5.577e-11,9.91e+307,1.25,9.91e+307,2.4e-05
0.5,0.0,3.3,6.405e-11,9.91e+307,1.25,9.91e+307,1.8e-05
0.55,0.0,3.3,6.647e-11,9.91e+307,1.25,9.91e+307,1.8e-05
0.6,0.0,3.3,5.684e-11,9.91e+307,1.25,9.91e+307,1.8e-05
0.65,0.0,3.3,5.743e-11,9.91e+307,1.25,9.91e+307,2.2e-05
0.7,0.0,3.3,4.536e-11,9.91e+307,1.25,9.91e+307,2.8e-05
0.75,0.0,3.3,3.905e-11,9.91e+307,1.25,9.91e+307,1.2e-05
0.8,0.0,3.3,7.243e-11,9.91e+307,1.25,9.91e+307,1.8e-05
0.85,0.0,3.3,4.988e-11,9.91e+307,1.25,9.91e+307,2.2e-05
0.9,0.0,3.3,5.879e-11,9.91e+307,1.25,9.91e+307,1.8e-05
0.95,0.0,3.3,5.232e-11,9.91e+307,1.25,9.91e+307,1.6e-05
1.0,0.0,3.3,5.845e-11,9.91e+307,1.25,9.91e+307,1.2e-05
1.05,0.0,3.3,7.3105e-10,9.91e+307,1.25,9.91e+307,2.2e-05
1.1,0.0,3.3,5.139e-11,9.91e+307,1.25,9.91e+307,1.8e-05
1.15,0.0,3.3,4.995e-11,9.91e+307,1.25,9.91e+307,2.2e-05
1.2,0.0,3.3,4.829e-11,9.91e+307,1.25,9.91e+307,1.6e-05
1.25,0.0,3.3,6.846e-11,9.91e+307,1.25,9.91e+307,2.8e-05
1.3,0.0,3.3,4.65e-11,9.91e+307,1.25,9.91e+307,0.00033
1.35,0.0,3.3,3.14e-11,9.91e+307,1.25,9.91e+307,8e-06
1.4,0.0,3.3,2.376e-11,9.91e+307,1.25,9.91e+307,1.2e-05
1.45,0.0,3.3,2.59e-11,9.91e+307,1.25,9.91e+307,6e-06
1.5,0.0,3.3,8.674e-11,9.91e+307,1.25,9.91e+307,2e-06
1.55,0.0,3.3,2.459e-11,9.91e+307,1.25,9.91e+307,1.8e-05
1.6,0.0,3.3,3.043e-11,9.91e+307,1.25,9.91e+307,-1.4e-05
1.65,0.0,3.3,1.781e-11,9.91e+307,1.25,9.91e+307,6e-06
1.7,0.0,3.3,2.408e-11,9.91e+307,1.25,9.91e+307,0.0
1.75,0.0,3.3,1.426e-11,9.91e+307,1.25,9.91e+307,-4e-06
1.8,0.0,3.3,1.275e-11,9.91e+307,1.25,9.91e+307,-4e-06
1.85,0.0,3.3,1.057e-11,9.91e+307,1.25,9.91e+307,-6e-06
1.9,0.0,3.3,9.71e-12,9.91e+307,1.25,9.91e+307,-4e-06
1.95,0.0,3.3,9.06e-12,9.91e+307,1.25,9.91e+307,-4e-06
2.0,0.0,3.3,1.029e-11,9.91e+307,1.25,9.91e+307,-4e-06
2.05,0.0,3.3,1.19e-11,9.91e+307,1.25,9.91e+307,-6e-06
2.1,0.0,3.3,1.125e-11,9.91e+307,1.25,9.91e+307,-4e-06
2.15,0.0,3.3,9.95e-12,9.91e+307,1.25,9.91e+307,-2e-06
2.2,0.0,3.3,9.7e-12,9.91e+307,1.25,9.91e+307,-6e-06
2.25,0.0,3.3,1.201e-11,9.91e+307,1.25,9.91e+307,-4e-06
2.3,0.0,3.3,6.87e-12,9.91e+307,1.25,9.91e+307,-8e-06
2.35,0.0,3.3,1.198e-11,9.91e+307,1.25,9.91e+307,-8e-06
2.4,0.0,3.3,9.2e-12,9.91e+307,1.25,9.91e+307,-2e-06
2.45,0.0,3.3,6.45e-12,9.91e+307,1.25,9.91e+307,-6e-06
2.5,0.0,3.3,7.7e-12,9.91e+307,1.25,9.91e+307,-4e-06
2.55,0.0,3.3,5.98e-12,9.91e+307,1.25,9.91e+307,-6e-06
2.6,0.0,3.3,1.17e-11,9.91e+307,1.25,9.91e+307,-6e-06
2.65,0.0,3.3,6.09e-12,9.91e+307,1.25,9.91e+307,-6e-06
2.7,0.0,3.3,8.74e-12,9.91e+307,1.25,9.91e+307,-8e-06
2.75,0.0,3.3,4.342e-11,9.91e+307,1.25,9.91e+307,2e-06
